# Hz S ri R 50
0	0.00147505	0	0.998525	0	9.512884e-06	0	-9.512884e-06	0
	9.512884e-06	0	-9.512884e-06	0	9.512884e-06	0	-9.512884e-06	0
	0.998525	0	0.00147505	0	-9.512884e-06	0	9.512884e-06	0
	-9.512884e-06	0	9.512884e-06	0	-9.512884e-06	0	9.512884e-06	0
	9.512884e-06	0	-9.512884e-06	0	0.00147505	0	0.998525	0
	9.512884e-06	0	-9.512884e-06	0	9.512884e-06	0	-9.512884e-06	0
	-9.512884e-06	0	9.512884e-06	0	0.998525	0	0.00147505	0
	-9.512884e-06	0	9.512884e-06	0	-9.512884e-06	0	9.512884e-06	0
	9.512884e-06	0	-9.512884e-06	0	9.512884e-06	0	-9.512884e-06	0
	0.00147505	0	0.998525	0	9.512884e-06	0	-9.512884e-06	0
	-9.512884e-06	0	9.512884e-06	0	-9.512884e-06	0	9.512884e-06	0
	0.998525	0	0.00147505	0	-9.512884e-06	0	9.512884e-06	0
	9.512884e-06	0	-9.512884e-06	0	9.512884e-06	0	-9.512884e-06	0
	9.512884e-06	0	-9.512884e-06	0	0.00147505	0	0.998525	0
	-9.512884e-06	0	9.512884e-06	0	-9.512884e-06	0	9.512884e-06	0
	-9.512884e-06	0	9.512884e-06	0	0.998525	0	0.00147505	0
4e+07	0.001875784	-0.01004762	0.9915759	-0.08946256	0.002054534	0.0179038	0.00040712	0.002963601
	1.731135e-05	0.0001278302	-2.891984e-05	-0.0001207235	8.507314e-06	2.859786e-05	-8.639989e-06	-2.868555e-05
	0.9915759	-0.08946256	0.001875784	-0.01004762	0.00040712	0.002963601	0.002054534	0.0179038
	-2.891984e-05	-0.0001207235	1.731135e-05	0.0001278302	-8.639989e-06	-2.868555e-05	8.507314e-06	2.859786e-05
	0.002054534	0.0179038	0.00040712	0.002963601	0.001894695	-0.01003434	0.9915534	-0.08949714
	0.0001305428	0.001131358	1.168846e-05	3.731375e-05	1.731198e-05	0.0001278416	-2.891975e-05	-0.0001207209
	0.00040712	0.002963601	0.002054534	0.0179038	0.9915534	-0.08949714	0.001894695	-0.01003434
	1.168846e-05	3.731375e-05	0.0001305428	0.001131358	-2.891975e-05	-0.0001207209	1.731198e-05	0.0001278416
	1.731135e-05	0.0001278302	-2.891984e-05	-0.0001207235	0.0001305428	0.001131358	1.168846e-05	3.731375e-05
	0.001895043	-0.01003072	0.9915535	-0.08949668	0.002054612	0.01790481	0.0004071398	0.002964212
	-2.891984e-05	-0.0001207235	1.731135e-05	0.0001278302	1.168846e-05	3.731375e-05	0.0001305428	0.001131358
	0.9915535	-0.08949668	0.001895043	-0.01003072	0.0004071398	0.002964212	0.002054612	0.01790481
	8.507314e-06	2.859786e-05	-8.639989e-06	-2.868555e-05	1.731198e-05	0.0001278416	-2.891975e-05	-0.0001207209
	0.002054612	0.01790481	0.0004071398	0.002964212	0.001875652	-0.01004924	0.9915758	-0.08946443
	-8.639989e-06	-2.868555e-05	8.507314e-06	2.859786e-05	-2.891975e-05	-0.0001207209	1.731198e-05	0.0001278416
	0.0004071398	0.002964212	0.002054612	0.01790481	0.9915758	-0.08946443	0.001875652	-0.01004924
8e+07	-0.003070831	-0.0322835	0.9805617	-0.1649626	0.006367031	0.03338073	0.002389899	0.007366231
	2.530158e-05	0.0002063437	-6.971136e-05	-0.0001813427	1.507005e-05	4.31587e-05	-1.588764e-05	-4.393324e-05
	0.9805617	-0.1649626	-0.003070831	-0.0322835	0.002389899	0.007366231	0.006367031	0.03338073
	-6.971136e-05	-0.0001813427	2.530158e-05	0.0002063437	-1.588764e-05	-4.393324e-05	1.507005e-05	4.31587e-05
	0.006367031	0.03338073	0.002389899	0.007366231	-0.003056824	-0.03230322	0.9805355	-0.1649837
	0.0003871441	0.002032609	0.0001088316	0.0002479755	2.53035e-05	0.0002063647	-6.971096e-05	-0.0001813357
	0.002389899	0.007366231	0.006367031	0.03338073	0.9805355	-0.1649837	-0.003056824	-0.03230322
	0.0001088316	0.0002479755	0.0003871441	0.002032609	-6.971096e-05	-0.0001813357	2.53035e-05	0.0002063647
	2.530158e-05	0.0002063437	-6.971136e-05	-0.0001813427	0.0003871441	0.002032609	0.0001088316	0.0002479755
	-0.003055673	-0.03229656	0.9805359	-0.1649824	0.006367383	0.03338267	0.002390081	0.007367476
	-6.971136e-05	-0.0001813427	2.530158e-05	0.0002063437	0.0001088316	0.0002479755	0.0003871441	0.002032609
	0.9805359	-0.1649824	-0.003055673	-0.03229656	0.002390081	0.007367476	0.006367383	0.03338267
	1.507005e-05	4.31587e-05	-1.588764e-05	-4.393324e-05	2.53035e-05	0.0002063647	-6.971096e-05	-0.0001813357
	0.006367383	0.03338267	0.002390081	0.007367476	-0.003071481	-0.03228668	0.980561	-0.1649662
	-1.588764e-05	-4.393324e-05	1.507005e-05	4.31587e-05	-6.971096e-05	-0.0001813357	2.53035e-05	0.0002063647
	0.002390081	0.007367476	0.006367383	0.03338267	0.980561	-0.1649662	-0.003071481	-0.03228668
1.2e+08	-0.0109715	-0.05250105	0.9627093	-0.2393549	0.01319453	0.04791478	0.005569887	0.01090172
	3.824281e-05	0.0002908155	-0.0001304004	-0.0002283306	2.289118e-05	5.460513e-05	-2.566903e-05	-5.691152e-05
	0.9627093	-0.2393549	-0.0109715	-0.05250105	0.005569887	0.01090172	0.01319453	0.04791478
	-0.0001304004	-0.0002283306	3.824281e-05	0.0002908155	-2.566903e-05	-5.691152e-05	2.289118e-05	5.460513e-05
	0.01319453	0.04791478	0.005569887	0.01090172	-0.0109666	-0.05254578	0.9626789	-0.2393674
	0.0007926721	0.002880053	0.0002635525	0.000409127	3.824698e-05	0.0002908467	-0.0001303993	-0.000228319
	0.005569887	0.01090172	0.01319453	0.04791478	0.9626789	-0.2393674	-0.0109666	-0.05254578
	0.0002635525	0.000409127	0.0007926721	0.002880053	-0.0001303993	-0.000228319	3.824698e-05	0.0002908467
	3.824281e-05	0.0002908155	-0.0001304004	-0.0002283306	0.0007926721	0.002880053	0.0002635525	0.000409127
	-0.01096418	-0.05253625	0.9626798	-0.2393654	0.01319532	0.04791758	0.00557034	0.01090356
	-0.0001304004	-0.0002283306	3.824281e-05	0.0002908155	0.0002635525	0.000409127	0.0007926721	0.002880053
	0.9626798	-0.2393654	-0.01096418	-0.05253625	0.00557034	0.01090356	0.01319532	0.04791758
	2.289118e-05	5.460513e-05	-2.566903e-05	-5.691152e-05	3.824698e-05	0.0002908467	-0.0001303993	-0.000228319
	0.01319532	0.04791758	0.00557034	0.01090356	-0.01097299	-0.05250564	0.9627077	-0.2393602
	-2.566903e-05	-5.691152e-05	2.289118e-05	5.460513e-05	-0.0001303993	-0.000228319	3.824698e-05	0.0002908467
	0.00557034	0.01090356	0.01319532	0.04791758	0.9627077	-0.2393602	-0.01097299	-0.05250564
1.6e+08	-0.0208051	-0.06764273	0.9375876	-0.3144937	0.02254382	0.06145129	0.009440566	0.01292036
	6.559829e-05	0.0003883255	-0.0002114533	-0.0002628675	3.346122e-05	6.323288e-05	-4.038087e-05	-6.757228e-05
	0.9375876	-0.3144937	-0.0208051	-0.06764273	0.009440566	0.01292036	0.02254382	0.06145129
	-0.0002114533	-0.0002628675	6.559829e-05	0.0003883255	-4.038087e-05	-6.757228e-05	3.346122e-05	6.323288e-05
	0.02254382	0.06145129	0.009440566	0.01292036	-0.02081052	-0.0676975	0.9375505	-0.3145085
	0.001352868	0.003680564	0.0004409124	0.0004742051	6.560604e-05	0.0003883672	-0.0002114509	-0.0002628514
	0.009440566	0.01292036	0.02254382	0.06145129	0.9375505	-0.3145085	-0.02081052	-0.0676975
	0.0004409124	0.0004742051	0.001352868	0.003680564	-0.0002114509	-0.0002628514	6.560604e-05	0.0003883672
	6.559829e-05	0.0003883255	-0.0002114533	-0.0002628675	0.001352868	0.003680564	0.0004409124	0.0004742051
	-0.02080634	-0.06768523	0.9375521	-0.314506	0.02254522	0.06145485	0.009441376	0.01292272
	-0.0002114533	-0.0002628675	6.559829e-05	0.0003883255	0.0004409124	0.0004742051	0.001352868	0.003680564
	0.9375521	-0.314506	-0.02080634	-0.06768523	0.009441376	0.01292272	0.02254522	0.06145485
	3.346122e-05	6.323288e-05	-4.038087e-05	-6.757228e-05	6.560604e-05	0.0003883672	-0.0002114509	-0.0002628514
	0.02254522	0.06145485	0.009441376	0.01292272	-0.02080769	-0.06764849	0.9375847	-0.3145003
	-4.038087e-05	-6.757228e-05	3.346122e-05	6.323288e-05	-0.0002114509	-0.0002628514	6.560604e-05	0.0003883672
	0.009441376	0.01292272	0.02254522	0.06145485	0.9375847	-0.3145003	-0.02080769	-0.06764849
2e+08	-0.03291439	-0.08082857	0.9064995	-0.3864849	0.03386014	0.0731255	0.01389241	0.01380338
	0.0001062788	0.0004876914	-0.0003017105	-0.000271554	4.525432e-05	6.788691e-05	-5.928391e-05	-7.385456e-05
	0.9064995	-0.3864849	-0.03291439	-0.08082857	0.01389241	0.01380338	0.03386014	0.0731255
	-0.0003017105	-0.000271554	0.0001062788	0.0004876914	-5.928391e-05	-7.385456e-05	4.525432e-05	6.788691e-05
	0.03386014	0.0731255	0.01389241	0.01380338	-0.03293162	-0.08089066	0.9064548	-0.3864998
	0.002027852	0.004367328	0.0006416605	0.0004841685	0.0001062916	0.0004877436	-0.000301706	-0.000271533
	0.01389241	0.01380338	0.03386014	0.0731255	0.9064548	-0.3864998	-0.03293162	-0.08089066
	0.0006416605	0.0004841685	0.002027852	0.004367328	-0.000301706	-0.000271533	0.0001062916	0.0004877436
	0.0001062788	0.0004876914	-0.0003017105	-0.000271554	0.002027852	0.004367328	0.0006416605	0.0004841685
	-0.0329253	-0.08087598	0.9064572	-0.386497	0.03386228	0.0731297	0.01389366	0.0138062
	-0.0003017105	-0.000271554	0.0001062788	0.0004876914	0.0006416605	0.0004841685	0.002027852	0.004367328
	0.9064572	-0.386497	-0.0329253	-0.08087598	0.01389366	0.0138062	0.03386228	0.0731297
	4.525432e-05	6.788691e-05	-5.928391e-05	-7.385456e-05	0.0001062916	0.0004877436	-0.000301706	-0.000271533
	0.03386228	0.0731297	0.01389366	0.0138062	-0.03291829	-0.08083524	0.9064951	-0.3864926
	-5.928391e-05	-7.385456e-05	4.525432e-05	6.788691e-05	-0.000301706	-0.000271533	0.0001062916	0.0004877436
	0.01389366	0.0138062	0.03386228	0.0731297	0.9064951	-0.3864926	-0.03291829	-0.08083524
2.4e+08	-0.04684643	-0.09175817	0.8698936	-0.4548447	0.04673826	0.08265033	0.01862941	0.01347233
	0.0001652835	0.0005912341	-0.0003960561	-0.0002582601	5.873671e-05	7.218506e-05	-8.321448e-05	-7.809612e-05
	0.8698936	-0.4548447	-0.04684643	-0.09175817	0.01862941	0.01347233	0.04673826	0.08265033
	-0.0003960561	-0.0002582601	0.0001652835	0.0005912341	-8.321448e-05	-7.809612e-05	5.873671e-05	7.218506e-05
	0.04673826	0.08265033	0.01862941	0.01347233	-0.04687561	-0.09182534	0.8698406	-0.454857
	0.002791638	0.004928094	0.0008517844	0.0004322912	0.0001653029	0.0005912966	-0.0003960483	-0.0002582343
	0.01862941	0.01347233	0.04673826	0.08265033	0.8698406	-0.454857	-0.04687561	-0.09182534
	0.0008517844	0.0004322912	0.002791638	0.004928094	-0.0003960483	-0.0002582343	0.0001653029	0.0005912966
	0.0001652835	0.0005912341	-0.0003960561	-0.0002582601	0.002791638	0.004928094	0.0008517844	0.0004322912
	-0.04686683	-0.09180864	0.8698438	-0.4548541	0.04674125	0.08265501	0.01863117	0.01347553
	-0.0003960561	-0.0002582601	0.0001652835	0.0005912341	0.0008517844	0.0004322912	0.002791638	0.004928094
	0.8698438	-0.4548541	-0.04686683	-0.09180864	0.01863117	0.01347553	0.04674125	0.08265501
	5.873671e-05	7.218506e-05	-8.321448e-05	-7.809612e-05	0.0001653029	0.0005912966	-0.0003960483	-0.0002582343
	0.04674125	0.08265501	0.01863117	0.01347553	-0.04685179	-0.09176544	0.8698876	-0.4548532
	-8.321448e-05	-7.809612e-05	5.873671e-05	7.218506e-05	-0.0003960483	-0.0002582343	0.0001653029	0.0005912966
	0.01863117	0.01347553	0.04674125	0.08265501	0.8698876	-0.4548532	-0.04685179	-0.09176544
2.8e+08	-0.06215743	-0.1002064	0.8282938	-0.5191983	0.06076172	0.08986926	0.0233325	0.01188662
	0.0002436562	0.0006911021	-0.0004864182	-0.0002197682	7.170919e-05	7.369694e-05	-0.000109659	-7.625551e-05
	0.8282938	-0.5191983	-0.06215743	-0.1002064	0.0233325	0.01188662	0.06076172	0.08986926
	-0.0004864182	-0.0002197682	0.0002436562	0.0006911021	-0.000109659	-7.625551e-05	7.170919e-05	7.369694e-05
	0.06076172	0.08986926	0.0233325	0.01188662	-0.06219874	-0.1002761	0.8282329	-0.5192057
	0.003620841	0.005352131	0.001053295	0.0003202488	0.0002436841	0.0006911741	-0.0004864059	-0.0002197376
	0.0233325	0.01188662	0.06076172	0.08986926	0.8282329	-0.5192057	-0.06219874	-0.1002761
	0.001053295	0.0003202488	0.003620841	0.005352131	-0.0004864059	-0.0002197376	0.0002436841	0.0006911741
	0.0002436562	0.0006911021	-0.0004864182	-0.0002197682	0.003620841	0.005352131	0.001053295	0.0003202488
	-0.06218724	-0.1002578	0.8282369	-0.5192029	0.06076563	0.08987425	0.02333481	0.01189013
	-0.0004864182	-0.0002197682	0.0002436562	0.0006911021	0.001053295	0.0003202488	0.003620841	0.005352131
	0.8282369	-0.5192029	-0.06218724	-0.1002578	0.02333481	0.01189013	0.06076563	0.08987425
	7.170919e-05	7.369694e-05	-0.000109659	-7.625551e-05	0.0002436841	0.0006911741	-0.0004864059	-0.0002197376
	0.06076563	0.08987425	0.02333481	0.01189013	-0.06216434	-0.100214	0.828286	-0.5192073
	-0.000109659	-7.625551e-05	7.170919e-05	7.369694e-05	-0.0004864059	-0.0002197376	0.0002436841	0.0006911741
	0.02333481	0.01189013	0.06076563	0.08987425	0.828286	-0.5192073	-0.06216434	-0.100214
3.2e+08	-0.0783673	-0.1060371	0.7822086	-0.579262	0.07550425	0.09468962	0.02770157	0.00910516
	0.0003425362	0.0007827355	-0.0005669952	-0.0001588561	8.409975e-05	7.306906e-05	-0.0001375776	-6.749371e-05
	0.7822086	-0.579262	-0.0783673	-0.1060371	0.02770157	0.00910516	0.07550425	0.09468962
	-0.0005669952	-0.0001588561	0.0003425362	0.0007827355	-0.0001375776	-6.749371e-05	8.409975e-05	7.306906e-05
	0.07550425	0.09468962	0.02770157	0.00910516	-0.07842022	-0.1061071	0.7821406	-0.5792621
	0.004490521	0.005635654	0.001231115	0.0001518338	0.0003425741	0.0007828159	-0.0005669771	-0.0001588213
	0.02770157	0.00910516	0.07550425	0.09468962	0.7821406	-0.5792621	-0.07842022	-0.1061071
	0.001231115	0.0001518338	0.004490521	0.005635654	-0.0005669771	-0.0001588213	0.0003425741	0.0007828159
	0.0003425362	0.0007827355	-0.0005669952	-0.0001588561	0.004490521	0.005635654	0.001231115	0.0001518338
	-0.07840582	-0.1060877	0.7821455	-0.5792596	0.07550913	0.09469475	0.02770448	0.009108888
	-0.0005669952	-0.0001588561	0.0003425362	0.0007827355	0.001231115	0.0001518338	0.004490521	0.005635654
	0.7821455	-0.5792596	-0.07840582	-0.1060877	0.02770448	0.009108888	0.07550913	0.09469475
	8.409975e-05	7.306906e-05	-0.0001375776	-6.749371e-05	0.0003425741	0.0007828159	-0.0005669771	-0.0001588213
	0.07550913	0.09469475	0.02770448	0.009108888	-0.07837577	-0.1060447	0.782199	-0.5792712
	-0.0001375776	-6.749371e-05	8.409975e-05	7.306906e-05	-0.0005669771	-0.0001588213	0.0003425741	0.0007828159
	0.02770448	0.009108888	0.07550913	0.09469475	0.782199	-0.5792712	-0.07837577	-0.1060447
3.6e+08	-0.09501872	-0.1092155	0.7321545	-0.6348188	0.09055308	0.09710169	0.03146677	0.005250244
	0.0004613985	0.0008608755	-0.0006330263	-7.928113e-05	9.58714e-05	7.077532e-05	-0.0001653539	-5.117671e-05
	0.7321545	-0.6348188	-0.09501872	-0.1092155	0.03146677	0.005250244	0.09055308	0.09710169
	-0.0006330263	-7.928113e-05	0.0004613985	0.0008608755	-0.0001653539	-5.117671e-05	9.58714e-05	7.077532e-05
	0.09055308	0.09710169	0.03146677	0.005250244	-0.09508232	-0.1092839	0.732081	-0.6348095
	0.005376991	0.005778974	0.001372076	-6.537032e-05	0.000461448	0.0008609627	-0.0006330011	-7.924319e-05
	0.03146677	0.005250244	0.09055308	0.09710169	0.732081	-0.6348095	-0.09508232	-0.1092839
	0.001372076	-6.537032e-05	0.005376991	0.005778974	-0.0006330011	-7.924319e-05	0.000461448	0.0008609627
	0.0004613985	0.0008608755	-0.0006330263	-7.928113e-05	0.005376991	0.005778974	0.001372076	-6.537032e-05
	-0.09506493	-0.1092638	0.7320867	-0.6348075	0.09055894	0.09710678	0.03147031	0.00525411
	-0.0006330263	-7.928113e-05	0.0004613985	0.0008608755	0.001372076	-6.537032e-05	0.005376991	0.005778974
	0.7320867	-0.6348075	-0.09506493	-0.1092638	0.03147031	0.00525411	0.09055894	0.09710678
	9.58714e-05	7.077532e-05	-0.0001653539	-5.117671e-05	0.000461448	0.0008609627	-0.0006330011	-7.924319e-05
	0.09055894	0.09710678	0.03147031	0.00525411	-0.09502869	-0.1092227	0.732143	-0.6348278
	-0.0001653539	-5.117671e-05	9.58714e-05	7.077532e-05	-0.0006330011	-7.924319e-05	0.000461448	0.0008609627
	0.03147031	0.00525411	0.09055894	0.09710678	0.732143	-0.6348278	-0.09502869	-0.1092227
4e+08	-0.1116973	-0.1097985	0.6786492	-0.6857074	0.1055233	0.09717041	0.03440004	0.000492587
	0.0005978847	0.000920103	-0.0006808177	1.468231e-05	0.0001067092	6.717313e-05	-0.0001906394	-2.717849e-05
	0.6786492	-0.6857074	-0.1116973	-0.1097985	0.03440004	0.000492587	0.1055233	0.09717041
	-0.0006808177	1.468231e-05	0.0005978847	0.000920103	-0.0001906394	-2.717849e-05	0.0001067092	6.717313e-05
	0.1055233	0.09717041	0.03440004	0.000492587	-0.1117705	-0.1098638	0.6785722	-0.6856873
	0.006258347	0.005785779	0.001465675	-0.0003207562	0.0005979471	0.0009201953	-0.0006807844	1.47222e-05
	0.03440004	0.000492587	0.1055233	0.09717041	0.6785722	-0.6856873	-0.1117705	-0.1098638
	0.001465675	-0.0003207562	0.006258347	0.005785779	-0.0006807844	1.47222e-05	0.0005979471	0.0009201953
	0.0005978847	0.000920103	-0.0006808177	1.468231e-05	0.006258347	0.005785779	0.001465675	-0.0003207562
	-0.1117501	-0.1098435	0.6785786	-0.6856859	0.1055301	0.09717528	0.03440422	0.000496514
	-0.0006808177	1.468231e-05	0.0005978847	0.000920103	0.001465675	-0.0003207562	0.006258347	0.005785779
	0.6785786	-0.6856859	-0.1117501	-0.1098435	0.03440422	0.000496514	0.1055301	0.09717528
	0.0001067092	6.717313e-05	-0.0001906394	-2.717849e-05	0.0005979471	0.0009201953	-0.0006807844	1.47222e-05
	0.1055301	0.09717528	0.03440422	0.000496514	-0.1117087	-0.1098051	0.678636	-0.685716
	-0.0001906394	-2.717849e-05	0.0001067092	6.717313e-05	-0.0006807844	1.47222e-05	0.0005979471	0.0009201953
	0.03440422	0.000496514	0.1055301	0.09717528	0.678636	-0.685716	-0.1117087	-0.1098051
4.4e+08	-0.1279883	-0.1078726	0.6221389	-0.7318629	0.1200672	0.09500458	0.03632869	-0.004944069
	0.0007485828	0.0009559852	-0.0007084973	0.0001180152	0.0001164244	6.29679e-05	-0.0002110499	3.436789e-06
	0.6221389	-0.7318629	-0.1279883	-0.1078726	0.03632869	-0.004944069	0.1200672	0.09500458
	-0.0007084973	0.0001180152	0.0007485828	0.0009559852	-0.0002110499	3.436789e-06	0.0001164244	6.29679e-05
	0.1200672	0.09500458	0.03632869	-0.004944069	-0.1280696	-0.1079337	0.6220605	-0.7318309
	0.007115114	0.00566333	0.001504362	-0.0006027516	0.0007486588	0.0009560804	-0.0007084551	0.0001180555
	0.03632869	-0.004944069	0.1200672	0.09500458	0.6220605	-0.7318309	-0.1280696	-0.1079337
	0.001504362	-0.0006027516	0.007115114	0.00566333	-0.0007084551	0.0001180555	0.0007486588	0.0009560804
	0.0007485828	0.0009559852	-0.0007084973	0.0001180152	0.007115114	0.00566333	0.001504362	-0.0006027516
	-0.1280462	-0.1079135	0.6220674	-0.7318303	0.1200749	0.09500905	0.03633352	-0.004940155
	-0.0007084973	0.0001180152	0.0007485828	0.0009559852	0.001504362	-0.0006027516	0.007115114	0.00566333
	0.6220674	-0.7318303	-0.1280462	-0.1079135	0.03633352	-0.004940155	0.1200749	0.09500905
	0.0001164244	6.29679e-05	-0.0002110499	3.436789e-06	0.0007486588	0.0009560804	-0.0007084551	0.0001180555
	0.1200749	0.09500905	0.03633352	-0.004940155	-0.1280009	-0.1078783	0.6221239	-0.7318708
	-0.0002110499	3.436789e-06	0.0001164244	6.29679e-05	-0.0007084551	0.0001180555	0.0007486588	0.0009560804
	0.03633352	-0.004940155	0.1200749	0.09500905	0.6221239	-0.7318708	-0.1280009	-0.1078783
4.8e+08	-0.1435643	-0.1036129	0.5630872	-0.7732281	0.1338793	0.09077072	0.03713333	-0.01082482
	0.0009084743	0.0009647699	-0.0007150119	0.0002259704	0.0001254556	5.800051e-05	-0.0002250241	3.985932e-05
	0.5630872	-0.7732281	-0.1435643	-0.1036129	0.03713333	-0.01082482	0.1338793	0.09077072
	-0.0007150119	0.0002259704	0.0009084743	0.0009647699	-0.0002250241	3.985932e-05	0.0001254556	5.800051e-05
	0.1338793	0.09077072	0.03713333	-0.01082482	-0.1436526	-0.1036691	0.5630099	-0.7731837
	0.00792997	0.00542058	0.001483853	-0.0008981772	0.0009085643	0.0009648656	-0.0007149606	0.0002260094
	0.03713333	-0.01082482	0.1338793	0.09077072	0.5630099	-0.7731837	-0.1436526	-0.1036691
	0.001483853	-0.0008981772	0.00792997	0.00542058	-0.0007149606	0.0002260094	0.0009085643	0.0009648656
	0.0009084743	0.0009647699	-0.0007150119	0.0002259704	0.00792997	0.00542058	0.001483853	-0.0008981772
	-0.1436263	-0.1036496	0.5630172	-0.7731841	0.1338879	0.09077465	0.0371388	-0.01082099
	-0.0007150119	0.0002259704	0.0009084743	0.0009647699	0.001483853	-0.0008981772	0.00792997	0.00542058
	0.5630172	-0.7731841	-0.1436263	-0.1036496	0.0371388	-0.01082099	0.1338879	0.09077465
	0.0001254556	5.800051e-05	-0.0002250241	3.985932e-05	0.0009085643	0.0009648656	-0.0007149606	0.0002260094
	0.1338879	0.09077465	0.0371388	-0.01082099	-0.143578	-0.1036175	0.5630707	-0.7732352
	-0.0002250241	3.985932e-05	0.0001254556	5.800051e-05	-0.0007149606	0.0002260094	0.0009085643	0.0009648656
	0.0371388	-0.01082099	0.1338879	0.09077465	0.5630707	-0.7732352	-0.143578	-0.1036175
5.2e+08	-0.1581134	-0.09720764	0.5018841	-0.8098084	0.146699	0.08465714	0.03675484	-0.01689341
