# Hz S ri R 50
0	2.699877e-05	0	0.999973	0	1.897865e-07	0	-1.897865e-07	0
	1.897865e-07	0	-1.897865e-07	0	1.897865e-07	0	-1.897865e-07	0
	0.999973	0	2.699877e-05	0	-1.897865e-07	0	1.897865e-07	0
	-1.897865e-07	0	1.897865e-07	0	-1.897865e-07	0	1.897865e-07	0
	1.897865e-07	0	-1.897865e-07	0	2.699877e-05	0	0.999973	0
	1.897865e-07	0	-1.897865e-07	0	1.897865e-07	0	-1.897865e-07	0
	-1.897865e-07	0	1.897865e-07	0	0.999973	0	2.699877e-05	0
	-1.897865e-07	0	1.897865e-07	0	-1.897865e-07	0	1.897865e-07	0
	1.897865e-07	0	-1.897865e-07	0	1.897865e-07	0	-1.897865e-07	0
	2.699877e-05	0	0.999973	0	1.897865e-07	0	-1.897865e-07	0
	-1.897865e-07	0	1.897865e-07	0	-1.897865e-07	0	1.897865e-07	0
	0.999973	0	2.699877e-05	0	-1.897865e-07	0	1.897865e-07	0
	1.897865e-07	0	-1.897865e-07	0	1.897865e-07	0	-1.897865e-07	0
	1.897865e-07	0	-1.897865e-07	0	2.699877e-05	0	0.999973	0
	-1.897865e-07	0	1.897865e-07	0	-1.897865e-07	0	1.897865e-07	0
	-1.897865e-07	0	1.897865e-07	0	0.999973	0	2.699877e-05	0
4e+07	8.080589e-05	-0.0003568157	0.9998052	-0.004569882	1.694628e-05	0.0004942222	-1.480037e-06	4.860504e-05
	2.741299e-06	2.205437e-05	-2.448715e-06	-1.322018e-05	2.106987e-06	2.985696e-06	-2.092191e-06	-2.580096e-06
	0.9998052	-0.004569882	8.080589e-05	-0.0003568157	-1.480037e-06	4.860504e-05	1.694628e-05	0.0004942222
	-2.448715e-06	-1.322018e-05	2.741299e-06	2.205437e-05	-2.092191e-06	-2.580096e-06	2.106987e-06	2.985696e-06
	1.694628e-05	0.0004942222	-1.480037e-06	4.860504e-05	8.315815e-05	-0.0003658357	0.999802	-0.004582574
	1.143625e-05	0.0002639865	-2.499346e-06	2.389121e-05	2.741107e-06	2.204745e-05	-2.448915e-06	-1.322374e-05
	-1.480037e-06	4.860504e-05	1.694628e-05	0.0004942222	0.999802	-0.004582574	8.315815e-05	-0.0003658357
	-2.499346e-06	2.389121e-05	1.143625e-05	0.0002639865	-2.448915e-06	-1.322374e-05	2.741107e-06	2.204745e-05
	2.741299e-06	2.205437e-05	-2.448715e-06	-1.322018e-05	1.143625e-05	0.0002639865	-2.499346e-06	2.389121e-05
	8.315294e-05	-0.0003659641	0.999802	-0.004582589	1.694705e-05	0.0004942261	-1.479612e-06	4.856428e-05
	-2.448715e-06	-1.322018e-05	2.741299e-06	2.205437e-05	-2.499346e-06	2.389121e-05	1.143625e-05	0.0002639865
	0.999802	-0.004582589	8.315294e-05	-0.0003659641	-1.479612e-06	4.856428e-05	1.694705e-05	0.0004942261
	2.106987e-06	2.985696e-06	-2.092191e-06	-2.580096e-06	2.741107e-06	2.204745e-05	-2.448915e-06	-1.322374e-05
	1.694705e-05	0.0004942261	-1.479612e-06	4.856428e-05	8.082186e-05	-0.0003558984	0.9998053	-0.004569785
	-2.092191e-06	-2.580096e-06	2.106987e-06	2.985696e-06	-2.448915e-06	-1.322374e-05	2.741107e-06	2.204745e-05
	-1.479612e-06	4.856428e-05	1.694705e-05	0.0004942261	0.9998053	-0.004569785	8.082186e-05	-0.0003558984
8e+07	5.289957e-05	-0.001356807	0.9997533	-0.00847505	2.598059e-05	0.0009216778	2.910583e-06	0.0001615115
	3.057853e-06	3.806819e-05	-2.729444e-06	-2.043369e-05	2.228227e-06	4.90723e-06	-2.214305e-06	-4.097575e-06
	0.9997533	-0.00847505	5.289957e-05	-0.001356807	2.910583e-06	0.0001615115	2.598059e-05	0.0009216778
	-2.729444e-06	-2.043369e-05	3.057853e-06	3.806819e-05	-2.214305e-06	-4.097575e-06	2.228227e-06	4.90723e-06
	2.598059e-05	0.0009216778	2.910583e-06	0.0001615115	5.500208e-05	-0.001379963	0.9997495	-0.008495214
	1.652293e-05	0.0004927519	-1.566867e-07	8.169314e-05	3.057519e-06	3.805491e-05	-2.729801e-06	-2.044132e-05
	2.910583e-06	0.0001615115	2.598059e-05	0.0009216778	0.9997495	-0.008495214	5.500208e-05	-0.001379963
	-1.566867e-07	8.169314e-05	1.652293e-05	0.0004927519	-2.729801e-06	-2.044132e-05	3.057519e-06	3.805491e-05
	3.057853e-06	3.806819e-05	-2.729444e-06	-2.043369e-05	1.652293e-05	0.0004927519	-1.566867e-07	8.169314e-05
	5.499345e-05	-0.001380203	0.9997495	-0.008495261	2.598142e-05	0.0009216799	2.910395e-06	0.000161436
	-2.729444e-06	-2.043369e-05	3.057853e-06	3.806819e-05	-1.566867e-07	8.169314e-05	1.652293e-05	0.0004927519
	0.9997495	-0.008495261	5.499345e-05	-0.001380203	2.910395e-06	0.000161436	2.598142e-05	0.0009216799
	2.228227e-06	4.90723e-06	-2.214305e-06	-4.097575e-06	3.057519e-06	3.805491e-05	-2.729801e-06	-2.044132e-05
	2.598142e-05	0.0009216799	2.910395e-06	0.000161436	5.293131e-05	-0.00135509	0.9997533	-0.008474742
	-2.214305e-06	-4.097575e-06	2.228227e-06	4.90723e-06	-2.729801e-06	-2.044132e-05	3.057519e-06	3.805491e-05
	2.910395e-06	0.000161436	2.598142e-05	0.0009216799	0.9997533	-0.008474742	5.293131e-05	-0.00135509
1.2e+08	2.536317e-05	-0.002312866	0.9996702	-0.01240101	3.944374e-05	0.001351114	8.958707e-06	0.0002697449
	3.383934e-06	5.419757e-05	-3.065437e-06	-2.779634e-05	2.219285e-06	6.676508e-06	-2.210544e-06	-5.464382e-06
	0.9996702	-0.01240101	2.536317e-05	-0.002312866	8.958707e-06	0.0002697449	3.944374e-05	0.001351114
	-3.065437e-06	-2.779634e-05	3.383934e-06	5.419757e-05	-2.210544e-06	-5.464382e-06	2.219285e-06	6.676508e-06
	3.944374e-05	0.001351114	8.958707e-06	0.0002697449	2.692571e-05	-0.002349619	0.9996658	-0.01242907
	2.409354e-05	0.0007222477	2.976745e-06	0.0001373331	3.3834e-06	5.41779e-05	-3.066016e-06	-2.780797e-05
	8.958707e-06	0.0002697449	3.944374e-05	0.001351114	0.9996658	-0.01242907	2.692571e-05	-0.002349619
	2.976745e-06	0.0001373331	2.409354e-05	0.0007222477	-3.066016e-06	-2.780797e-05	3.3834e-06	5.41779e-05
	3.383934e-06	5.419757e-05	-3.065437e-06	-2.779634e-05	2.409354e-05	0.0007222477	2.976745e-06	0.0001373331
	2.691242e-05	-0.002349972	0.9996658	-0.01242914	3.944446e-05	0.001351115	8.957365e-06	0.0002696344
	-3.065437e-06	-2.779634e-05	3.383934e-06	5.419757e-05	2.976745e-06	0.0001373331	2.409354e-05	0.0007222477
	0.9996658	-0.01242914	2.691242e-05	-0.002349972	8.957365e-06	0.0002696344	3.944446e-05	0.001351115
	2.219285e-06	6.676508e-06	-2.210544e-06	-5.464382e-06	3.3834e-06	5.41779e-05	-3.066016e-06	-2.780797e-05
	3.944446e-05	0.001351115	8.957365e-06	0.0002696344	2.541822e-05	-0.002310345	0.9996702	-0.0124005
	-2.210544e-06	-5.464382e-06	2.219285e-06	6.676508e-06	-3.066016e-06	-2.780797e-05	3.3834e-06	5.41779e-05
	8.957365e-06	0.0002696344	3.944446e-05	0.001351115	0.9996702	-0.0124005	2.541822e-05	-0.002310345
1.6e+08	-5.258765e-06	-0.003085165	0.9995516	-0.01648373	5.824621e-05	0.001796518	1.669479e-05	0.0003588272
	3.814291e-06	7.157548e-05	-3.52359e-06	-3.644421e-05	2.159999e-06	8.424407e-06	-2.159222e-06	-6.811535e-06
	0.9995516	-0.01648373	-5.258765e-06	-0.003085165	1.669479e-05	0.0003588272	5.824621e-05	0.001796518
	-3.52359e-06	-3.644421e-05	3.814291e-06	7.157548e-05	-2.159222e-06	-6.811535e-06	2.159999e-06	8.424407e-06
	5.824621e-05	0.001796518	1.669479e-05	0.0003588272	-4.553442e-06	-0.003134294	0.9995466	-0.01652077
	3.465361e-05	0.0009597936	6.953752e-06	0.0001832282	3.813488e-06	7.154932e-05	-3.524472e-06	-3.645966e-05
	1.669479e-05	0.0003588272	5.824621e-05	0.001796518	0.9995466	-0.01652077	-4.553442e-06	-0.003134294
	6.953752e-06	0.0001832282	3.465361e-05	0.0009597936	-3.524472e-06	-3.645966e-05	3.813488e-06	7.154932e-05
	3.814291e-06	7.157548e-05	-3.52359e-06	-3.644421e-05	3.465361e-05	0.0009597936	6.953752e-06	0.0001832282
	-4.573089e-06	-0.003134764	0.9995466	-0.01652087	5.82468e-05	0.001796519	1.669174e-05	0.0003586801
	-3.52359e-06	-3.644421e-05	3.814291e-06	7.157548e-05	6.953752e-06	0.0001832282	3.465361e-05	0.0009597936
	0.9995466	-0.01652087	-4.573089e-06	-0.003134764	1.669174e-05	0.0003586801	5.82468e-05	0.001796519
	2.159999e-06	8.424407e-06	-2.159222e-06	-6.811535e-06	3.813488e-06	7.154932e-05	-3.524472e-06	-3.645966e-05
	5.82468e-05	0.001796519	1.669174e-05	0.0003586801	-5.17114e-06	-0.003081809	0.9995517	-0.01648305
	-2.159222e-06	-6.811535e-06	2.159999e-06	8.424407e-06	-3.524472e-06	-3.645966e-05	3.813488e-06	7.154932e-05
	1.669174e-05	0.0003586801	5.82468e-05	0.001796519	0.9995517	-0.01648305	-5.17114e-06	-0.003081809
2e+08	-4.503125e-05	-0.003857427	0.9994186	-0.02055492	8.060741e-05	0.002240692	2.601225e-05	0.0004476363
	4.326556e-06	8.880949e-05	-4.129481e-06	-4.495518e-05	2.150384e-06	1.00909e-05	-2.162953e-06	-8.077737e-06
	0.9994186	-0.02055492	-4.503125e-05	-0.003857427	2.601225e-05	0.0004476363	8.060741e-05	0.002240692
	-4.129481e-06	-4.495518e-05	4.326556e-06	8.880949e-05	-2.162953e-06	-8.077737e-06	2.150384e-06	1.00909e-05
	8.060741e-05	0.002240692	2.601225e-05	0.0004476363	-4.536748e-05	-0.00391895	0.9994128	-0.02060085
	4.70727e-05	0.001196564	1.179555e-05	0.0002290974	4.325439e-06	8.877685e-05	-4.130718e-06	-4.497444e-05
	2.601225e-05	0.0004476363	8.060741e-05	0.002240692	0.9994128	-0.02060085	-4.536748e-05	-0.00391895
	1.179555e-05	0.0002290974	4.70727e-05	0.001196564	-4.130718e-06	-4.497444e-05	4.325439e-06	8.877685e-05
	4.326556e-06	8.880949e-05	-4.129481e-06	-4.495518e-05	4.70727e-05	0.001196564	1.179555e-05	0.0002290974
	-4.539444e-05	-0.003919536	0.9994128	-0.02060098	8.060771e-05	0.002240693	2.600687e-05	0.0004474527
	-4.129481e-06	-4.495518e-05	4.326556e-06	8.880949e-05	1.179555e-05	0.0002290974	4.70727e-05	0.001196564
	0.9994128	-0.02060098	-4.539444e-05	-0.003919536	2.600687e-05	0.0004474527	8.060771e-05	0.002240693
	2.150384e-06	1.00909e-05	-2.162953e-06	-8.077737e-06	4.325439e-06	8.877685e-05	-4.130718e-06	-4.497444e-05
	8.060771e-05	0.002240693	2.600687e-05	0.0004474527	-4.490403e-05	-0.003853237	0.9994187	-0.02055409
	-2.162953e-06	-8.077737e-06	2.150384e-06	1.00909e-05	-4.130718e-06	-4.497444e-05	4.325439e-06	8.877685e-05
	2.600687e-05	0.0004474527	8.060771e-05	0.002240693	0.9994187	-0.02055409	-4.490403e-05	-0.003853237
2.4e+08	-9.222675e-05	-0.004624439	0.9992695	-0.02462159	0.0001066683	0.002684474	3.674441e-05	0.0005354938
	4.937471e-06	0.0001063812	-4.899252e-06	-5.380507e-05	2.145318e-06	1.207274e-05	-2.176592e-06	-9.659575e-06
	0.9992695	-0.02462159	-9.222675e-05	-0.004624439	3.674441e-05	0.0005354938	0.0001066683	0.002684474
	-4.899252e-06	-5.380507e-05	4.937471e-06	0.0001063812	-2.176592e-06	-9.659575e-06	2.145318e-06	1.207274e-05
	0.0001066683	0.002684474	3.674441e-05	0.0005354938	-9.364903e-05	-0.004698109	0.9992627	-0.02467659
	6.146739e-05	0.001433264	1.737187e-05	0.0002743192	4.935996e-06	0.000106342	-4.9009e-06	-5.382811e-05
	3.674441e-05	0.0005354938	0.0001066683	0.002684474	0.9992627	-0.02467659	-9.364903e-05	-0.004698109
	1.737187e-05	0.0002743192	6.146739e-05	0.001433264	-4.9009e-06	-5.382811e-05	4.935996e-06	0.000106342
	4.937471e-06	0.0001063812	-4.899252e-06	-5.380507e-05	6.146739e-05	0.001433264	1.737187e-05	0.0002743192
	-9.368424e-05	-0.004698812	0.9992627	-0.02467674	0.0001066682	0.002684477	3.673608e-05	0.0005352737
	-4.899252e-06	-5.380507e-05	4.937471e-06	0.0001063812	1.737187e-05	0.0002743192	6.146739e-05	0.001433264
	0.9992627	-0.02467674	-9.368424e-05	-0.004698812	3.673608e-05	0.0005352737	0.0001066682	0.002684477
	2.145318e-06	1.207274e-05	-2.176592e-06	-9.659575e-06	4.935996e-06	0.000106342	-4.9009e-06	-5.382811e-05
	0.0001066682	0.002684477	3.673608e-05	0.0005352737	-9.205292e-05	-0.004619418	0.9992696	-0.02462059
	-2.176592e-06	-9.659575e-06	2.145318e-06	1.207274e-05	-4.9009e-06	-5.382811e-05	4.935996e-06	0.000106342
	3.673608e-05	0.0005352737	0.0001066682	0.002684477	0.9992696	-0.02462059	-9.205292e-05	-0.004619418
2.8e+08	-0.0001472024	-0.005390398	0.9991048	-0.02868097	0.0001363474	0.003127405	4.895223e-05	0.0006229835
	5.634685e-06	0.0001239246	-5.819975e-06	-6.262283e-05	2.181421e-06	1.404808e-05	-2.23675e-06	-1.1235e-05
	0.9991048	-0.02868097	-0.0001472024	-0.005390398	4.895223e-05	0.0006229835	0.0001363474	0.003127405
	-5.819975e-06	-6.262283e-05	5.634685e-06	0.0001239246	-2.23675e-06	-1.1235e-05	2.181421e-06	1.404808e-05
	0.0001363474	0.003127405	4.895223e-05	0.0006229835	-0.0001498648	-0.005476181	0.9990969	-0.02874501
	7.777332e-05	0.001669465	2.373611e-05	0.0003193892	5.632807e-06	0.0001238791	-5.822088e-06	-6.264965e-05
	4.895223e-05	0.0006229835	0.0001363474	0.003127405	0.9990969	-0.02874501	-0.0001498648	-0.005476181
	2.373611e-05	0.0003193892	7.777332e-05	0.001669465	-5.822088e-06	-6.264965e-05	5.632807e-06	0.0001238791
	5.634685e-06	0.0001239246	-5.819975e-06	-6.262283e-05	7.777332e-05	0.001669465	2.373611e-05	0.0003193892
	-0.0001499092	-0.005477	0.9990968	-0.02874518	0.0001363466	0.003127408	4.894033e-05	0.0006227271
	-5.819975e-06	-6.262283e-05	5.634685e-06	0.0001239246	2.373611e-05	0.0003193892	7.777332e-05	0.001669465
	0.9990968	-0.02874518	-0.0001499092	-0.005477	4.894033e-05	0.0006227271	0.0001363466	0.003127408
	2.181421e-06	1.404808e-05	-2.23675e-06	-1.1235e-05	5.632807e-06	0.0001238791	-5.822088e-06	-6.264965e-05
	0.0001363466	0.003127408	4.894033e-05	0.0006227271	-0.000146975	-0.005384546	0.9991049	-0.02867981
	-2.23675e-06	-1.1235e-05	2.181421e-06	1.404808e-05	-5.822088e-06	-6.264965e-05	5.632807e-06	0.0001238791
	4.894033e-05	0.0006227271	0.0001363466	0.003127408	0.9991049	-0.02867981	-0.000146975	-0.005384546
3.2e+08	-0.000209337	-0.00615408	0.9989239	-0.03273508	0.0001696804	0.003569627	6.258018e-05	0.0007100151
	6.421674e-06	0.000141479	-6.894523e-06	-7.144355e-05	2.238267e-06	1.604459e-05	-2.32299e-06	-1.283159e-05
	0.9989239	-0.03273508	-0.000209337	-0.00615408	6.258018e-05	0.0007100151	0.0001696804	0.003569627
	-6.894523e-06	-7.144355e-05	6.421674e-06	0.000141479	-2.32299e-06	-1.283159e-05	2.238267e-06	1.604459e-05
	0.0001696804	0.003569627	6.258018e-05	0.0007100151	-0.0002133616	-0.006251928	0.9989147	-0.03280815
	9.602119e-05	0.001905275	3.084697e-05	0.0003642253	6.419349e-06	0.000141427	-6.897153e-06	-7.147414e-05
	6.258018e-05	0.0007100151	0.0001696804	0.003569627	0.9989147	-0.03280815	-0.0002133616	-0.006251928
	3.084697e-05	0.0003642253	9.602119e-05	0.001905275	-6.897153e-06	-7.147414e-05	6.419349e-06	0.000141427
	6.421674e-06	0.000141479	-6.894523e-06	-7.144355e-05	9.602119e-05	0.001905275	3.084697e-05	0.0003642253
	-0.0002134161	-0.006252863	0.9989146	-0.03280835	0.0001696788	0.00356963	6.25641e-05	0.0007097224
	-6.894523e-06	-7.144355e-05	6.421674e-06	0.000141479	3.084697e-05	0.0003642253	9.602119e-05	0.001905275
	0.9989146	-0.03280835	-0.0002134161	-0.006252863	6.25641e-05	0.0007097224	0.0001696788	0.00356963
	2.238267e-06	1.604459e-05	-2.32299e-06	-1.283159e-05	6.419349e-06	0.000141427	-6.897153e-06	-7.147414e-05
	0.0001696788	0.00356963	6.25641e-05	0.0007097224	-0.000209049	-0.006147399	0.998924	-0.03273376
	-2.32299e-06	-1.283159e-05	2.238267e-06	1.604459e-05	-6.897153e-06	-7.147414e-05	6.419349e-06	0.000141427
	6.25641e-05	0.0007097224	0.0001696788	0.00356963	0.998924	-0.03273376	-0.000209049	-0.006147399
3.6e+08	-0.0002783749	-0.006915269	0.9987266	-0.03678476	0.0002066721	0.004011185	7.760513e-05	0.0007965741
	7.299206e-06	0.0001590537	-8.123038e-06	-8.027292e-05	2.316332e-06	1.806737e-05	-2.435782e-06	-1.445432e-05
	0.9987266	-0.03678476	-0.0002783749	-0.006915269	7.760513e-05	0.0007965741	0.0002066721	0.004011185
	-8.123038e-06	-8.027292e-05	7.299206e-06	0.0001590537	-2.435782e-06	-1.445432e-05	2.316332e-06	1.806737e-05
	0.0002066721	0.004011185	7.760513e-05	0.0007965741	-0.0002838794	-0.00702513	0.998716	-0.03686684
	0.0001162169	0.002140729	3.868877e-05	0.0004088105	7.29639e-06	0.0001589952	-8.12624e-06	-8.030727e-05
	7.760513e-05	0.0007965741	0.0002066721	0.004011185	0.998716	-0.03686684	-0.0002838794	-0.00702513
	3.868877e-05	0.0004088105	0.0001162169	0.002140729	-8.12624e-06	-8.030727e-05	7.29639e-06	0.0001589952
	7.299206e-06	0.0001590537	-8.123038e-06	-8.027292e-05	0.0001162169	0.002140729	3.868877e-05	0.0004088105
	-0.0002839451	-0.007026182	0.9987159	-0.03686706	0.0002066695	0.004011189	7.758424e-05	0.0007962452
	-8.123038e-06	-8.027292e-05	7.299206e-06	0.0001590537	3.868877e-05	0.0004088105	0.0001162169	0.002140729
	0.9987159	-0.03686706	-0.0002839451	-0.007026182	7.758424e-05	0.0007962452	0.0002066695	0.004011189
	2.316332e-06	1.806737e-05	-2.435782e-06	-1.445432e-05	7.29639e-06	0.0001589952	-8.12624e-06	-8.030727e-05
	0.0002066695	0.004011189	7.758424e-05	0.0007962452	-0.0002780194	-0.006907759	0.9987268	-0.03678328
	-2.435782e-06	-1.445432e-05	2.316332e-06	1.806737e-05	-8.12624e-06	-8.030727e-05	7.29639e-06	0.0001589952
	7.758424e-05	0.0007962452	0.0002066695	0.004011189	0.9987268	-0.03678328	-0.0002780194	-0.006907759
4e+08	-0.0003544271	-0.007675144	0.9985131	-0.04082932	0.0002472935	0.004452005	9.403943e-05	0.0008827547
	8.26466e-06	0.0001766177	-9.502256e-06	-8.907663e-05	2.426342e-06	2.009051e-05	-2.585852e-06	-1.607718e-05
	0.9985131	-0.04082932	-0.0003544271	-0.007675144	9.403943e-05	0.0008827547	0.0002472935	0.004452005
	-9.502256e-06	-8.907663e-05	8.26466e-06	0.0001766177	-2.585852e-06	-1.607718e-05	2.426342e-06	2.009051e-05
	0.0002472935	0.004452005	9.403943e-05	0.0008827547	-0.0003615516	-0.007796983	0.9985009	-0.04092038
	0.0001383399	0.002375763	4.727312e-05	0.0004532179	8.261309e-06	0.0001765528	-9.506083e-06	-8.911472e-05
	9.403943e-05	0.0008827547	0.0002472935	0.004452005	0.9985009	-0.04092038	-0.0003615516	-0.007796983
	4.727312e-05	0.0004532179	0.0001383399	0.002375763	-9.506083e-06	-8.911472e-05	8.261309e-06	0.0001765528
	8.26466e-06	0.0001766177	-9.502256e-06	-8.907663e-05	0.0001383399	0.002375763	4.727312e-05	0.0004532179
	-0.0003616293	-0.00779815	0.9985009	-0.04092063	0.0002472897	0.00445201	9.401314e-05	0.0008823898
	-9.502256e-06	-8.907663e-05	8.26466e-06	0.0001766177	4.727312e-05	0.0004532179	0.0001383399	0.002375763
	0.9985009	-0.04092063	-0.0003616293	-0.00779815	9.401314e-05	0.0008823898	0.0002472897	0.00445201
	2.426342e-06	2.009051e-05	-2.585852e-06	-1.607718e-05	8.261309e-06	0.0001765528	-9.506083e-06	-8.911472e-05
	0.0002472897	0.00445201	9.401314e-05	0.0008823898	-0.0003539971	-0.007666807	0.9985133	-0.04082768
	-2.585852e-06	-1.607718e-05	2.426342e-06	2.009051e-05	-9.506083e-06	-8.911472e-05	8.261309e-06	0.0001765528
	9.401314e-05	0.0008823898	0.0002472897	0.00445201	0.9985133	-0.04082768	-0.0003539971	-0.007666807
4.4e+08	-0.0004369144	-0.008432131	0.998283	-0.04487057	0.0002915822	0.004892192	0.0001118276	0.000968443
	9.322272e-06	0.0001941994	-1.103572e-05	-9.788014e-05	2.544591e-06	2.213202e-05	-2.749485e-06	-1.771812e-05
	0.998283	-0.04487057	-0.0004369144	-0.008432131	0.0001118276	0.000968443	0.0002915822	0.004892192
	-1.103572e-05	-9.788014e-05	9.322272e-06	0.0001941994	-2.749485e-06	-1.771812e-05	2.544591e-06	2.213202e-05
	0.0002915822	0.004892192	0.0001118276	0.000968443	-0.0004457679	-0.008565903	0.998269	-0.0449706
	0.0001624216	0.002610465	5.655919e-05	0.0004973564	9.318343e-06	0.0001941281	-1.104023e-05	-9.792196e-05
	0.0001118276	0.000968443	0.0002915822	0.004892192	0.998269	-0.0449706	-0.0004457679	-0.008565903
	5.655919e-05	0.0004973564	0.0001624216	0.002610465	-1.104023e-05	-9.792196e-05	9.318343e-06	0.0001941281
	9.322272e-06	0.0001941994	-1.103572e-05	-9.788014e-05	0.0001624216	0.002610465	5.655919e-05	0.0004973564
	-0.0004458586	-0.008567186	0.998269	-0.04497087	0.0002915772	0.004892198	0.0001117953	0.0009680422
	-1.103572e-05	-9.788014e-05	9.322272e-06	0.0001941994	5.655919e-05	0.0004973564	0.0001624216	0.002610465
	0.998269	-0.04497087	-0.0004458586	-0.008567186	0.0001117953	0.0009680422	0.0002915772	0.004892198
	2.544591e-06	2.213202e-05	-2.749485e-06	-1.771812e-05	9.318343e-06	0.0001941281	-1.104023e-05	-9.792196e-05
	0.0002915772	0.004892198	0.0001117953	0.0009680422	-0.0004364031	-0.008422967	0.9982832	-0.04486878
	-2.749485e-06	-1.771812e-05	2.544591e-06	2.213202e-05	-1.104023e-05	-9.792196e-05	9.318343e-06	0.0001941281
	0.0001117953	0.0009680422	0.0002915772	0.004892198	0.9982832	-0.04486878	-0.0004364031	-0.008422967
4.8e+08	-0.0005261513	-0.009187672	0.9980365	-0.04890741	0.0003394956	0.005331651	0.000130997	0.001053735
	1.046865e-05	0.0002117752	-1.271933e-05	-0.0001066566	2.693558e-06	2.417461e-05	-2.949172e-06	-1.935978e-05
	0.9980365	-0.04890741	-0.0005261513	-0.009187672	0.000130997	0.001053735	0.0003394956	0.005331651
	-1.271933e-05	-0.0001066566	1.046865e-05	0.0002117752	-2.949172e-06	-1.935978e-05	2.693558e-06	2.417461e-05
	0.0003394956	0.005331651	0.000130997	0.001053735	-0.0005368694	-0.00933334	0.9980206	-0.04901637
	0.0001884309	0.002844758	6.656971e-05	0.0005413014	1.04641e-05	0.0002116975	-1.272457e-05	-0.0001067022
