# Hz S ri R 50
0	8.820403e-05	0	0.9999118	0	7.168751e-07	0	-7.168757e-07	0
	7.168758e-07	0	-7.16875e-07	0	7.168757e-07	0	-7.16875e-07	0
	0.9999118	0	8.820403e-05	0	-7.168758e-07	0	7.16875e-07	0
	-7.16875e-07	0	7.168757e-07	0	-7.16875e-07	0	7.168757e-07	0
	7.168754e-07	0	-7.168754e-07	0	8.820403e-05	0	0.9999118	0
	7.168756e-07	0	-7.168752e-07	0	7.168756e-07	0	-7.168752e-07	0
	-7.168754e-07	0	7.168754e-07	0	0.9999118	0	8.820403e-05	0
	-7.168752e-07	0	7.168756e-07	0	-7.168752e-07	0	7.168756e-07	0
	7.168758e-07	0	-7.16875e-07	0	7.168758e-07	0	-7.16875e-07	0
	8.820403e-05	0	0.9999118	0	7.16875e-07	0	-7.168758e-07	0
	-7.168751e-07	0	7.168757e-07	0	-7.168751e-07	0	7.168757e-07	0
	0.9999118	0	8.820403e-05	0	-7.168758e-07	0	7.16875e-07	0
	7.168759e-07	0	-7.168749e-07	0	7.168758e-07	0	-7.16875e-07	0
	7.16875e-07	0	-7.168758e-07	0	8.820403e-05	0	0.9999118	0
	-7.168749e-07	0	7.168759e-07	0	-7.16875e-07	0	7.168757e-07	0
	-7.168758e-07	0	7.16875e-07	0	0.9999118	0	8.820403e-05	0
4e+07	0.0003574071	-0.004269339	0.9990922	-0.01866143	3.992214e-05	0.0009877443	1.014852e-05	0.0002241072
	4.988471e-06	3.304348e-06	-5.067612e-06	-3.225257e-06	2.649188e-07	2.497297e-07	-2.649909e-07	-2.49737e-07
	0.9990922	-0.01866143	0.0003574071	-0.004269339	1.014852e-05	0.0002241072	3.992214e-05	0.0009877443
	-5.067612e-06	-3.225257e-06	4.988471e-06	3.304348e-06	-2.649909e-07	-2.49737e-07	2.649188e-07	2.497297e-07
	3.992214e-05	0.0009877443	1.014852e-05	0.0002241072	0.0003819119	-0.004258604	0.9990677	-0.01867063
	1.732812e-05	0.0001157562	-1.125258e-05	1.848044e-05	4.988459e-06	3.305107e-06	-5.067672e-06	-3.226678e-06
	1.014852e-05	0.0002241072	3.992214e-05	0.0009877443	0.9990677	-0.01867063	0.0003819119	-0.004258604
	-1.125258e-05	1.848044e-05	1.732812e-05	0.0001157562	-5.067672e-06	-3.226678e-06	4.988459e-06	3.305107e-06
	4.988471e-06	3.304348e-06	-5.067612e-06	-3.225257e-06	1.732812e-05	0.0001157562	-1.125258e-05	1.848044e-05
	0.0003818983	-0.004259147	0.9990677	-0.01867071	3.993855e-05	0.0009882829	1.015999e-05	0.0002242763
	-5.067612e-06	-3.225257e-06	4.988471e-06	3.304348e-06	-1.125258e-05	1.848044e-05	1.732812e-05	0.0001157562
	0.9990677	-0.01867071	0.0003818983	-0.004259147	1.015999e-05	0.0002242763	3.993855e-05	0.0009882829
	2.649188e-07	2.497297e-07	-2.649909e-07	-2.49737e-07	4.988459e-06	3.305107e-06	-5.067672e-06	-3.226678e-06
	3.993855e-05	0.0009882829	1.015999e-05	0.0002242763	0.0003573931	-0.004269963	0.9990922	-0.01866154
	-2.649909e-07	-2.49737e-07	2.649188e-07	2.497297e-07	-5.067672e-06	-3.226678e-06	4.988459e-06	3.305107e-06
	1.015999e-05	0.0002242763	3.993855e-05	0.0009882829	0.9990922	-0.01866154	0.0003573931	-0.004269963
8e+07	1.594009e-05	-0.01081402	0.9985237	-0.03496628	9.665772e-05	0.00185258	4.589489e-05	0.0005644983
	5.148112e-06	5.242667e-06	-5.465165e-06	-5.065552e-06	2.701513e-07	3.788173e-07	-2.70464e-07	-3.79123e-07
	0.9985237	-0.03496628	1.594009e-05	-0.01081402	4.589489e-05	0.0005644983	9.665772e-05	0.00185258
	-5.465165e-06	-5.065552e-06	5.148112e-06	5.242667e-06	-2.70464e-07	-3.79123e-07	2.701513e-07	3.788173e-07
	9.665772e-05	0.00185258	4.589489e-05	0.0005644983	4.172755e-05	-0.0108065	0.998498	-0.03497074
	2.449566e-05	0.000213581	-7.954577e-06	5.414621e-05	5.148049e-06	5.243764e-06	-5.465362e-06	-5.06796e-06
	4.589489e-05	0.0005644983	9.665772e-05	0.00185258	0.998498	-0.03497074	4.172755e-05	-0.0108065
	-7.954577e-06	5.414621e-05	2.449566e-05	0.000213581	-5.465362e-06	-5.06796e-06	5.148049e-06	5.243764e-06
	5.148112e-06	5.242667e-06	-5.465165e-06	-5.065552e-06	2.449566e-05	0.000213581	-7.954577e-06	5.414621e-05
	4.168427e-05	-0.01080751	0.998498	-0.03497096	9.670655e-05	0.001853603	4.592946e-05	0.0005648869
	-5.465165e-06	-5.065552e-06	5.148112e-06	5.242667e-06	-7.954577e-06	5.414621e-05	2.449566e-05	0.000213581
	0.998498	-0.03497096	4.168427e-05	-0.01080751	4.592946e-05	0.0005648869	9.670655e-05	0.001853603
	2.701513e-07	3.788173e-07	-2.70464e-07	-3.79123e-07	5.148049e-06	5.243764e-06	-5.465362e-06	-5.06796e-06
	9.670655e-05	0.001853603	4.592946e-05	0.0005648869	1.589229e-05	-0.0108152	0.9985237	-0.03496657
	-2.70464e-07	-3.79123e-07	2.701513e-07	3.788173e-07	-5.465362e-06	-5.06796e-06	5.148049e-06	5.243764e-06
	4.592946e-05	0.0005648869	9.670655e-05	0.001853603	0.9985237	-0.03496657	1.589229e-05	-0.0108152
1.2e+08	-0.0004981401	-0.01720297	0.99759	-0.05132676	0.0001888441	0.002719369	0.00010215	0.0008933542
	4.942476e-06	6.673298e-06	-5.651549e-06	-6.362193e-06	2.696249e-07	4.486751e-07	-2.704435e-07	-4.498399e-07
	0.99759	-0.05132676	-0.0004981401	-0.01720297	0.00010215	0.0008933542	0.0001888441	0.002719369
	-5.651549e-06	-6.362193e-06	4.942476e-06	6.673298e-06	-2.704435e-07	-4.498399e-07	2.696249e-07	4.486751e-07
	0.0001888441	0.002719369	0.00010215	0.0008933542	-0.0004726123	-0.01719893	0.9975646	-0.05132621
	3.508328e-05	0.0003104106	-1.846428e-06	8.973091e-05	4.942323e-06	6.674813e-06	-5.65197e-06	-6.365639e-06
	0.00010215	0.0008933542	0.0001888441	0.002719369	0.9975646	-0.05132621	-0.0004726123	-0.01719893
	-1.846428e-06	8.973091e-05	3.508328e-05	0.0003104106	-5.65197e-06	-6.365639e-06	4.942323e-06	6.674813e-06
	4.942476e-06	6.673298e-06	-5.651549e-06	-6.362193e-06	3.508328e-05	0.0003104106	-1.846428e-06	8.973091e-05
	-0.0004727035	-0.01720042	0.9975646	-0.05132657	0.000188945	0.002720876	0.0001022222	0.0008939563
	-5.651549e-06	-6.362193e-06	4.942476e-06	6.673298e-06	-1.846428e-06	8.973091e-05	3.508328e-05	0.0003104106
	0.9975646	-0.05132657	-0.0004727035	-0.01720042	0.0001022222	0.0008939563	0.000188945	0.002720876
	2.696249e-07	4.486751e-07	-2.704435e-07	-4.498399e-07	4.942323e-06	6.674813e-06	-5.65197e-06	-6.365639e-06
	0.000188945	0.002720876	0.0001022222	0.0008939563	-0.0004982428	-0.01720469	0.9975899	-0.05132722
	-2.704435e-07	-4.498399e-07	2.696249e-07	4.486751e-07	-5.65197e-06	-6.365639e-06	4.942323e-06	6.674813e-06
	0.0001022222	0.0008939563	0.000188945	0.002720876	0.9975899	-0.05132722	-0.0004982428	-0.01720469
1.6e+08	-0.001174748	-0.02294841	0.9962646	-0.06820383	0.0003197936	0.003611639	0.0001764031	0.001183662
	4.545168e-06	7.731292e-06	-5.794111e-06	-7.23227e-06	2.661909e-07	4.734045e-07	-2.679445e-07	-4.762391e-07
	0.9962646	-0.06820383	-0.001174748	-0.02294841	0.0001764031	0.001183662	0.0003197936	0.003611639
	-5.794111e-06	-7.23227e-06	4.545168e-06	7.731292e-06	-2.679445e-07	-4.762391e-07	2.661909e-07	4.734045e-07
	0.0003197936	0.003611639	0.0001764031	0.001183662	-0.001151005	-0.02294687	0.9962413	-0.06819926
	4.960051e-05	0.0004089103	6.693177e-06	0.0001221779	4.544901e-06	7.733338e-06	-5.794849e-06	-7.23683e-06
	0.0001764031	0.001183662	0.0003197936	0.003611639	0.9962413	-0.06819926	-0.001151005	-0.02294687
	6.693177e-06	0.0001221779	4.960051e-05	0.0004089103	-5.794849e-06	-7.23683e-06	4.544901e-06	7.733338e-06
	4.545168e-06	7.731292e-06	-5.794111e-06	-7.23227e-06	4.960051e-05	0.0004089103	6.693177e-06	0.0001221779
	-0.001151164	-0.02294885	0.9962412	-0.06819973	0.0003199675	0.003613641	0.0001765262	0.001184459
	-5.794111e-06	-7.23227e-06	4.545168e-06	7.731292e-06	6.693177e-06	0.0001221779	4.960051e-05	0.0004089103
	0.9962412	-0.06819973	-0.001151164	-0.02294885	0.0001765262	0.001184459	0.0003199675	0.003613641
	2.661909e-07	4.734045e-07	-2.679445e-07	-4.762391e-07	4.544901e-06	7.733338e-06	-5.794849e-06	-7.23683e-06
	0.0003199675	0.003613641	0.0001765262	0.001184459	-0.001174929	-0.0229507	0.9962645	-0.06820444
	-2.679445e-07	-4.762391e-07	2.661909e-07	4.734045e-07	-5.794849e-06	-7.23683e-06	4.544901e-06	7.733338e-06
	0.0001765262	0.001184459	0.0003199675	0.003613641	0.9962645	-0.06820444	-0.001174929	-0.0229507
2e+08	-0.002057377	-0.02867314	0.9946357	-0.08500467	0.0004839172	0.004496139	0.0002704034	0.001468619
	4.195904e-06	8.69592e-06	-6.127377e-06	-7.940319e-06	2.6773e-07	4.918346e-07	-2.710319e-07	-4.973878e-07
	0.9946357	-0.08500467	-0.002057377	-0.02867314	0.0002704034	0.001468619	0.0004839172	0.004496139
	-6.127377e-06	-7.940319e-06	4.195904e-06	8.69592e-06	-2.710319e-07	-4.973878e-07	2.6773e-07	4.918346e-07
	0.0004839172	0.004496139	0.0002704034	0.001468619	-0.002035851	-0.02867486	0.9946148	-0.08499532
	6.76829e-05	0.0005058842	1.75248e-05	0.000154682	4.195491e-06	8.698465e-06	-6.128513e-06	-7.945912e-06
	0.0002704034	0.001468619	0.0004839172	0.004496139	0.9946148	-0.08499532	-0.002035851	-0.02867486
	1.75248e-05	0.000154682	6.76829e-05	0.0005058842	-6.128513e-06	-7.945912e-06	4.195491e-06	8.698465e-06
	4.195904e-06	8.69592e-06	-6.127377e-06	-7.940319e-06	6.76829e-05	0.0005058842	1.75248e-05	0.000154682
	-0.002036096	-0.02867733	0.9946147	-0.0849959	0.0004841834	0.004498632	0.0002705906	0.001469606
	-6.127377e-06	-7.940319e-06	4.195904e-06	8.69592e-06	1.75248e-05	0.000154682	6.76829e-05	0.0005058842
	0.9946147	-0.0849959	-0.002036096	-0.02867733	0.0002705906	0.001469606	0.0004841834	0.004498632
	2.6773e-07	4.918346e-07	-2.710319e-07	-4.973878e-07	4.195491e-06	8.698465e-06	-6.128513e-06	-7.945912e-06
	0.0004841834	0.004498632	0.0002705906	0.001469606	-0.002057656	-0.02867599	0.9946356	-0.08500542
	-2.710319e-07	-4.973878e-07	2.6773e-07	4.918346e-07	-6.128513e-06	-7.945912e-06	4.195491e-06	8.698465e-06
	0.0002705906	0.001469606	0.0004841834	0.004498632	0.9946356	-0.08500542	-0.002057656	-0.02867599
2.4e+08	-0.003134822	-0.03434244	0.992696	-0.1017554	0.0006797756	0.005370868	0.0003847676	0.001748033
	3.82232e-06	1.043352e-05	-6.571813e-06	-9.339827e-06	2.747943e-07	5.703313e-07	-2.804903e-07	-5.798068e-07
	0.992696	-0.1017554	-0.003134822	-0.03434244	0.0003847676	0.001748033	0.0006797756	0.005370868
	-6.571813e-06	-9.339827e-06	3.82232e-06	1.043352e-05	-2.804903e-07	-5.798068e-07	2.747943e-07	5.703313e-07
	0.0006797756	0.005370868	0.0003847676	0.001748033	-0.003114568	-0.03434426	0.9926766	-0.1017444
	8.953122e-05	0.0006037248	3.035442e-05	0.000184602	3.821737e-06	1.043663e-05	-6.573433e-06	-9.346463e-06
	0.0003847676	0.001748033	0.0006797756	0.005370868	0.9926766	-0.1017444	-0.003114568	-0.03434426
	3.035442e-05	0.000184602	8.953122e-05	0.0006037248	-6.573433e-06	-9.346463e-06	3.821737e-06	1.043663e-05
	3.82232e-06	1.043352e-05	-6.571813e-06	-9.339827e-06	8.953122e-05	0.0006037248	3.035442e-05	0.000184602
	-0.003114917	-0.0343472	0.9926764	-0.1017451	0.0006801531	0.005373847	0.0003850317	0.001749206
	-6.571813e-06	-9.339827e-06	3.82232e-06	1.043352e-05	3.035442e-05	0.000184602	8.953122e-05	0.0006037248
	0.9926764	-0.1017451	-0.003114917	-0.0343472	0.0003850317	0.001749206	0.0006801531	0.005373847
	2.747943e-07	5.703313e-07	-2.804903e-07	-5.798068e-07	3.821737e-06	1.043663e-05	-6.573433e-06	-9.346463e-06
	0.0006801531	0.005373847	0.0003850317	0.001749206	-0.003135221	-0.03434584	0.9926958	-0.1017563
	-2.804903e-07	-5.798068e-07	2.747943e-07	5.703313e-07	-6.573433e-06	-9.346463e-06	3.821737e-06	1.043663e-05
	0.0003850317	0.001749206	0.0006801531	0.005373847	0.9926958	-0.1017563	-0.003135221	-0.03434584
2.8e+08	-0.004408478	-0.03996991	0.9904512	-0.1184323	0.0009076782	0.006235435	0.0005182566	0.002020069
	3.496548e-06	1.219661e-05	-7.191449e-06	-1.06684e-05	2.875632e-07	6.450283e-07	-2.967607e-07	-6.597986e-07
	0.9904512	-0.1184323	-0.004408478	-0.03996991	0.0005182566	0.002020069	0.0009076782	0.006235435
	-7.191449e-06	-1.06684e-05	3.496548e-06	1.219661e-05	-2.967607e-07	-6.597986e-07	2.875632e-07	6.450283e-07
	0.0009076782	0.006235435	0.0005182566	0.002020069	-0.004389638	-0.03997177	0.9904335	-0.1184199
	0.0001149191	0.0007003447	4.530496e-05	0.0002137812	3.49577e-06	1.220031e-05	-7.193633e-06	-1.067604e-05
	0.0005182566	0.002020069	0.0009076782	0.006235435	0.9904335	-0.1184199	-0.004389638	-0.03997177
	4.530496e-05	0.0002137812	0.0001149191	0.0007003447	-7.193633e-06	-1.067604e-05	3.49577e-06	1.220031e-05
	3.496548e-06	1.219661e-05	-7.191449e-06	-1.06684e-05	0.0001149191	0.0007003447	4.530496e-05	0.0002137812
	-0.004390109	-0.03997519	0.9904333	-0.1184206	0.0009081858	0.006238894	0.0005186102	0.002021423
	-7.191449e-06	-1.06684e-05	3.496548e-06	1.219661e-05	4.530496e-05	0.0002137812	0.0001149191	0.0007003447
	0.9904333	-0.1184206	-0.004390109	-0.03997519	0.0005186102	0.002021423	0.0009081858	0.006238894
	2.875632e-07	6.450283e-07	-2.967607e-07	-6.597986e-07	3.49577e-06	1.220031e-05	-7.193633e-06	-1.067604e-05
	0.0009081858	0.006238894	0.0005186102	0.002021423	-0.004409017	-0.03997387	0.9904509	-0.1184334
	-2.967607e-07	-6.597986e-07	2.875632e-07	6.450283e-07	-7.193633e-06	-1.067604e-05	3.49577e-06	1.220031e-05
	0.0005186102	0.002021423	0.0009081858	0.006238894	0.9904509	-0.1184334	-0.004409017	-0.03997387
3.2e+08	-0.005873071	-0.04554308	0.9879006	-0.1350369	0.00116698	0.00708876	0.0006704761	0.002283567
	3.17537e-06	1.406209e-05	-7.933627e-06	-1.199011e-05	3.040811e-07	7.227539e-07	-3.181942e-07	-7.442993e-07
	0.9879006	-0.1350369	-0.005873071	-0.04554308	0.0006704761	0.002283567	0.00116698	0.00708876
	-7.933627e-06	-1.199011e-05	3.17537e-06	1.406209e-05	-3.181942e-07	-7.442993e-07	3.040811e-07	7.227539e-07
	0.00116698	0.00708876	0.0006704761	0.002283567	-0.0058555	-0.0455447	0.9878846	-0.1350231
	0.0001438325	0.0007958177	6.227398e-05	0.0002418967	3.174377e-06	1.406642e-05	-7.936451e-06	-1.199871e-05
	0.0006704761	0.002283567	0.00116698	0.00708876	0.9878846	-0.1350231	-0.0058555	-0.0455447
	6.227398e-05	0.0002418967	0.0001438325	0.0007958177	-7.936451e-06	-1.199871e-05	3.174377e-06	1.406642e-05
	3.17537e-06	1.406209e-05	-7.933627e-06	-1.199011e-05	0.0001438325	0.0007958177	6.227398e-05	0.0002418967
	-0.005856109	-0.0455486	0.9878842	-0.135024	0.001167636	0.007092692	0.0006709313	0.002285096
	-7.933627e-06	-1.199011e-05	3.17537e-06	1.406209e-05	6.227398e-05	0.0002418967	0.0001438325	0.0007958177
	0.9878842	-0.135024	-0.005856109	-0.0455486	0.0006709313	0.002285096	0.001167636	0.007092692
	3.040811e-07	7.227539e-07	-3.181942e-07	-7.442993e-07	3.174377e-06	1.406642e-05	-7.936451e-06	-1.199871e-05
	0.001167636	0.007092692	0.0006709313	0.002285096	-0.005873771	-0.04554758	0.9879002	-0.135038
	-3.181942e-07	-7.442993e-07	3.040811e-07	7.227539e-07	-7.936451e-06	-1.199871e-05	3.174377e-06	1.406642e-05
	0.0006709313	0.002285096	0.001167636	0.007092692	0.9879002	-0.135038	-0.005873771	-0.04554758
3.6e+08	-0.007525041	-0.05105414	0.9850457	-0.1515651	0.001457082	0.007929686	0.0008408756	0.002537475
	2.867648e-06	1.60471e-05	-8.79688e-06	-1.331008e-05	3.246214e-07	8.044355e-07	-3.453891e-07	-8.343002e-07
	0.9850457	-0.1515651	-0.007525041	-0.05105414	0.0008408756	0.002537475	0.001457082	0.007929686
	-8.79688e-06	-1.331008e-05	2.867648e-06	1.60471e-05	-3.453891e-07	-8.343002e-07	3.246214e-07	8.044355e-07
	0.001457082	0.007929686	0.0008408756	0.002537475	-0.007508556	-0.05105524	0.9850312	-0.1515504
	0.0001762157	0.0008900547	8.118841e-05	0.0002687924	2.866422e-06	1.605208e-05	-8.800418e-06	-1.331958e-05
	0.0008408756	0.002537475	0.001457082	0.007929686	0.9850312	-0.1515504	-0.007508556	-0.05105524
	8.118841e-05	0.0002687924	0.0001762157	0.0008900547	-8.800418e-06	-1.331958e-05	2.866422e-06	1.605208e-05
	2.867648e-06	1.60471e-05	-8.79688e-06	-1.331008e-05	0.0001762157	0.0008900547	8.118841e-05	0.0002687924
	-0.007509321	-0.05105959	0.9850308	-0.1515513	0.001457904	0.007934083	0.0008414442	0.002539172
	-8.79688e-06	-1.331008e-05	2.867648e-06	1.60471e-05	8.118841e-05	0.0002687924	0.0001762157	0.0008900547
	0.9850308	-0.1515513	-0.007509321	-0.05105959	0.0008414442	0.002539172	0.001457904	0.007934083
	3.246214e-07	8.044355e-07	-3.453891e-07	-8.343002e-07	2.866422e-06	1.605208e-05	-8.800418e-06	-1.331958e-05
	0.001457904	0.007934083	0.0008414442	0.002539172	-0.007525921	-0.05105917	0.9850452	-0.1515664
	-3.453891e-07	-8.343002e-07	3.246214e-07	8.044355e-07	-8.800418e-06	-1.331958e-05	2.866422e-06	1.605208e-05
	0.0008414442	0.002539172	0.001457904	0.007934083	0.9850452	-0.1515664	-0.007525921	-0.05105917
4e+08	-0.009362835	-0.05650151	0.9818903	-0.1680068	0.001777435	0.008756972	0.001028748	0.002780877
	2.60231e-06	1.808864e-05	-9.799015e-06	-1.455374e-05	3.496165e-07	8.835897e-07	-3.791147e-07	-9.233391e-07
	0.9818903	-0.1680068	-0.009362835	-0.05650151	0.001028748	0.002780877	0.001777435	0.008756972
	-9.799015e-06	-1.455374e-05	2.60231e-06	1.808864e-05	-3.791147e-07	-9.233391e-07	3.496165e-07	8.835897e-07
	0.001777435	0.008756972	0.001028748	0.002780877	-0.00934747	-0.05650198	0.9818774	-0.1679912
	0.0002119603	0.000982751	0.0001020165	0.0002945348	2.600837e-06	1.809432e-05	-9.803335e-06	-1.45641e-05
	0.001028748	0.002780877	0.001777435	0.008756972	0.9818774	-0.1679912	-0.00934747	-0.05650198
	0.0001020165	0.0002945348	0.0002119603	0.000982751	-9.803335e-06	-1.45641e-05	2.600837e-06	1.809432e-05
	2.60231e-06	1.808864e-05	-9.799015e-06	-1.455374e-05	0.0002119603	0.000982751	0.0001020165	0.0002945348
	-0.009348408	-0.05650679	0.9818769	-0.1679923	0.001778441	0.008761827	0.001029442	0.002782736
	-9.799015e-06	-1.455374e-05	2.60231e-06	1.808864e-05	0.0001020165	0.0002945348	0.0002119603	0.000982751
	0.9818769	-0.1679923	-0.009348408	-0.05650679	0.001029442	0.002782736	0.001778441	0.008761827
	3.496165e-07	8.835897e-07	-3.791147e-07	-9.233391e-07	2.600837e-06	1.809432e-05	-9.803335e-06	-1.45641e-05
	0.001778441	0.008761827	0.001029442	0.002782736	-0.009363915	-0.05650707	0.9818897	-0.1680082
	-3.791147e-07	-9.233391e-07	3.496165e-07	8.835897e-07	-9.803335e-06	-1.45641e-05	2.600837e-06	1.809432e-05
	0.001029442	0.002782736	0.001778441	0.008761827	0.9818897	-0.1680082	-0.009363915	-0.05650707
4.4e+08	-0.01138039	-0.0618723	0.9784343	-0.1843628	0.002127279	0.009569647	0.001233492	0.003012644
	2.328662e-06	2.024028e-05	-1.087673e-05	-1.576491e-05	3.767016e-07	9.654691e-07	-4.173907e-07	-1.016627e-06
	0.9784343	-0.1843628	-0.01138039	-0.0618723	0.001233492	0.003012644	0.002127279	0.009569647
	-1.087673e-05	-1.576491e-05	2.328662e-06	2.024028e-05	-4.173907e-07	-1.016627e-06	3.767016e-07	9.654691e-07
	0.002127279	0.009569647	0.001233492	0.003012644	-0.0113659	-0.06187196	0.9784228	-0.1843466
	0.0002510407	0.001073932	0.000124631	0.0003188641	2.32693e-06	2.02467e-05	-1.08819e-05	-1.577607e-05
	0.001233492	0.003012644	0.002127279	0.009569647	0.9784228	-0.1843466	-0.0113659	-0.06187196
	0.000124631	0.0003188641	0.0002510407	0.001073932	-1.08819e-05	-1.577607e-05	2.32693e-06	2.02467e-05
	2.328662e-06	2.024028e-05	-1.087673e-05	-1.576491e-05	0.0002510407	0.001073932	0.000124631	0.0003188641
	-0.01136703	-0.06187722	0.9784221	-0.1843477	0.002128486	0.00957495	0.001234322	0.003014656
	-1.087673e-05	-1.576491e-05	2.328662e-06	2.024028e-05	0.000124631	0.0003188641	0.0002510407	0.001073932
	0.9784221	-0.1843477	-0.01136703	-0.06187722	0.001234322	0.003014656	0.002128486	0.00957495
	3.767016e-07	9.654691e-07	-4.173907e-07	-1.016627e-06	2.32693e-06	2.02467e-05	-1.08819e-05	-1.577607e-05
	0.002128486	0.00957495	0.001234322	0.003014656	-0.01138169	-0.06187838	0.9784335	-0.1843643
	-4.173907e-07	-1.016627e-06	3.767016e-07	9.654691e-07	-1.08819e-05	-1.577607e-05	2.32693e-06	2.02467e-05
	0.001234322	0.003014656	0.002128486	0.00957495	0.9784335	-0.1843643	-0.01138169	-0.06187838
4.8e+08	-0.01357676	-0.06716623	0.9746828	-0.2006216	0.002505923	0.01036645	0.001454337	0.003232016
	2.10777e-06	2.245736e-05	-1.207863e-05	-1.688936e-05	4.078581e-07	1.044964e-06	-4.625407e-07	-1.108977e-06
	0.9746828	-0.2006216	-0.01357676	-0.06716623	0.001454337	0.003232016	0.002505923	0.01036645
	-1.207863e-05	-1.688936e-05	2.10777e-06	2.245736e-05	-4.625407e-07	-1.108977e-06	4.078581e-07	1.044964e-06
	0.002505923	0.01036645	0.001454337	0.003232016	-0.01356314	-0.06716498	0.9746727	-0.2006049
	0.0002933273	0.001163338	0.0001489987	0.0003418173	2.105774e-06	2.246456e-05	-1.20847e-05	-1.690126e-05
	0.001454337	0.003232016	0.002505923	0.01036645	0.9746727	-0.2006049	-0.01356314	-0.06716498
	0.0001489987	0.0003418173	0.0002933273	0.001163338	-1.20847e-05	-1.690126e-05	2.105774e-06	2.246456e-05
	2.10777e-06	2.245736e-05	-1.207863e-05	-1.688936e-05	0.0002933273	0.001163338	0.0001489987	0.0003418173
	-0.01356447	-0.06717068	0.974672	-0.200606	0.002507347	0.01037219	0.001455313	0.003234173
