! Created Wed Oct 23 14:20:12 2024
# hz S ma R 50
! 6 Port Network Data from SP1.SP block
! freq  magS11  angS11  magS12  angS12  magS13  angS13  magS14  angS14  
!       magS15  angS15  magS16  angS16  
!       magS21  angS21  magS22  angS22  
!       magS23  angS23  magS24  angS24  magS25  angS25  magS26  angS26  
!       magS31  angS31  magS32  angS32  magS33  angS33  magS34  angS34  
!       magS35  angS35  magS36  angS36  
!       magS41  angS41  magS42  angS42  
!       magS43  angS43  magS44  angS44  magS45  angS45  magS46  angS46  
!       magS51  angS51  magS52  angS52  magS53  angS53  magS54  angS54  
!       magS55  angS55  magS56  angS56  
!       magS61  angS61  magS62  angS62  
!       magS63  angS63  magS64  angS64  magS65  angS65  magS66  angS66  
!     
40000000     0.00134341495         73.3808124        0.999617678        -0.12175225                  0                  0                  0                  0
                                0                  0                  0                  0
                      0.999617678        -0.12175225      0.00134341495         73.3808124                  0                  0                  0                  0
                                0                  0                  0                  0
                                0                  0                  0                  0      0.00137185895         77.1597029        0.999697074       -0.121796978
                                0                  0                  0                  0
                                0                  0                  0                  0        0.999697074       -0.121796978      0.00137185895         77.1597029
                                0                  0                  0                  0
                                0                  0                  0                  0                  0                  0                  0                  0
                     0.0417707176         58.5450432        0.979679252        -4.96401782
                                0                  0                  0                  0                  0                  0                  0                  0
                      0.979679252        -4.96401782       0.0417705105         58.5455817

80000000     0.00243022132         72.3538545        0.999269839       -0.227938435                  0                  0                  0                  0
                                0                  0                  0                  0
                      0.999269839       -0.227938435      0.00243022132         72.3538545                  0                  0                  0                  0
                                0                  0                  0                  0
                                0                  0                  0                  0      0.00247999798         75.6423673        0.999391701       -0.228042327
                                0                  0                  0                  0
                                0                  0                  0                  0        0.999391701       -0.228042327      0.00247999798         75.6423673
                                0                  0                  0                  0
                                0                  0                  0                  0                  0                  0                  0                  0
                     0.0417707176         58.5450432        0.979679252        -4.96401782
                                0                  0                  0                  0                  0                  0                  0                  0
                      0.979679252        -4.96401782       0.0417705105         58.5455817

120000000     0.00342153589         71.4928078        0.998927241       -0.328161319                  0                  0                  0                  0
                                0                  0                  0                  0
                      0.998927241       -0.328161319      0.00342153589         71.4928078                  0                  0                  0                  0
                                0                  0                  0                  0
                                0                  0                  0                  0       0.0034893899         74.5742853        0.999085481       -0.328398612
                                0                  0                  0                  0
                                0                  0                  0                  0        0.999085481       -0.328398612       0.0034893899         74.5742853
                                0                  0                  0                  0
                                0                  0                  0                  0                  0                  0                  0                  0
                     0.0417707176         58.5450432        0.979679252        -4.96401782
                                0                  0                  0                  0                  0                  0                  0                  0
                      0.979679252        -4.96401782       0.0417705105         58.5455817

160000000      0.0043511467         70.7489504        0.998587385        -0.42449639                  0                  0                  0                  0
                                0                  0                  0                  0
                      0.998587385        -0.42449639       0.0043511467         70.7489504                  0                  0                  0                  0
                                0                  0                  0                  0
                                0                  0                  0                  0      0.00443491691         73.7122901        0.998778684       -0.424921523
                                0                  0                  0                  0
                                0                  0                  0                  0        0.998778684       -0.424921523      0.00443491691         73.7122901
                                0                  0                  0                  0
                                0                  0                  0                  0                  0                  0                  0                  0
                     0.0417707176         58.5450432        0.979679252        -4.96401782
                                0                  0                  0                  0                  0                  0                  0                  0
                      0.979679252        -4.96401782       0.0417705105         58.5455817

200000000     0.00523504602         70.0866332        0.998249323       -0.517931895                  0                  0                  0                  0
                                0                  0                  0                  0
                      0.998249323       -0.517931895      0.00523504602         70.0866332                  0                  0                  0                  0
                                0                  0                  0                  0
                                0                  0                  0                  0      0.00533310399         72.9725695        0.998471455       -0.518587917
                                0                  0                  0                  0
                                0                  0                  0                  0        0.998471455       -0.518587917      0.00533310399         72.9725695
                                0                  0                  0                  0
                                0                  0                  0                  0                  0                  0                  0                  0
                     0.0417707176         58.5450432        0.979679252        -4.96401782
                                0                  0                  0                  0                  0                  0                  0                  0
                      0.979679252        -4.96401782       0.0417705105         58.5455817

240000000     0.00608262954         69.4842505        0.997912574       -0.609050877                  0                  0                  0                  0
                                0                  0                  0                  0
                      0.997912574       -0.609050877      0.00608262954         69.4842505                  0                  0                  0                  0
                                0                  0                  0                  0
                                0                  0                  0                  0      0.00619366549         72.3151974        0.998163886       -0.609973446
                                0                  0                  0                  0
                                0                  0                  0                  0        0.998163886       -0.609973446      0.00619366549         72.3151974
                                0                  0                  0                  0
                                0                  0                  0                  0                  0                  0                  0                  0
                     0.0417707176         58.5450432        0.979679252        -4.96401782
                                0                  0                  0                  0                  0                  0                  0                  0
                      0.979679252        -4.96401782       0.0417705105         58.5455817

280000000      0.0069000931           68.92798         0.99757686       -0.698239086                  0                  0                  0                  0
                                0                  0                  0                  0
                       0.99757686       -0.698239086       0.0069000931           68.92798                  0                  0                  0                  0
                                0                  0                  0                  0
                                0                  0                  0                  0      0.00702301018         71.7177078        0.997856048       -0.699458672
                                0                  0                  0                  0
                                0                  0                  0                  0        0.997856048       -0.699458672      0.00702301018         71.7177078
                                0                  0                  0                  0
                                0                  0                  0                  0                  0                  0                  0                  0
                     0.0417707176         58.5450432        0.979679252        -4.96401782
                                0                  0                  0                  0                  0                  0                  0                  0
                      0.979679252        -4.96401782       0.0417705105         58.5455817

320000000     0.00769183273         68.4084561        0.997242002       -0.785770988                  0                  0                  0                  0
                                0                  0                  0                  0
                      0.997242002       -0.785770988      0.00769183273         68.4084561                  0                  0                  0                  0
                                0                  0                  0                  0
                                0                  0                  0                  0      0.00782568683         71.1660751        0.997547993       -0.787314207
                                0                  0                  0                  0
                                0                  0                  0                  0        0.997547993       -0.787314207      0.00782568683         71.1660751
                                0                  0                  0                  0
                                0                  0                  0                  0                  0                  0                  0                  0
                     0.0417707176         58.5450432        0.979679252        -4.96401782
                                0                  0                  0                  0                  0                  0                  0                  0
                      0.979679252        -4.96401782       0.0417705105         58.5455817

360000000     0.00846113044         67.9190257         0.99690788       -0.871851997                  0                  0                  0                  0
                                0                  0                  0                  0
                       0.99690788       -0.871851997      0.00846113044         67.9190257                  0                  0                  0                  0
                                0                  0                  0                  0
                                0                  0                  0                  0      0.00860509247         70.6508934        0.997239767       -0.873742484
                                0                  0                  0                  0
                                0                  0                  0                  0        0.997239767       -0.873742484      0.00860509247         70.6508934
                                0                  0                  0                  0
                                0                  0                  0                  0                  0                  0                  0                  0
                     0.0417707176         58.5450432        0.979679252        -4.96401782
                                0                  0                  0                  0                  0                  0                  0                  0
                      0.979679252        -4.96401782       0.0417705105         58.5455817

400000000     0.00921053028         67.4547799         0.99657441        -0.95664169                  0                  0                  0                  0
                                0                  0                  0                  0
                       0.99657441        -0.95664169      0.00921053028         67.4547799                  0                  0                  0                  0
                                0                  0                  0                  0
                                0                  0                  0                  0      0.00936386105         70.1655149        0.996931404       -0.958900709
                                0                  0                  0                  0
                                0                  0                  0                  0        0.996931404       -0.958900709      0.00936386105         70.1655149
                                0                  0                  0                  0
                                0                  0                  0                  0                  0                  0                  0                  0
                     0.0417707176         58.5450432        0.979679252        -4.96401782
                                0                  0                  0                  0                  0                  0                  0                  0
                      0.979679252        -4.96401782       0.0417705105         58.5455817

440000000     0.00994206215         67.0119835        0.996241527        -1.04026765                  0                  0                  0                  0
                                0                  0                  0                  0
                      0.996241527        -1.04026765      0.00994206215         67.0119835                  0                  0                  0                  0
                                0                  0                  0                  0
                                0                  0                  0                  0       0.0101040947         69.7050484        0.996622938        -1.04291452
                                0                  0                  0                  0
                                0                  0                  0                  0        0.996622938        -1.04291452       0.0101040947         69.7050484
                                0                  0                  0                  0
                                0                  0                  0                  0                  0                  0                  0                  0
                     0.0417707176         58.5450432        0.979679252        -4.96401782
                                0                  0                  0                  0                  0                  0                  0                  0
                      0.979679252        -4.96401782       0.0417705105         58.5455817

480000000      0.0106573833         66.5877214        0.995909185        -1.12283423                  0                  0                  0                  0
                                0                  0                  0                  0
                      0.995909185        -1.12283423       0.0106573833         66.5877214                  0                  0                  0                  0
                                0                  0                  0                  0
                                0                  0                  0                  0         0.01082751         69.2657784        0.996314394        -1.12588667
                                0                  0                  0                  0
                                0                  0                  0                  0        0.996314394        -1.12588667         0.01082751         69.2657784
                                0                  0                  0                  0
                                0                  0                  0                  0                  0                  0                  0                  0
                     0.0417707176         58.5450432        0.979679252        -4.96401782
                                0                  0                  0                  0                  0                  0                  0                  0
                      0.979679252        -4.96401782       0.0417705105         58.5455817

520000000      0.0113578725         66.1796706        0.995577349        -1.20442839                  0                  0                  0                  0
                                0                  0                  0                  0
                      0.995577349        -1.20442839       0.0113578725         66.1796706                  0                  0                  0                  0
                                0                  0                  0                  0
                                0                  0                  0                  0       0.0115355352         68.8448088        0.996005797        -1.20790275
