# GHz S MA R 50

4.000000000000000e-02  7.4554931971675441e-03 -1.7613273269561785e+02  3.8231871287508178e-02 -1.3325774943008694e+01  9.6075277568730977e-01 -1.0408505138594070e+02  1.2980084889574609e-03 -4.0686444534920327e+01
                         3.8231871287508178e-02 -1.3325774943008694e+01  7.5214881184029305e-03 -1.7594421289868433e+02  1.2980084889574609e-03 -4.0686444534920327e+01  9.6067503273089738e-01 -1.0407869971316528e+02
                         9.6075277159563388e-01 -1.0408505161286021e+02  1.2980082378114316e-03 -4.0686451015294622e+01  7.4555003316713556e-03 -1.7613274050501747e+02  3.8231871173271613e-02 -1.3325775464170066e+01
                         1.2980082378114316e-03 -4.0686451015294622e+01  9.6067503681424449e-01 -1.0407869948795370e+02  3.8231871173271613e-02 -1.3325775464170066e+01  7.5214809873903887e-03 -1.7594420497949963e+02
8.000000000000000e-02  3.5102979661154861e-03 -1.2641224539031251e+02  1.8107383835190678e-02  5.5465629529081404e+01  9.3915659801475815e-01  1.5215230665450568e+02  2.6708845584822016e-03 -1.2562019148251815e+02
                         1.8107383835190678e-02  5.5465629529081404e+01  3.5401440990386799e-03 -1.2611329877316247e+02  2.6708845584822016e-03 -1.2562019148251815e+02  9.3902453724647883e-01  1.5216767657426706e+02
                         9.3915658019665937e-01  1.5215230728946486e+02  2.6708842953990881e-03 -1.2562016772090374e+02  3.5103127230904979e-03 -1.2641214973100688e+02  1.8107383353011902e-02  5.5465627331979633e+01
                         2.6708842953990881e-03 -1.2562016772090374e+02  9.3902455503704296e-01  1.5216767593756848e+02  1.8107383353011902e-02  5.5465627331979633e+01  3.5401293117570953e-03 -1.2611339237893392e+02
1.200000000000000e-01  5.3293783664432803e-03  1.2978181510440447e+02  2.8226339364032033e-02 -3.6047845662292943e+01  9.0766590412480330e-01  4.9046491634584861e+01  3.6848756907261978e-03  1.2811866898195956e+02
                         2.8226339364032033e-02 -3.6047845662292943e+01  5.3836467315970275e-03  1.3022631587058115e+02  3.6848756907261978e-03  1.2811866898195956e+02  9.0749652330604769e-01  4.9073943881657193e+01
                         9.0766588114058078e-01  4.9046488218573010e+01  3.6848722951987826e-03  1.2811864991886910e+02  5.3294330807163387e-03  1.2978208115650821e+02  2.8226336554594913e-02 -3.6047850866025748e+01
                         3.6848722951987826e-03  1.2811864991886910e+02  9.0749654616668374e-01  4.9073947285614317e+01  2.8226336554594913e-02 -3.6047850866025748e+01  5.3835918271415879e-03  1.3022605701701096e+02
1.600000000000000e-01  5.8276069397580378e-03 -1.7333854743613932e+02  2.9076299721968169e-02  3.0940108245040353e+01  8.7250484626749125e-01 -5.3477423720995041e+01  4.8796569144334339e-03  2.2864973175793249e+01
                         2.9076299721968169e-02  3.0940108245040353e+01  5.8792711951615173e-03 -1.7285949040973438e+02  4.8796569144334339e-03  2.2864973175793249e+01  8.7233855982130337e-01 -5.3436771331501497e+01
                         8.7250472157467374e-01 -5.3477418212461060e+01  4.8796556681327957e-03  2.2865090993527218e+01  5.8277167660577374e-03 -1.7333803351139562e+02  2.9076292797491802e-02  3.0940100408053873e+01
                         4.8796556681327957e-03  2.2865090993527218e+01  8.7233868393741287e-01 -5.3436776858284858e+01  2.9076292797491802e-02  3.0940100408053873e+01  5.8791609365728449e-03 -1.7285999087310341e+02
2.000000000000000e-01  2.9101462288152287e-03  1.0163685115526791e+02  1.5536123995983503e-02 -4.4124540147257363e+01  8.3765187280347908e-01 -1.5532648967380840e+02  5.4857479071668798e-03 -7.9343707823323015e+01
                         1.5536123995983503e-02 -4.4124540147257363e+01  2.9443776762184482e-03  1.0220597536304319e+02  5.4857479071668798e-03 -7.9343707823323015e+01  8.3752412441796442e-01 -1.5527279680079636e+02
                         8.3765187484407977e-01 -1.5532649736390943e+02  5.4857415521860475e-03 -7.9343760435781988e+01  2.9102322644484241e-03  1.0163779438520264e+02  1.5536117211787503e-02 -4.4124548353406261e+01
                         5.4857415521860475e-03 -7.9343760435781988e+01  8.3752412234781437e-01 -1.5527278912540564e+02  1.5536117211787503e-02 -4.4124548353406261e+01  2.9442911696347068e-03  1.0220505971665105e+02
2.400000000000000e-01  6.7061904507048241e-03  1.4800335607176521e+02  3.2832973958907080e-02  1.0595603612691027e+01  8.0438692834329217e-01  1.0327884635321236e+02  6.1221255856573785e-03  1.7629376243504953e+02
                         3.2832973958907080e-02  1.0595603612691027e+01  6.7613745194852540e-03  1.4858810975453787e+02  6.1221255856573785e-03  1.7629376243504953e+02  8.0431498714352145e-01  1.0334412022653662e+02
                         8.0438659064368290e-01  1.0327885748787278e+02  6.1221198640314181e-03  1.7629401723021365e+02  6.7064424604246697e-03  1.4800458947210538e+02  3.2832952414621294e-02  1.0595597872247748e+01
                         6.1221198640314181e-03  1.7629401723021365e+02  8.0431532284605256e-01  1.0334410905711860e+02  3.2832952414621294e-02  1.0595597872247748e+01  6.7611210529502268e-03  1.4858690817913174e+02
2.800000000000000e-01  1.5189700939272236e-03  1.2986999030013081e+02  8.3148084908226654e-03 -6.5444789502191520e+00  7.7504583487168832e-01  2.3001352987813561e+00  6.6459118448559222e-03  7.6049616758075402e+01
                         8.3148084908226654e-03 -6.5444789502191520e+00  1.5344968453297055e-03  1.3017805023070230e+02  6.6459118448559222e-03  7.6049616758075402e+01  7.7503727677701761e-01  2.3751455699175517e+00
                         7.7504594968219509e-01  2.3001322130241224e+00  6.6459139338744776e-03  7.6049538469043370e+01  1.5190539567626628e-03  1.2987162831029201e+02  8.3148012810305410e-03 -6.5444794496505594e+00
                         6.6459139338744776e-03  7.6049538469043370e+01  7.7503716217057839e-01  2.3751486632990693e+00  8.3148012810305410e-03 -6.5444794496505594e+00  1.5344127514190500e-03  1.3017644547351756e+02
3.200000000000000e-01  6.4552394114905610e-03  1.1616140735190260e+02  3.1626311193185853e-02 -5.7560692936569238e+00  7.4831947733159243e-01 -9.8397300310615933e+01  6.9601192884050957e-03 -2.5879466589684938e+01
                         3.1626311193185853e-02 -5.7560692936569238e+00  6.5020454030030412e-03  1.1681602028863956e+02  6.9601192884050957e-03 -2.5879466589684938e+01  7.4836856481769998e-01 -9.8311630515900418e+01
                         7.4831887919925799e-01 -9.8397294944269120e+01  6.9600992262717183e-03 -2.5879111715768250e+01  6.4555933065010961e-03  1.1616383810865045e+02  3.1626275350637584e-02 -5.7560631617693128e+00
                         6.9600992262717183e-03 -2.5879111715768250e+01  7.4836915974184637e-01 -9.8311635947043513e+01  3.1626275350637584e-02 -5.7560631617693128e+00  6.5016884132821197e-03  1.1681364254117739e+02
3.600000000000000e-01  2.8245067349319981e-03  1.5052948851516575e+02  1.3692465237646979e-02  2.8960090013045154e+01  7.2538656555518122e-01  1.6109547891615352e+02  7.4682699668422127e-03 -1.2602831164316490e+02
                         1.3692465237646979e-02  2.8960090013045154e+01  2.8370518761734811e-03  1.5104964739732333e+02  7.4682699668422127e-03 -1.2602831164316490e+02  7.2549006337741917e-01  1.6118784262096833e+02
                         7.2538677599541823e-01  1.6109549850050993e+02  7.4682950393257534e-03 -1.2602835018487842e+02  2.8246932923006044e-03  1.5053225222315857e+02  1.3692447372703103e-02  2.8960103405724816e+01
                         7.4682950393257534e-03 -1.2602835018487842e+02  7.2548985259501064e-01  1.6118782312099859e+02  1.3692447372703103e-02  2.8960103405724816e+01  2.8368640960991383e-03  1.5104692986017503e+02
4.000000000000000e-01  5.4914130374946728e-03  9.0692458931112569e+01  2.7240837417895045e-02 -1.8283234798168877e+01  7.0476723529874252e-01  6.0756492123196011e+01  7.6987948595312397e-03  1.3392913068073571e+02
                         2.7240837417895045e-02 -1.8283234798168877e+01  5.5247920666913084e-03  9.1360672208405305e+01  7.6987948595312397e-03  1.3392913068073571e+02  7.0491310136041185e-01  6.0856067793057285e+01
                         7.0476653008626944e-01  6.0756472881506767e+01  7.6987530153496634e-03  1.3392943758647755e+02  5.4917739082617524e-03  9.0696497182986818e+01  2.7240796257820960e-02 -1.8283213223522726e+01
                         7.6987530153496634e-03  1.3392943758647755e+02  7.0491380367791512e-01  6.0856086897151556e+01  2.7240796257820960e-02 -1.8283213223522726e+01  5.5244267327945445e-03  9.1356701735222302e+01
4.400000000000000e-01  4.3444300056651643e-03  1.3530223228387149e+02  2.0930022512255553e-02  2.7087390188491963e+01  6.8680200061772811e-01 -3.9523986527363910e+01  8.1417963293080008e-03  3.3499972199058604e+01
                         2.0930022512255553e-02  2.7087390188491963e+01  4.3591483104626697e-03  1.3593839743251729e+02  8.1417963293080008e-03  3.3499972199058604e+01  6.8698772635672856e-01 -3.9415997553867186e+01
                         6.8680206991549753e-01 -3.9523927186850628e+01  8.1418502232643505e-03  3.3500108583040635e+01  4.3447597097823545e-03  1.3530681169267646e+02  2.0929985664350552e-02  2.7087419943805816e+01
                         8.1418502232643505e-03  3.3500108583040635e+01  6.8698765466070177e-01 -3.9416056689215203e+01  2.0929985664350552e-02  2.7087419943805816e+01  4.3588147986069470e-03  1.3593388117962499e+02
4.800000000000000e-01  4.1434098899150980e-03  7.2878335829075581e+01  2.1095250864849938e-02 -2.5265282107555318e+01  6.7071564777104398e-01 -1.3970986722214735e+02  8.4221982311077654e-03 -6.5665479585180279e+01
                         2.1095250864849938e-02 -2.5265282107555318e+01  4.1654243190026793e-03  7.3513060433046107e+01  8.4221982311077654e-03 -6.5665479585180279e+01  6.7093136783643126e-01 -1.3959154065440543e+02
                         6.7071513516049441e-01 -1.3970992251154280e+02  8.4221322914868838e-03 -6.5665358488836134e+01  4.1437187320226007e-03  7.2884818127603495e+01  2.1095206403590493e-02 -2.5265242638971831e+01
                         8.4221322914868838e-03 -6.5665358488836134e+01  6.7093187920596475e-01 -1.3959148560082596e+02  2.1095206403590493e-02 -2.5265242638971831e+01  4.1651103544895866e-03  7.3506658874276695e+01
5.200000000000000e-01  5.3857447289052240e-03  1.1541215899050390e+02  2.6030450519128411e-02  1.7293465668176655e+01  6.5617957001488014e-01  1.2010604595485714e+02  8.7645538763505230e-03 -1.6609858559582599e+02
                         2.6030450519128411e-02  1.7293465668176655e+01  5.3993859287934827e-03  1.1607651244740140e+02  8.7645538763505230e-03 -1.6609858559582599e+02  6.5642163255744701e-01  1.2022604059152899e+02
                         6.5617911234621651e-01  1.2010613979076385e+02  8.7646191392042553e-03 -1.6609815959797777e+02  5.3861699349739781e-03  1.1541872261653499e+02  2.6030394616905164e-02  1.7293511005728028e+01
                         8.7646191392042553e-03 -1.6609815959797777e+02  6.5642208466215712e-01  1.2022594701107802e+02  2.6030394616905164e-02  1.7293511005728028e+01  5.3989536669651053e-03  1.1607001710827615e+02
5.600000000000001e-01  2.8004822476349863e-03  6.9027068786333203e+01  1.5093492427786029e-02 -2.0974705125380382e+01  6.4317686183343747e-01  1.9977544840849909e+01  9.1268580425046091e-03  9.4794512915507596e+01
                         1.5093492427786029e-02 -2.0974705125380382e+01  2.8128064602124417e-03  6.9596638320342777e+01  9.1268580425046091e-03  9.4794512915507596e+01  6.4344107013610241e-01  2.0104325780008448e+01
                         6.4317693953795219e-01  1.9977478126506494e+01  9.1268044701156917e-03  9.4794349343447095e+01  2.8006967124834061e-03  6.9036030427364494e+01  1.5093456358110826e-02 -2.0974651654258928e+01
                         9.1268044701156917e-03  9.4794349343447095e+01  6.4344099364876151e-01  2.0104392323423966e+01  1.5093456358110826e-02 -2.0974651654258928e+01  2.8125877191590744e-03  6.9587758424932645e+01
6.000000000000001e-01  5.8499670920698814e-03  9.5753740487288042e+01  2.8326185906668452e-02  5.7947496222529145e+00  6.3093618337463753e-01 -8.0165325951671505e+01  9.3875868118502050e-03 -5.3150477783802401e+00
                         2.8326185906668452e-02  5.7947496222529145e+00  5.8607603589202906e-03  9.6429662611214482e+01  9.3875868118502050e-03 -5.3150477783802401e+00  6.3121583302920226e-01 -8.0031373342673163e+01
                         6.3093490277214004e-01 -8.0165233345602104e+01  9.3876295359997426e-03 -5.3143028735430597e+00  5.8504160671343178e-03  9.5762672522153267e+01  2.8326110533326784e-02  5.7948108307167567e+00
                         9.3876295359997426e-03 -5.3143028735430597e+00  6.3121710487494220e-01 -8.0031465836113767e+01  2.8326110533326784e-02  5.7948108307167567e+00  5.8603007967800670e-03  9.6420798024270567e+01
6.400000000000000e-01  2.2550729559047433e-03  8.8883523141393795e+01  1.2691620628913864e-02  3.8235024318740579e-01  6.1992263293001915e-01  1.7970778386546067e+02  9.7921196622113484e-03 -1.0480212428522589e+02
                         1.2691620628913864e-02  3.8235024318740579e-01  2.2572734381135343e-03  8.9349062140185453e+01  9.7921196622113484e-03 -1.0480212428522589e+02  6.2022025837288941e-01  1.7984572255121694e+02
                         6.1992337670184361e-01  1.7970775588648749e+02  9.7921149895606636e-03 -1.0480248761772714e+02  2.2552780702270424e-03  8.8895011043514913e+01  1.2691584975396195e-02  3.8241701295949870e-01
                         9.7921149895606636e-03 -1.0480248761772714e+02  6.2021951681476128e-01  1.7984575062792561e+02  1.2691584975396195e-02  3.8241701295949870e-01  2.2570647466771325e-03  8.9337626000838213e+01
6.800000000000000e-01  5.7319101857193962e-03  7.7763503738250165e+01  2.7775261231805601e-02 -5.3338528219266932e+00  6.0924331542938437e-01  7.9580677464229723e+01  1.0026584448408602e-02  1.5549539540898127e+02
                         2.7775261231805601e-02 -5.3338528219266932e+00  5.7397746160390110e-03  7.8414677294616169e+01  1.0026584448408602e-02  1.5549539540898127e+02  6.0954803250059519e-01  7.9724868843688427e+01
                         6.0924137601073358e-01  7.9580706711706881e+01  1.0026563884829018e-02  1.5549625311234951e+02  5.7322949281979653e-03  7.7774753935362511e+01  2.7775175847834208e-02 -5.3337780786707425e+00
                         1.0026563884829018e-02  1.5549625311234951e+02  6.0954996280138030e-01  7.9724839341275072e+01  2.7775175847834208e-02 -5.3337780786707425e+00  5.7393773259902118e-03  7.8403485331624452e+01
7.200000000000001e-01  3.0184620900385369e-03  1.0422176639503773e+02  1.5740422598956222e-02  1.7908107176371651e+01  5.9945322410209545e-01 -2.0560253909590919e+01  1.0416313887843349e-02  5.5588558785038515e+01
                         1.5740422598956222e-02  1.7908107176371651e+01  3.0142304707146644e-03  1.0478652321430073e+02  1.0416313887843349e-02  5.5588558785038515e+01  5.9977347023348904e-01 -2.0410156870290255e+01
                         5.9945423111005114e-01 -2.0560183909979209e+01  1.0416389312138379e-02  5.5588237170521154e+01  3.0187350448286285e-03  1.0423480304277683e+02  1.5740370264118227e-02  1.7908187607525694e+01
                         1.0416389312138379e-02  5.5588237170521154e+01  5.9977246309994403e-01 -2.0410226347880478e+01  1.5740370264118227e-02  1.7908187607525694e+01  3.0139509147185713e-03  1.0477351762974797e+02
7.600000000000000e-01  5.0957928420151191e-03  6.2665371642732794e+01  2.4784523649984191e-02 -1.4373372769035241e+01  5.8986383513376672e-01 -1.2068091450642713e+02  1.0671789401347231e-02 -4.3851012582561758e+01
                         2.4784523649984191e-02 -1.4373372769035241e+01  5.1013431028315822e-03  6.3289470588617640e+01  1.0671789401347231e-02 -4.3851012582561758e+01  5.9018611359338380e-01 -1.2052283332563039e+02
                         5.8986184775409245e-01 -1.2068099767605868e+02  1.0671684988358776e-02 -4.3850310899541739e+01  5.0960564404638458e-03  6.2679448186816657e+01  2.4784431888054730e-02 -1.4373283089123337e+01
                         1.0671684988358776e-02 -4.3850310899541739e+01  5.9018809496815061e-01 -1.2052275086244063e+02  2.4784431888054730e-02 -1.4373283089123337e+01  5.1010661886990265e-03  6.3275440923009022e+01
8.000000000000000e-01  4.1864768336805141e-03  1.0036255651077670e+02  2.0663087742674460e-02  1.9395821210728329e+01  5.8079723549360085e-01  1.3916846873211605e+02  1.0998510832807047e-02 -1.4399651768422447e+02
                         2.0663087742674460e-02  1.9395821210728329e+01  4.1801156210872987e-03  1.0097391943533449e+02  1.0998510832807047e-02 -1.4399651768422447e+02  5.8113138428141797e-01  1.3932963184790680e+02
                         5.8079764558840963e-01  1.3916866008575707e+02  1.0998659949962821e-02 -1.4399648058275176e+02  4.1867861616601207e-03  1.0037751882779662e+02  2.0663008703287022e-02  1.9395914843409219e+01
                         1.0998659949962821e-02 -1.4399648058275176e+02  5.8113096799961150e-01  1.3932944132596981e+02  2.0663008703287022e-02  1.9395914843409219e+01  4.1797949294019379e-03  1.0095897815626157e+02
8.400000000000001e-01  4.1021900451883005e-03  5.2951372632872051e+01  2.0300230187216904e-02 -1.8662152361211042e+01  5.7197173729189621e-01  3.9040463676363125e+01  1.1297104334638815e-02  1.1657822978304435e+02
                         2.0300230187216904e-02 -1.8662152361211042e+01  4.1060170361530242e-03  5.3504728290270215e+01  1.1297104334638815e-02  1.1657822978304435e+02  5.7230827587754318e-01  3.9208868118732731e+01
                         5.7197069292368907e-01  3.9040279036505545e+01  1.1296949783234013e-02  1.1657845006659252e+02  4.1023136698229165e-03  5.2968296019445468e+01  2.0300144899265585e-02 -1.8662050090386359e+01
                         1.1296949783234013e-02  1.1657845006659252e+02  5.7230932064538698e-01  3.9209051906586652e+01  2.0300144899265585e-02 -1.8662050090386359e+01  4.1058820719099337e-03  5.3487837027619847e+01
8.800000000000000e-01  5.1335038935800201e-03  8.9026561292422173e+01  2.4593402120884997e-02  1.3082280798856340e+01  5.6333721527465042e-01 -6.1113783655303735e+01  1.1557099031425842e-02  1.6441578577990978e+01
                         2.4593402120884997e-02  1.3082280798856340e+01  5.1259156476665133e-03  8.9654754722569749e+01  1.1557099031425842e-02  1.6441578577990978e+01  5.6367791041999504e-01 -6.0936456843145407e+01
                         5.6333609225613090e-01 -6.1113512323257467e+01  1.1557276149082002e-02  1.6442228638637140e+01  5.1337762149716191e-03  8.9044263967825188e+01  2.4593288054025893e-02  1.3082390405132227e+01
                         1.1557276149082002e-02  1.6442228638637140e+01  5.6367901886789507e-01 -6.0936727456134577e+01  2.4593288054025893e-02  1.3082390405132227e+01  5.1256264412692125e-03  8.9637058295966924e+01
9.200000000000000e-01  3.0913807355506047e-03  5.4059326434928352e+01  1.6068260159422847e-02 -1.3783172435593212e+01  5.5502796795601839e-01 -1.6124732935533234e+02  1.1884005134965221e-02 -8.3168695410720431e+01
                         1.6068260159422847e-02 -1.3783172435593212e+01  3.0917600615254517e-03  5.4503715973547017e+01  1.1884005134965221e-02 -8.3168695410720431e+01  5.5537505640373319e-01 -1.6106626076569276e+02
                         5.5502855474931512e-01 -1.6124752806669184e+02  1.1883873890715319e-02 -8.3169058673884791e+01  3.0914043653063870e-03  5.4080075530685718e+01  1.6068182139502042e-02 -1.3783057352036366e+01
                         1.1883873890715319e-02 -8.3169058673884791e+01  5.5537447586138811e-01 -1.6106606249529997e+02  1.6068182139502042e-02 -1.3783057352036366e+01  3.0917281545187235e-03  5.4482973033195513e+01
