# Hz S ri R 50
0	0.0004132205	0	0.9995868	0	7.328225e-06	0	-7.328225e-06	0
	7.328225e-06	0	-7.328225e-06	0	7.328225e-06	0	-7.328225e-06	0
	0.9995868	0	0.0004132205	0	-7.328225e-06	0	7.328225e-06	0
	-7.328225e-06	0	7.328225e-06	0	-7.328225e-06	0	7.328225e-06	0
	7.328225e-06	0	-7.328225e-06	0	0.0004132205	0	0.9995868	0
	7.328225e-06	0	-7.328225e-06	0	7.328225e-06	0	-7.328225e-06	0
	-7.328225e-06	0	7.328225e-06	0	0.9995868	0	0.0004132205	0
	-7.328225e-06	0	7.328225e-06	0	-7.328225e-06	0	7.328225e-06	0
	7.328225e-06	0	-7.328225e-06	0	7.328225e-06	0	-7.328225e-06	0
	0.0004132205	0	0.9995868	0	7.328225e-06	0	-7.328225e-06	0
	-7.328225e-06	0	7.328225e-06	0	-7.328225e-06	0	7.328225e-06	0
	0.9995868	0	0.0004132205	0	-7.328225e-06	0	7.328225e-06	0
	7.328225e-06	0	-7.328225e-06	0	7.328225e-06	0	-7.328225e-06	0
	7.328225e-06	0	-7.328225e-06	0	0.0004132205	0	0.9995868	0
	-7.328225e-06	0	7.328225e-06	0	-7.328225e-06	0	7.328225e-06	0
	-7.328225e-06	0	7.328225e-06	0	0.9995868	0	0.0004132205	0
4e+07	-2.856588e-06	-0.03049477	0.9948009	-0.06154018	0.0002624911	0.001835352	9.390988e-05	0.001033381
	-6.238319e-07	1.194901e-05	-2.76614e-06	-9.936567e-06	6.352316e-07	1.185076e-07	-6.411021e-07	-1.215713e-07
	0.9948009	-0.06154018	-2.856588e-06	-0.03049477	9.390988e-05	0.001033381	0.0002624911	0.001835352
	-2.76614e-06	-9.936567e-06	-6.238319e-07	1.194901e-05	-6.411021e-07	-1.215713e-07	6.352316e-07	1.185076e-07
	0.0002624911	0.001835352	9.390988e-05	0.001033381	5.036887e-06	-0.03055099	0.9947635	-0.06162271
	0.0001767515	0.001597121	0.0001319927	0.0008654465	-6.256642e-07	1.196561e-05	-2.769295e-06	-9.949631e-06
	9.390988e-05	0.001033381	0.0002624911	0.001835352	0.9947635	-0.06162271	5.036887e-06	-0.03055099
	0.0001319927	0.0008654465	0.0001767515	0.001597121	-2.769295e-06	-9.949631e-06	-6.256642e-07	1.196561e-05
	-6.238319e-07	1.194901e-05	-2.76614e-06	-9.936567e-06	0.0001767515	0.001597121	0.0001319927	0.0008654465
	5.008286e-06	-0.0305507	0.9947634	-0.06162297	0.0002627344	0.00183805	9.411813e-05	0.001034949
	-2.76614e-06	-9.936567e-06	-6.238319e-07	1.194901e-05	0.0001319927	0.0008654465	0.0001767515	0.001597121
	0.9947634	-0.06162297	5.008286e-06	-0.0305507	9.411813e-05	0.001034949	0.0002627344	0.00183805
	6.352316e-07	1.185076e-07	-6.411021e-07	-1.215713e-07	-6.256642e-07	1.196561e-05	-2.769295e-06	-9.949631e-06
	0.0002627344	0.00183805	9.411813e-05	0.001034949	-2.95917e-06	-0.03049602	0.9948008	-0.06154059
	-6.411021e-07	-1.215713e-07	6.352316e-07	1.185076e-07	-2.769295e-06	-9.949631e-06	-6.256642e-07	1.196561e-05
	9.411813e-05	0.001034949	0.0002627344	0.00183805	0.9948008	-0.06154059	-2.95917e-06	-0.03049602
8e+07	-0.006015635	-0.06553605	0.9877844	-0.1171924	0.0006986816	0.003499053	0.0004775479	0.002117555
	-4.632164e-06	2.060736e-05	-8.360106e-06	-1.358683e-05	6.163299e-07	1.560752e-07	-6.503944e-07	-1.848274e-07
	0.9877844	-0.1171924	-0.006015635	-0.06553605	0.0004775479	0.002117555	0.0006986816	0.003499053
	-8.360106e-06	-1.358683e-05	-4.632164e-06	2.060736e-05	-6.503944e-07	-1.848274e-07	6.163299e-07	1.560752e-07
	0.0006986816	0.003499053	0.0004775479	0.002117555	-0.006033579	-0.06568158	0.9877206	-0.1173151
	0.0005493945	0.00301214	0.0004648823	0.00180884	-4.639928e-06	2.063665e-05	-8.371471e-06	-1.360468e-05
	0.0004775479	0.002117555	0.0006986816	0.003499053	0.9877206	-0.1173151	-0.006033579	-0.06568158
	0.0004648823	0.00180884	0.0005493945	0.00301214	-8.371471e-06	-1.360468e-05	-4.639928e-06	2.063665e-05
	-4.632164e-06	2.060736e-05	-8.360106e-06	-1.358683e-05	0.0005493945	0.00301214	0.0004648823	0.00180884
	-0.006033619	-0.06568108	0.9877205	-0.1173155	0.0006995547	0.003504221	0.0004783186	0.002120743
	-8.360106e-06	-1.358683e-05	-4.632164e-06	2.060736e-05	0.0004648823	0.00180884	0.0005493945	0.00301214
	0.9877205	-0.1173155	-0.006033619	-0.06568108	0.0004783186	0.002120743	0.0006995547	0.003504221
	6.163299e-07	1.560752e-07	-6.503944e-07	-1.848274e-07	-4.639928e-06	2.063665e-05	-8.371471e-06	-1.360468e-05
	0.0006995547	0.003504221	0.0004783186	0.002120743	-0.006016006	-0.06553837	0.9877841	-0.1171933
	-6.503944e-07	-1.848274e-07	6.163299e-07	1.560752e-07	-8.371471e-06	-1.360468e-05	-4.639928e-06	2.063665e-05
	0.0004783186	0.002120743	0.0006995547	0.003504221	0.9877841	-0.1171933	-0.006016006	-0.06553837
1.2e+08	-0.01566012	-0.09923663	0.9763006	-0.1717962	0.001392103	0.005049155	0.001083752	0.003094901
	-1.046956e-05	3.214336e-05	-1.67262e-05	-1.470024e-05	5.656921e-07	2.560429e-07	-6.777873e-07	-3.448476e-07
	0.9763006	-0.1717962	-0.01566012	-0.09923663	0.001083752	0.003094901	0.001392103	0.005049155
	-1.67262e-05	-1.470024e-05	-1.046956e-05	3.214336e-05	-6.777873e-07	-3.448476e-07	5.656921e-07	2.560429e-07
	0.001392103	0.005049155	0.001083752	0.003094901	-0.01571957	-0.09945769	0.976198	-0.1719565
	0.001143765	0.004336694	0.0009883657	0.00265288	-1.048603e-05	3.218973e-05	-1.674979e-05	-1.471932e-05
	0.001083752	0.003094901	0.001392103	0.005049155	0.976198	-0.1719565	-0.01571957	-0.09945769
	0.0009883657	0.00265288	0.001143765	0.004336694	-1.674979e-05	-1.471932e-05	-1.048603e-05	3.218973e-05
	-1.046956e-05	3.214336e-05	-1.67262e-05	-1.470024e-05	0.001143765	0.004336694	0.0009883657	0.00265288
	-0.01571963	-0.09945698	0.9761979	-0.1719571	0.001393981	0.005056637	0.001085423	0.00309954
	-1.67262e-05	-1.470024e-05	-1.046956e-05	3.214336e-05	0.0009883657	0.00265288	0.001143765	0.004336694
	0.9761979	-0.1719571	-0.01571963	-0.09945698	0.001085423	0.00309954	0.001393981	0.005056637
	5.656921e-07	2.560429e-07	-6.777873e-07	-3.448476e-07	-1.048603e-05	3.218973e-05	-1.674979e-05	-1.471932e-05
	0.001393981	0.005056637	0.001085423	0.00309954	-0.01566091	-0.09923997	0.9762999	-0.1717976
	-6.777873e-07	-3.448476e-07	5.656921e-07	2.560429e-07	-1.674979e-05	-1.471932e-05	-1.048603e-05	3.218973e-05
	0.001085423	0.00309954	0.001393981	0.005056637	0.9762999	-0.1717976	-0.01566091	-0.09923997
1.6e+08	-0.02864293	-0.1301035	0.9604827	-0.2258615	0.002318965	0.006461929	0.0018805	0.003900913
	-1.676186e-05	4.814529e-05	-2.687177e-05	-1.31431e-05	4.966217e-07	5.130491e-07	-7.733186e-07	-6.901365e-07
	0.9604827	-0.2258615	-0.02864293	-0.1301035	0.0018805	0.003900913	0.002318965	0.006461929
	-2.687177e-05	-1.31431e-05	-1.676186e-05	4.814529e-05	-7.733186e-07	-6.901365e-07	4.966217e-07	5.130491e-07
	0.002318965	0.006461929	0.0018805	0.003900913	-0.02875672	-0.1303782	0.9603308	-0.2260588
	0.001944187	0.005556175	0.001669999	0.003336029	-1.678777e-05	4.821547e-05	-2.691017e-05	-1.315963e-05
	0.0018805	0.003900913	0.002318965	0.006461929	0.9603308	-0.2260588	-0.02875672	-0.1303782
	0.001669999	0.003336029	0.001944187	0.005556175	-2.691017e-05	-1.315963e-05	-1.678777e-05	4.821547e-05
	-1.676186e-05	4.814529e-05	-2.687177e-05	-1.31431e-05	0.001944187	0.005556175	0.001669999	0.003336029
	-0.02875678	-0.1303772	0.9603306	-0.2260596	0.002322187	0.006471536	0.001883359	0.003906739
	-2.687177e-05	-1.31431e-05	-1.676186e-05	4.814529e-05	0.001669999	0.003336029	0.001944187	0.005556175
	0.9603306	-0.2260596	-0.02875678	-0.1303772	0.001883359	0.003906739	0.002322187	0.006471536
	4.966217e-07	5.130491e-07	-7.733186e-07	-6.901365e-07	-1.678777e-05	4.821547e-05	-2.691017e-05	-1.315963e-05
	0.002322187	0.006471536	0.001883359	0.003906739	-0.0286443	-0.1301077	0.9604816	-0.2258631
	-7.733186e-07	-6.901365e-07	4.966217e-07	5.130491e-07	-2.691017e-05	-1.315963e-05	-1.678777e-05	4.821547e-05
	0.001883359	0.003906739	0.002322187	0.006471536	0.9604816	-0.2258631	-0.0286443	-0.1301077
2e+08	-0.04489098	-0.1590513	0.9409649	-0.2778047	0.003426861	0.007684615	0.002834106	0.004529661
	-2.238765e-05	6.783592e-05	-3.727906e-05	-7.436594e-06	4.208093e-07	8.811388e-07	-9.834637e-07	-1.148329e-06
	0.9409649	-0.2778047	-0.04489098	-0.1590513	0.002834106	0.004529661	0.003426861	0.007684615
	-3.727906e-05	-7.436594e-06	-2.238765e-05	6.783592e-05	-9.834637e-07	-1.148329e-06	4.208093e-07	8.811388e-07
	0.003426861	0.007684615	0.002834106	0.004529661	-0.04506745	-0.1593664	0.9407563	-0.2780267
	0.002905865	0.006612648	0.002479846	0.003866025	-2.242197e-05	6.793546e-05	-3.733268e-05	-7.444567e-06
	0.002834106	0.004529661	0.003426861	0.007684615	0.9407563	-0.2780267	-0.04506745	-0.1593664
	0.002479846	0.003866025	0.002905865	0.006612648	-3.733268e-05	-7.444567e-06	-2.242197e-05	6.793546e-05
	-2.238765e-05	6.783592e-05	-3.727906e-05	-7.436594e-06	0.002905865	0.006612648	0.002479846	0.003866025
	-0.04506749	-0.1593652	0.9407559	-0.2780276	0.003431702	0.00769607	0.002838383	0.004536406
	-3.727906e-05	-7.436594e-06	-2.238765e-05	6.783592e-05	0.002479846	0.003866025	0.002905865	0.006612648
	0.9407559	-0.2780276	-0.04506749	-0.1593652	0.002838383	0.004536406	0.003431702	0.00769607
	4.208094e-07	8.811388e-07	-9.834637e-07	-1.148329e-06	-2.242197e-05	6.793546e-05	-3.733268e-05	-7.444567e-06
	0.003431702	0.00769607	0.002838383	0.004536406	-0.04489303	-0.1590564	0.9409632	-0.2778064
	-9.834637e-07	-1.148329e-06	4.208094e-07	8.811388e-07	-3.733268e-05	-7.444567e-06	-2.242197e-05	6.793546e-05
	0.002838383	0.004536406	0.003431702	0.00769607	0.9409632	-0.2778064	-0.04489303	-0.1590564
2.4e+08	-0.06401565	-0.1856237	0.9180447	-0.327403	0.004675825	0.008700019	0.003900688	0.004952726
	-2.569306e-05	9.107817e-05	-4.689331e-05	2.398124e-06	2.646018e-07	1.075244e-06	-1.247517e-06	-1.37934e-06
	0.9180447	-0.327403	-0.06401565	-0.1856237	0.003900688	0.004952726	0.004675825	0.008700019
	-4.689331e-05	2.398124e-06	-2.569306e-05	9.107817e-05	-1.247517e-06	-1.37934e-06	2.646018e-07	1.075244e-06
	0.004675825	0.008700019	0.003900688	0.004952726	-0.06425879	-0.1859655	0.9177744	-0.327636
	0.003981953	0.007485177	0.003392936	0.004224883	-2.573274e-05	9.121253e-05	-4.696055e-05	2.404611e-06
	0.003900688	0.004952726	0.004675825	0.008700019	0.9177744	-0.327636	-0.06425879	-0.1859655
	0.003392936	0.004224883	0.003981953	0.007485177	-4.696055e-05	2.404611e-06	-2.573274e-05	9.121253e-05
	-2.569306e-05	9.107817e-05	-4.689331e-05	2.398124e-06	0.003981953	0.007485177	0.003392936	0.004224883
	-0.06425882	-0.185964	0.917774	-0.327637	0.004682498	0.008713011	0.003906553	0.004960085
	-4.689331e-05	2.398124e-06	-2.569306e-05	9.107817e-05	0.003392936	0.004224883	0.003981953	0.007485177
	0.917774	-0.327637	-0.06425882	-0.185964	0.003906553	0.004960085	0.004682498	0.008713011
	2.646018e-07	1.075244e-06	-1.247517e-06	-1.37934e-06	-2.573274e-05	9.121253e-05	-4.696055e-05	2.404611e-06
	0.004682498	0.008713011	0.003906553	0.004960085	-0.06401846	-0.1856295	0.9180425	-0.3274048
	-1.247517e-06	-1.37934e-06	2.646018e-07	1.075244e-06	-4.696055e-05	2.404611e-06	-2.573274e-05	9.121253e-05
	0.003906553	0.004960085	0.004682498	0.008713011	0.9180425	-0.3274048	-0.06401846	-0.1856295
2.8e+08	-0.08565205	-0.2096075	0.892119	-0.3743177	0.006020673	0.00949101	0.005037369	0.005161936
	-2.567358e-05	0.0001173643	-5.423415e-05	1.583821e-05	7.246718e-08	1.316575e-06	-1.609862e-06	-1.551047e-06
	0.892119	-0.3743177	-0.08565205	-0.2096075	0.005037369	0.005161936	0.006020673	0.00949101
	-5.423415e-05	1.583821e-05	-2.567358e-05	0.0001173643	-1.609862e-06	-1.551047e-06	7.246718e-08	1.316575e-06
	0.006020673	0.00949101	0.005037369	0.005161936	-0.08596348	-0.2099619	0.891786	-0.3745481
	0.005141074	0.008164426	0.004364631	0.004400374	-2.571376e-05	0.0001175381	-5.431155e-05	1.586436e-05
	0.005037369	0.005161936	0.006020673	0.00949101	0.891786	-0.3745481	-0.08596348	-0.2099619
	0.004364631	0.004400374	0.005141074	0.008164426	-5.431155e-05	1.586436e-05	-2.571376e-05	0.0001175381
	-2.567358e-05	0.0001173643	-5.423415e-05	1.583821e-05	0.005141074	0.008164426	0.004364631	0.004400374
	-0.08596346	-0.2099601	0.8917855	-0.3745493	0.006029324	0.009505208	0.005044926	0.005169589
	-5.423415e-05	1.583821e-05	-2.567358e-05	0.0001173643	0.004364631	0.004400374	0.005141074	0.008164426
	0.8917855	-0.3745493	-0.08596346	-0.2099601	0.005044926	0.005169589	0.006029324	0.009505208
	7.246718e-08	1.316575e-06	-1.609862e-06	-1.551047e-06	-2.571376e-05	0.0001175381	-5.431155e-05	1.586436e-05
	0.006029324	0.009505208	0.005044926	0.005169589	-0.08565568	-0.2096138	0.8921162	-0.3743194
	-1.609862e-06	-1.551047e-06	7.246718e-08	1.316575e-06	-5.431155e-05	1.586436e-05	-2.571376e-05	0.0001175381
	0.005044926	0.005169589	0.006029324	0.009505208	0.8921162	-0.3743194	-0.08565568	-0.2096138
3.2e+08	-0.1093811	-0.2307667	0.8635716	-0.4183728	0.007418362	0.01005522	0.006200122	0.005153928
	-2.143354e-05	0.0001458401	-5.82133e-05	3.202125e-05	-1.58858e-07	1.62015e-06	-2.039323e-06	-1.621594e-06
	0.8635716	-0.4183728	-0.1093811	-0.2307667	0.006200122	0.005153928	0.007418362	0.01005522
	-5.82133e-05	3.202125e-05	-2.143354e-05	0.0001458401	-2.039323e-06	-1.621594e-06	-1.58858e-07	1.62015e-06
	0.007418362	0.01005522	0.006200122	0.005153928	-0.1097592	-0.2311205	0.8631778	-0.4185875
	0.006344864	0.008648244	0.005358502	0.004389964	-2.14679e-05	0.0001460566	-5.829589e-05	3.207101e-05
	0.006200122	0.005153928	0.007418362	0.01005522	0.8631778	-0.4185875	-0.1097592	-0.2311205
	0.005358502	0.004389964	0.006344864	0.008648244	-5.829589e-05	3.207101e-05	-2.14679e-05	0.0001460566
	-2.143354e-05	0.0001458401	-5.82133e-05	3.202125e-05	0.006344864	0.008648244	0.005358502	0.004389964
	-0.1097591	-0.2311184	0.8631772	-0.4185888	0.007429071	0.01007028	0.006209408	0.005161549
	-5.82133e-05	3.202125e-05	-2.143354e-05	0.0001458401	0.005358502	0.004389964	0.006344864	0.008648244
	0.8631772	-0.4185888	-0.1097591	-0.2311184	0.006209408	0.005161549	0.007429071	0.01007028
	-1.58858e-07	1.62015e-06	-2.039323e-06	-1.621594e-06	-2.14679e-05	0.0001460566	-5.829589e-05	3.207101e-05
	0.007429071	0.01007028	0.006209408	0.005161549	-0.1093856	-0.2307735	0.8635681	-0.4183743
	-2.039323e-06	-1.621594e-06	-1.58858e-07	1.62015e-06	-5.829589e-05	3.207101e-05	-2.14679e-05	0.0001460566
	0.006209408	0.005161549	0.007429071	0.01007028	0.8635681	-0.4183743	-0.1093856	-0.2307735
3.6e+08	-0.1347845	-0.2489529	0.8328017	-0.4594421	0.008828185	0.01039837	0.007347919	0.004934884
	-1.236328e-05	0.0001754053	-5.811181e-05	4.986626e-05	-4.048815e-07	2.004853e-06	-2.51104e-06	-1.563611e-06
	0.8328017	-0.4594421	-0.1347845	-0.2489529	0.007347919	0.004934884	0.008828185	0.01039837
	-5.811181e-05	4.986626e-05	-1.236328e-05	0.0001754053	-2.51104e-06	-1.563611e-06	-4.048815e-07	2.004853e-06
	0.008828185	0.01039837	0.007347919	0.004934884	-0.135225	-0.2492942	0.8323516	-0.4596293
	0.007558001	0.008941705	0.006339732	0.004199046	-1.238452e-05	0.0001756661	-5.819365e-05	4.994201e-05
	0.007347919	0.004934884	0.008828185	0.01039837	0.8323516	-0.4596293	-0.135225	-0.2492942
	0.006339732	0.004199046	0.007558001	0.008941705	-5.819365e-05	4.994201e-05	-1.238452e-05	0.0001756661
	-1.236328e-05	0.0001754053	-5.811181e-05	4.986626e-05	0.007558001	0.008941705	0.006339732	0.004199046
	-0.1352249	-0.2492918	0.8323508	-0.4596307	0.008840973	0.01041398	0.007358911	0.004942158
	-5.811181e-05	4.986626e-05	-1.236328e-05	0.0001754053	0.006339732	0.004199046	0.007558001	0.008941705
	0.8323508	-0.4596307	-0.1352249	-0.2492918	0.007358911	0.004942158	0.008840973	0.01041398
	-4.048815e-07	2.004853e-06	-2.51104e-06	-1.563611e-06	-1.238452e-05	0.0001756661	-5.819365e-05	4.994201e-05
	0.008840973	0.01041398	0.007358911	0.004942158	-0.1347898	-0.24896	0.8327977	-0.4594431
	-2.51104e-06	-1.563611e-06	-4.048815e-07	2.004853e-06	-5.819365e-05	4.994201e-05	-1.238452e-05	0.0001756661
	0.007358911	0.004942158	0.008840973	0.01041398	0.8327977	-0.4594431	-0.1347898	-0.24896
4e+08	-0.1614592	-0.2641061	0.8002153	-0.4974404	0.01021325	0.01053279	0.008444622	0.004519258
	1.890639e-06	0.0002048145	-5.368531e-05	6.822516e-05	-6.251344e-07	2.493429e-06	-3.001784e-06	-1.373352e-06
	0.8002153	-0.4974404	-0.1614592	-0.2641061	0.008444622	0.004519258	0.01021325	0.01053279
	-5.368531e-05	6.822516e-05	1.890639e-06	0.0002048145	-3.001784e-06	-1.373352e-06	-6.251344e-07	2.493429e-06
	0.01021325	0.01053279	0.008444622	0.004519258	-0.1619561	-0.2644245	0.7997154	-0.4975902
	0.008749829	0.009055747	0.007276263	0.003839937	1.890217e-06	0.0002051195	-5.376e-05	6.832753e-05
	0.008444622	0.004519258	0.01021325	0.01053279	0.7997154	-0.4975902	-0.1619561	-0.2644245
	0.007276263	0.003839937	0.008749829	0.009055747	-5.376e-05	6.832753e-05	1.890217e-06	0.0002051195
	1.890639e-06	0.0002048145	-5.368531e-05	6.822516e-05	0.008749829	0.009055747	0.007276263	0.003839937
	-0.1619558	-0.2644218	0.7997146	-0.4975917	0.01022809	0.01054863	0.008457241	0.004525892
	-5.368531e-05	6.822516e-05	1.890639e-06	0.0002048145	0.007276263	0.003839937	0.008749829	0.009055747
	0.7997146	-0.4975917	-0.1619558	-0.2644218	0.008457241	0.004525892	0.01022809	0.01054863
	-6.251344e-07	2.493429e-06	-3.001784e-06	-1.373352e-06	1.890217e-06	0.0002051195	-5.376e-05	6.832753e-05
	0.01022809	0.01054863	0.008457241	0.004525892	-0.1614653	-0.2641133	0.8002108	-0.497441
	-3.001784e-06	-1.373352e-06	-6.251344e-07	2.493429e-06	-5.376e-05	6.832753e-05	1.890217e-06	0.0002051195
	0.008457241	0.004525892	0.01022809	0.01054863	0.8002108	-0.497441	-0.1614653	-0.2641133
4.4e+08	-0.1889964	-0.2761854	0.7661761	-0.5323833	0.01154329	0.01047776	0.009458649	0.003925868
	2.121199e-05	0.0002328862	-4.491311e-05	8.590241e-05	-8.049572e-07	3.081787e-06	-3.451831e-06	-1.043587e-06
	0.7661761	-0.5323833	-0.1889964	-0.2761854	0.009458649	0.003925868	0.01154329	0.01047776
	-4.491311e-05	8.590241e-05	2.121199e-05	0.0002328862	-3.451831e-06	-1.043587e-06	-8.049572e-07	3.081787e-06
	0.01154329	0.01047776	0.009458649	0.003925868	-0.189542	-0.276473	0.7656342	-0.5324877
	0.009893286	0.009007033	0.00814228	0.003328821	2.124001e-05	0.0002332333	-4.497432e-05	8.603032e-05
	0.009458649	0.003925868	0.01154329	0.01047776	0.7656342	-0.5324877	-0.189542	-0.276473
	0.00814228	0.003328821	0.009893286	0.009007033	-4.497432e-05	8.603032e-05	2.124001e-05	0.0002332333
	2.121199e-05	0.0002328862	-4.491311e-05	8.590241e-05	0.009893286	0.009007033	0.00814228	0.003328821
	-0.1895415	-0.27647	0.7656333	-0.5324894	0.01156009	0.01049356	0.009472771	0.003931596
	-4.491311e-05	8.590241e-05	2.121199e-05	0.0002328862	0.00814228	0.003328821	0.009893286	0.009007033
	0.7656333	-0.5324894	-0.1895415	-0.27647	0.009472771	0.003931596	0.01156009	0.01049356
	-8.049572e-07	3.081787e-06	-3.451831e-06	-1.043587e-06	2.124001e-05	0.0002332333	-4.497432e-05	8.603032e-05
	0.01156009	0.01049356	0.009472771	0.003931596	-0.1890033	-0.2761926	0.7661711	-0.5323833
	-3.451831e-06	-1.043587e-06	-8.049572e-07	3.081787e-06	-4.497432e-05	8.603032e-05	2.124001e-05	0.0002332333
	0.009472771	0.003931596	0.01156009	0.01049356	0.7661711	-0.5323833	-0.1890033	-0.2761926
4.8e+08	-0.217037	-0.285247	0.7310533	-0.5642913	0.0127929	0.0102552	0.01036571	0.003178975
	4.526625e-05	0.0002584866	-3.218399e-05	0.0001018715	-8.888921e-07	3.762693e-06	-3.848542e-06	-5.858176e-07
	0.7310533	-0.5642913	-0.217037	-0.285247	0.01036571	0.003178975	0.0127929	0.0102552
	-3.218399e-05	0.0001018715	4.526625e-05	0.0002584866	-3.848542e-06	-5.858176e-07	-8.888921e-07	3.762693e-06
	0.0127929	0.0102552	0.01036571	0.003178975	-0.2176228	-0.2854976	0.7304783	-0.5643444
	0.01096758	0.008814498	0.008915985	0.00268661	4.532974e-05	0.0002588722	-3.22259e-05	0.0001020223
	0.01036571	0.003178975	0.0127929	0.0102552	0.7304783	-0.5643444	-0.2176228	-0.2854976
	0.008915985	0.00268661	0.01096758	0.008814498	-3.22259e-05	0.0001020223	4.532974e-05	0.0002588722
	4.526625e-05	0.0002584866	-3.218399e-05	0.0001018715	0.01096758	0.008814498	0.008915985	0.00268661
	-0.2176222	-0.2854943	0.7304773	-0.5643462	0.01281154	0.0102707	0.01038117	0.003183567
	-3.218399e-05	0.0001018715	4.526625e-05	0.0002584866	0.008915985	0.00268661	0.01096758	0.008814498
	0.7304773	-0.5643462	-0.2176222	-0.2854943	0.01038117	0.003183567	0.01281154	0.0102707
	-8.888921e-07	3.762693e-06	-3.848542e-06	-5.858176e-07	4.532974e-05	0.0002588722	-3.22259e-05	0.0001020223
	0.01281154	0.0102707	0.01038117	0.003183567	-0.2170445	-0.2852542	0.7310479	-0.5642906
	-3.848542e-06	-5.858176e-07	-8.888921e-07	3.762693e-06	-3.22259e-05	0.0001020223	4.532974e-05	0.0002588722
