# Hz S ri R 50
0	0.001463597	0	0.9985364	0	1.596937e-05	0	-1.596937e-05	0
	1.596937e-05	0	-1.596937e-05	0	1.596937e-05	0	-1.596937e-05	0
	0.9985364	0	0.001463597	0	-1.596937e-05	0	1.596937e-05	0
	-1.596937e-05	0	1.596937e-05	0	-1.596937e-05	0	1.596937e-05	0
	1.596937e-05	0	-1.596937e-05	0	0.001463597	0	0.9985364	0
	1.596937e-05	0	-1.596937e-05	0	1.596937e-05	0	-1.596937e-05	0
	-1.596937e-05	0	1.596937e-05	0	0.9985364	0	0.001463597	0
	-1.596937e-05	0	1.596937e-05	0	-1.596937e-05	0	1.596937e-05	0
	1.596937e-05	0	-1.596937e-05	0	1.596937e-05	0	-1.596937e-05	0
	0.001463597	0	0.9985364	0	1.596937e-05	0	-1.596937e-05	0
	-1.596937e-05	0	1.596937e-05	0	-1.596937e-05	0	1.596937e-05	0
	0.9985364	0	0.001463597	0	-1.596937e-05	0	1.596937e-05	0
	1.596937e-05	0	-1.596937e-05	0	1.596937e-05	0	-1.596937e-05	0
	1.596937e-05	0	-1.596937e-05	0	0.001463597	0	0.9985364	0
	-1.596937e-05	0	1.596937e-05	0	-1.596937e-05	0	1.596937e-05	0
	-1.596937e-05	0	1.596937e-05	0	0.9985364	0	0.001463597	0
4e+07	0.002637466	-0.006018143	0.9921587	-0.06642403	0.0002804851	0.001962419	-3.861685e-05	0.0001953088
	1.432466e-05	0.0001201926	-7.796548e-06	-4.280817e-05	6.495453e-07	7.250839e-06	-3.737101e-07	-3.629339e-06
	0.9921587	-0.06642403	0.002637466	-0.006018143	-3.861685e-05	0.0001953088	0.0002804851	0.001962419
	-7.796548e-06	-4.280817e-05	1.432466e-05	0.0001201926	-3.737101e-07	-3.629339e-06	6.495453e-07	7.250839e-06
	0.0002804851	0.001962419	-3.861685e-05	0.0001953088	0.002718496	-0.005960713	0.9920622	-0.06658446
	0.0002613359	0.002290756	1.316406e-05	0.0001695921	1.433351e-05	0.0001202918	-7.79285e-06	-4.279887e-05
	-3.861685e-05	0.0001953088	0.0002804851	0.001962419	0.9920622	-0.06658446	0.002718496	-0.005960713
	1.316406e-05	0.0001695921	0.0002613359	0.002290756	-7.79285e-06	-4.279887e-05	1.433351e-05	0.0001202918
	1.432466e-05	0.0001201926	-7.796548e-06	-4.280817e-05	0.0002613359	0.002290756	1.316406e-05	0.0001695921
	0.002718073	-0.005965372	0.992062	-0.06658492	0.0002805133	0.001962685	-3.857759e-05	0.0001955783
	-7.796548e-06	-4.280817e-05	1.432466e-05	0.0001201926	1.316406e-05	0.0001695921	0.0002613359	0.002290756
	0.992062	-0.06658492	0.002718073	-0.005965372	-3.857759e-05	0.0001955783	0.0002805133	0.001962685
	6.495453e-07	7.250839e-06	-3.737101e-07	-3.629339e-06	1.433351e-05	0.0001202918	-7.79285e-06	-4.279887e-05
	0.0002805133	0.001962685	-3.857759e-05	0.0001955783	0.002636647	-0.006027509	0.9921583	-0.06642534
	-3.737101e-07	-3.629339e-06	6.495453e-07	7.250839e-06	-7.79285e-06	-4.279887e-05	1.433351e-05	0.0001202918
	-3.857759e-05	0.0001955783	0.0002805133	0.001962685	0.9921583	-0.06642534	0.002636647	-0.006027509
8e+07	-9.123804e-05	-0.02162864	0.9859951	-0.1221482	0.0006305208	0.003609007	0.0001091857	0.00063469
	2.904967e-05	0.0002039979	-1.214519e-05	-5.000442e-05	1.577999e-06	1.186772e-05	-9.374711e-07	-4.643993e-06
	0.9859951	-0.1221482	-9.123804e-05	-0.02162864	0.0001091857	0.00063469	0.0006305208	0.003609007
	-1.214519e-05	-5.000442e-05	2.904967e-05	0.0002039979	-9.374711e-07	-4.643993e-06	1.577999e-06	1.186772e-05
	0.0006305208	0.003609007	0.0001091857	0.00063469	-2.87018e-05	-0.02173288	0.985884	-0.1222442
	0.0006572655	0.00414473	0.0001846808	0.0006941337	2.907484e-05	0.0002041762	-1.213366e-05	-4.996901e-05
	0.0001091857	0.00063469	0.0006305208	0.003609007	0.985884	-0.1222442	-2.87018e-05	-0.02173288
	0.0001846808	0.0006941337	0.0006572655	0.00414473	-1.213366e-05	-4.996901e-05	2.907484e-05	0.0002041762
	2.904967e-05	0.0002039979	-1.214519e-05	-5.000442e-05	0.0006572655	0.00414473	0.0001846808	0.0006941337
	-2.995065e-05	-0.02174144	0.9858835	-0.1222457	0.000630623	0.003609526	0.0001093194	0.0006352125
	-1.214519e-05	-5.000442e-05	2.904967e-05	0.0002039979	0.0001846808	0.0006941337	0.0006572655	0.00414473
	0.9858835	-0.1222457	-2.995065e-05	-0.02174144	0.0001093194	0.0006352125	0.000630623	0.003609526
	1.577999e-06	1.186772e-05	-9.374711e-07	-4.643993e-06	2.907484e-05	0.0002041762	-1.213366e-05	-4.996901e-05
	0.000630623	0.003609526	0.0001093194	0.0006352125	-9.372565e-05	-0.02164593	0.985994	-0.1221519
	-9.374711e-07	-4.643993e-06	1.577999e-06	1.186772e-05	-1.213366e-05	-4.996901e-05	2.907484e-05	0.0002041762
	0.0001093194	0.0006352125	0.000630623	0.003609526	0.985994	-0.1221519	-9.372565e-05	-0.02164593
1.2e+08	-0.00411838	-0.03614641	0.9760112	-0.1773384	0.001188739	0.005187256	0.0003380387	0.001023539
	5.253138e-05	0.0002830649	-1.900275e-05	-5.340862e-05	3.003691e-06	1.64873e-05	-1.78794e-06	-5.676987e-06
	0.9760112	-0.1773384	-0.00411838	-0.03614641	0.0003380387	0.001023539	0.001188739	0.005187256
	-1.900275e-05	-5.340862e-05	5.253138e-05	0.0002830649	-1.78794e-06	-5.676987e-06	3.003691e-06	1.64873e-05
	0.001188739	0.005187256	0.0003380387	0.001023539	-0.004090362	-0.03637061	0.975883	-0.1774016
	0.001290451	0.005929391	0.000448893	0.00115243	5.258221e-05	0.000283321	-1.897872e-05	-5.335102e-05
	0.0003380387	0.001023539	0.001188739	0.005187256	0.975883	-0.1774016	-0.004090362	-0.03637061
	0.000448893	0.00115243	0.001290451	0.005929391	-1.897872e-05	-5.335102e-05	5.258221e-05	0.000283321
	5.253138e-05	0.0002830649	-1.900275e-05	-5.340862e-05	0.001290451	0.005929391	0.000448893	0.00115243
	-0.004092907	-0.03638295	0.9758819	-0.177404	0.001188959	0.005188006	0.0003383211	0.001024287
	-1.900275e-05	-5.340862e-05	5.253138e-05	0.0002830649	0.000448893	0.00115243	0.001290451	0.005929391
	0.9758819	-0.177404	-0.004092907	-0.03638295	0.0003383211	0.001024287	0.001188959	0.005188006
	3.003691e-06	1.64873e-05	-1.78794e-06	-5.676987e-06	5.258221e-05	0.000283321	-1.897872e-05	-5.335102e-05
	0.001188959	0.005188006	0.0003383211	0.001024287	-0.004123493	-0.03617137	0.9760089	-0.1773442
	-1.78794e-06	-5.676987e-06	3.003691e-06	1.64873e-05	-1.897872e-05	-5.335102e-05	5.258221e-05	0.000283321
	0.0003383211	0.001024287	0.001188959	0.005188006	0.9760089	-0.1773442	-0.004123493	-0.03617137
1.6e+08	-0.009054912	-0.04740449	0.9618976	-0.233622	0.00196405	0.006717702	0.0006161078	0.001296521
	8.675768e-05	0.0003603773	-2.987251e-05	-5.636615e-05	5.224362e-06	2.13758e-05	-3.20037e-06	-7.001491e-06
	0.9618976	-0.233622	-0.009054912	-0.04740449	0.0006161078	0.001296521	0.00196405	0.006717702
	-2.987251e-05	-5.636615e-05	8.675768e-05	0.0003603773	-3.20037e-06	-7.001491e-06	5.224362e-06	2.13758e-05
	0.00196405	0.006717702	0.0006161078	0.001296521	-0.009066459	-0.04767323	0.9617412	-0.2337147
	0.00217779	0.007677271	0.0007625208	0.001460739	8.684441e-05	0.0003607115	-2.9833e-05	-5.629413e-05
	0.0006161078	0.001296521	0.00196405	0.006717702	0.9617412	-0.2337147	-0.009066459	-0.04767323
	0.0007625208	0.001460739	0.00217779	0.007677271	-2.9833e-05	-5.629413e-05	8.684441e-05	0.0003607115
	8.675768e-05	0.0003603773	-2.987251e-05	-5.636615e-05	0.00217779	0.007677271	0.0007625208	0.001460739
	-0.009070801	-0.04768929	0.9617394	-0.2337176	0.001964423	0.006718652	0.0006165876	0.001297456
	-2.987251e-05	-5.636615e-05	8.675768e-05	0.0003603773	0.0007625208	0.001460739	0.00217779	0.007677271
	0.9617394	-0.2337176	-0.009070801	-0.04768929	0.0006165876	0.001297456	0.001964423	0.006718652
	5.224362e-06	2.13758e-05	-3.20037e-06	-7.001491e-06	8.684441e-05	0.0003607115	-2.9833e-05	-5.629413e-05
	0.001964423	0.006718652	0.0006165876	0.001297456	-0.009063659	-0.04743697	0.9618937	-0.2336292
	-3.20037e-06	-7.001491e-06	5.224362e-06	2.13758e-05	-2.9833e-05	-5.629413e-05	8.684441e-05	0.0003607115
	0.0006165876	0.001297456	0.001964423	0.006718652	0.9618937	-0.2336292	-0.009063659	-0.04743697
2e+08	-0.01531331	-0.05796463	0.9446103	-0.2885155	0.002906836	0.008125931	0.0009557305	0.001509264
	0.0001284536	0.0004322727	-4.157222e-05	-5.505467e-05	8.201596e-06	2.589638e-05	-5.151011e-06	-7.955824e-06
	0.9446103	-0.2885155	-0.01531331	-0.05796463	0.0009557305	0.001509264	0.002906836	0.008125931
	-4.157222e-05	-5.505467e-05	0.0001284536	0.0004322727	-5.151011e-06	-7.955824e-06	8.201596e-06	2.589638e-05
	0.002906836	0.008125931	0.0009557305	0.001509264	-0.01537075	-0.05826655	0.9444194	-0.2886342
	0.003261038	0.009284004	0.001141366	0.001702044	0.0001285847	0.0004326795	-4.151413e-05	-5.497108e-05
	0.0009557305	0.001509264	0.002906836	0.008125931	0.9444194	-0.2886342	-0.01537075	-0.05826655
	0.001141366	0.001702044	0.003261038	0.009284004	-4.151413e-05	-5.497108e-05	0.0001285847	0.0004326795
	0.0001284536	0.0004322727	-4.157222e-05	-5.505467e-05	0.003261038	0.009284004	0.001141366	0.001702044
	-0.01537731	-0.05828605	0.9444167	-0.2886375	0.002907391	0.008127048	0.000956446	0.00151034
	-4.157222e-05	-5.505467e-05	0.0001284536	0.0004322727	0.001141366	0.001702044	0.003261038	0.009284004
	0.9444167	-0.2886375	-0.01537731	-0.05828605	0.000956446	0.00151034	0.002907391	0.008127048
	8.201596e-06	2.589638e-05	-5.151011e-06	-7.955824e-06	0.0001285847	0.0004326795	-4.151413e-05	-5.497108e-05
	0.002907391	0.008127048	0.000956446	0.00151034	-0.01532653	-0.05800407	0.9446045	-0.2885238
	-5.151011e-06	-7.955824e-06	8.201596e-06	2.589638e-05	-4.151413e-05	-5.497108e-05	0.0001285847	0.0004326795
	0.000956446	0.00151034	0.002907391	0.008127048	0.9446045	-0.2885238	-0.01532653	-0.05800407
2.4e+08	-0.02272817	-0.06763843	0.9242207	-0.3419216	0.003999038	0.009400292	0.001343278	0.001646619
	0.0001780235	0.0005045959	-5.416177e-05	-5.59424e-05	1.136918e-05	3.012699e-05	-7.039344e-06	-8.614666e-06
	0.9242207	-0.3419216	-0.02272817	-0.06763843	0.001343278	0.001646619	0.003999038	0.009400292
	-5.416177e-05	-5.59424e-05	0.0001780235	0.0005045959	-7.039344e-06	-8.614666e-06	1.136918e-05	3.012699e-05
	0.003999038	0.009400292	0.001343278	0.001646619	-0.02283478	-0.06797312	0.9239893	-0.3420497
	0.004508909	0.01073764	0.001580693	0.001857687	0.0001782068	0.0005050697	-5.408266e-05	-5.585111e-05
	0.001343278	0.001646619	0.003999038	0.009400292	0.9239893	-0.3420497	-0.02283478	-0.06797312
	0.001580693	0.001857687	0.004508909	0.01073764	-5.408266e-05	-5.585111e-05	0.0001782068	0.0005050697
	0.0001780235	0.0005045959	-5.416177e-05	-5.59424e-05	0.004508909	0.01073764	0.001580693	0.001857687
	-0.02284391	-0.06799575	0.9239856	-0.3420532	0.003999795	0.009401538	0.001344258	0.001647786
	-5.416177e-05	-5.59424e-05	0.0001780235	0.0005045959	0.001580693	0.001857687	0.004508909	0.01073764
	0.9239856	-0.3420532	-0.02284391	-0.06799575	0.001344258	0.001647786	0.003999795	0.009401538
	1.136918e-05	3.012699e-05	-7.039344e-06	-8.614666e-06	0.0001782068	0.0005050697	-5.408266e-05	-5.585111e-05
	0.003999795	0.009401538	0.001344258	0.001647786	-0.02274662	-0.06768418	0.9242128	-0.3419305
	-7.039344e-06	-8.614666e-06	1.136918e-05	3.012699e-05	-5.408266e-05	-5.585111e-05	0.0001782068	0.0005050697
	0.001344258	0.001647786	0.003999795	0.009401538	0.9242128	-0.3419305	-0.02274662	-0.06768418
2.8e+08	-0.03119611	-0.0763461	0.9008797	-0.3936596	0.005221325	0.01052268	0.001763687	0.001705447
	0.0002349673	0.0005715165	-6.679128e-05	-5.381606e-05	1.496194e-05	3.398901e-05	-9.080844e-06	-8.909877e-06
	0.9008797	-0.3936596	-0.03119611	-0.0763461	0.001763687	0.001705447	0.005221325	0.01052268
	-6.679128e-05	-5.381606e-05	0.0002349673	0.0005715165	-9.080844e-06	-8.909877e-06	1.496194e-05	3.398901e-05
	0.005221325	0.01052268	0.001763687	0.001705447	-0.0313552	-0.07670397	0.9006052	-0.3937888
	0.005906097	0.01201704	0.002056415	0.001924659	0.0002352098	0.0005720504	-6.668928e-05	-5.372103e-05
	0.001763687	0.001705447	0.005221325	0.01052268	0.9006052	-0.3937888	-0.0313552	-0.07670397
	0.002056415	0.001924659	0.005906097	0.01201704	-6.668928e-05	-5.372103e-05	0.0002352098	0.0005720504
	0.0002349673	0.0005715165	-6.679128e-05	-5.381606e-05	0.005906097	0.01201704	0.002056415	0.001924659
	-0.03136724	-0.07672936	0.9006006	-0.3937924	0.005222298	0.01052402	0.001764951	0.001706652
	-6.679128e-05	-5.381606e-05	0.0002349673	0.0005715165	0.002056415	0.001924659	0.005906097	0.01201704
	0.9006006	-0.3937924	-0.03136724	-0.07672936	0.001764951	0.001706652	0.005222298	0.01052402
	1.496194e-05	3.398901e-05	-9.080844e-06	-8.909877e-06	0.0002352098	0.0005720504	-6.668928e-05	-5.372103e-05
	0.005222298	0.01052402	0.001764951	0.001706652	-0.03122045	-0.07639744	0.9008696	-0.3936688
	-9.080844e-06	-8.909877e-06	1.496194e-05	3.398901e-05	-6.668928e-05	-5.372103e-05	0.0002352098	0.0005720504
	0.001764951	0.001706652	0.005222298	0.01052402	0.9008696	-0.3936688	-0.03122045	-0.07639744
3.2e+08	-0.04056078	-0.08395792	0.8747064	-0.4436123	0.006553042	0.01148259	0.002201122	0.001680312
	0.0002990579	0.0006328748	-7.902161e-05	-4.941111e-05	1.892886e-05	3.746005e-05	-1.11958e-05	-8.834687e-06
	0.8747064	-0.4436123	-0.04056078	-0.08395792	0.002201122	0.001680312	0.006553042	0.01148259
	-7.902161e-05	-4.941111e-05	0.0002990579	0.0006328748	-1.11958e-05	-8.834687e-06	1.892886e-05	3.746005e-05
	0.006553042	0.01148259	0.002201122	0.001680312	-0.04077344	-0.08433055	0.8743876	-0.4437329
	0.007427588	0.01311069	0.00255192	0.001896316	0.0002993659	0.0006334614	-7.889553e-05	-4.931663e-05
	0.002201122	0.001680312	0.006553042	0.01148259	0.8743876	-0.4437329	-0.04077344	-0.08433055
	0.00255192	0.001896316	0.007427588	0.01311069	-7.889553e-05	-4.931663e-05	0.0002993659	0.0006334614
	0.0002990579	0.0006328748	-7.902161e-05	-4.941111e-05	0.007427588	0.01311069	0.00255192	0.001896316
	-0.04078865	-0.08435833	0.8743819	-0.4437362	0.006554235	0.01148398	0.002202677	0.001681499
	-7.902161e-05	-4.941111e-05	0.0002990579	0.0006328748	0.00255192	0.001896316	0.007427588	0.01311069
	0.8743819	-0.4437362	-0.04078865	-0.08435833	0.002202677	0.001681499	0.006554235	0.01148398
	1.892886e-05	3.746005e-05	-1.11958e-05	-8.834687e-06	0.0002993659	0.0006334614	-7.889553e-05	-4.931663e-05
	0.006554235	0.01148398	0.002202677	0.001681499	-0.04059156	-0.08401405	0.874694	-0.4436213
	-1.11958e-05	-8.834687e-06	1.892886e-05	3.746005e-05	-7.889553e-05	-4.931663e-05	0.0002993659	0.0006334614
	0.002202677	0.001681499	0.006554235	0.01148398	0.874694	-0.4436213	-0.04059156	-0.08401405
3.6e+08	-0.05067259	-0.09038661	0.8458415	-0.4916484	0.007972509	0.01227139	0.002639778	0.001569695
	0.0003699453	0.0006879532	-9.045503e-05	-4.304392e-05	2.323207e-05	4.05098e-05	-1.33173e-05	-8.383765e-06
	0.8458415	-0.4916484	-0.05067259	-0.09038661	0.002639778	0.001569695	0.007972509	0.01227139
	-9.045503e-05	-4.304392e-05	0.0003699453	0.0006879532	-1.33173e-05	-8.383765e-06	2.323207e-05	4.05098e-05
	0.007972509	0.01227139	0.002639778	0.001569695	-0.0509384	-0.09076614	0.8454791	-0.4917503
	0.009048296	0.014009	0.003049544	0.001770709	0.0003703238	0.0006885844	-9.030443e-05	-4.295445e-05
	0.002639778	0.001569695	0.007972509	0.01227139	0.8454791	-0.4917503	-0.0509384	-0.09076614
	0.003049544	0.001770709	0.009048296	0.014009	-9.030443e-05	-4.295445e-05	0.0003703238	0.0006885844
	0.0003699453	0.0006879532	-9.045503e-05	-4.304392e-05	0.009048296	0.014009	0.003049544	0.001770709
	-0.05095701	-0.09079589	0.8454724	-0.4917532	0.007973919	0.01227278	0.002641621	0.001570809
	-9.045503e-05	-4.304392e-05	0.0003699453	0.0006879532	0.003049544	0.001770709	0.009048296	0.014009
	0.8454724	-0.4917532	-0.05095701	-0.09079589	0.002641621	0.001570809	0.007973919	0.01227278
	2.323207e-05	4.05098e-05	-1.33173e-05	-8.383765e-06	0.0003703238	0.0006885844	-9.030443e-05	-4.295445e-05
	0.007973919	0.01227278	0.002641621	0.001570809	-0.05071026	-0.09044671	0.8458267	-0.4916569
	-1.33173e-05	-8.383765e-06	2.323207e-05	4.05098e-05	-9.030443e-05	-4.295445e-05	0.0003703238	0.0006885844
	0.002641621	0.001570809	0.007973919	0.01227278	0.8458267	-0.4916569	-0.05071026	-0.09044671
4e+08	-0.06139869	-0.0955917	0.8144546	-0.5376199	0.00945694	0.01288232	0.003064895	0.001375951
	0.000446969	0.0007354125	-0.0001005704	-3.447419e-05	2.78482e-05	4.30952e-05	-1.539802e-05	-7.548725e-06
	0.8144546	-0.5376199	-0.06139869	-0.0955917	0.003064895	0.001375951	0.00945694	0.01288232
	-0.0001005704	-3.447419e-05	0.000446969	0.0007354125	-1.539802e-05	-7.548725e-06	2.78482e-05	4.30952e-05
	0.00945694	0.01288232	0.003064895	0.001375951	-0.0617162	-0.09596976	0.8140514	-0.5376944
	0.01074315	0.01470397	0.003531491	0.00155094	0.0004474223	0.0007360797	-0.0001003955	-3.439425e-05
	0.003064895	0.001375951	0.00945694	0.01288232	0.8140514	-0.5376944	-0.0617162	-0.09596976
	0.003531491	0.00155094	0.01074315	0.01470397	-0.0001003955	-3.439425e-05	0.0004474223	0.0007360797
	0.000446969	0.0007354125	-0.0001005704	-3.447419e-05	0.01074315	0.01470397	0.003531491	0.00155094
	-0.06173836	-0.09600106	0.8140438	-0.5376968	0.009458558	0.01288369	0.003067015	0.001376938
	-0.0001005704	-3.447419e-05	0.000446969	0.0007354125	0.003531491	0.00155094	0.01074315	0.01470397
	0.8140438	-0.5376968	-0.06173836	-0.09600106	0.003067015	0.001376938	0.009458558	0.01288369
	2.78482e-05	4.30952e-05	-1.539802e-05	-7.548725e-06	0.0004474223	0.0007360797	-0.0001003955	-3.439425e-05
	0.009458558	0.01288369	0.003067015	0.001376938	-0.06144357	-0.09565491	0.8144376	-0.5376273
	-1.539802e-05	-7.548725e-06	2.78482e-05	4.30952e-05	-0.0001003955	-3.439425e-05	0.0004474223	0.0007360797
	0.003067015	0.001376938	0.009458558	0.01288369	0.8144376	-0.5376273	-0.06144357	-0.09565491
4.4e+08	-0.07255723	-0.09949319	0.7806739	-0.5814471	0.01098512	0.01331346	0.003460953	0.001101981
	0.0005295974	0.0007748843	-0.0001092275	-2.452832e-05	3.272886e-05	4.519539e-05	-1.736532e-05	-6.352763e-06
	0.7806739	-0.5814471	-0.07255723	-0.09949319	0.003460953	0.001101981	0.01098512	0.01331346
	-0.0001092275	-2.452832e-05	0.0005295974	0.0007748843	-1.736532e-05	-6.352763e-06	3.272886e-05	4.519539e-05
	0.01098512	0.01331346	0.003460953	0.001101981	-0.07292331	-0.09986329	0.7802339	-0.5814852
	0.01248688	0.01519405	0.003981222	0.001239645	0.0005301286	0.0007755786	-0.0001090295	-2.446237e-05
	0.003460953	0.001101981	0.01098512	0.01331346	0.7802339	-0.5814852	-0.07292331	-0.09986329
	0.003981222	0.001239645	0.01248688	0.01519405	-0.0001090295	-2.446237e-05	0.0005301286	0.0007755786
	0.0005295974	0.0007748843	-0.0001092275	-2.452832e-05	0.01248688	0.01519405	0.003981222	0.001239645
	-0.07294914	-0.09989571	0.7802254	-0.5814867	0.01098693	0.01331477	0.003463329	0.001102792
	-0.0001092275	-2.452832e-05	0.0005295974	0.0007748843	0.003981222	0.001239645	0.01248688	0.01519405
	0.7802254	-0.5814867	-0.07294914	-0.09989571	0.003463329	0.001102792	0.01098693	0.01331477
	3.272886e-05	4.519539e-05	-1.736532e-05	-6.352763e-06	0.0005301286	0.0007755786	-0.0001090295	-2.446237e-05
	0.01098693	0.01331477	0.003463329	0.001102792	-0.07260956	-0.09955862	0.7806548	-0.581453
	-1.736532e-05	-6.352763e-06	3.272886e-05	4.519539e-05	-0.0001090295	-2.446237e-05	0.0005301286	0.0007755786
	0.003463329	0.001102792	0.01098693	0.01331477	0.7806548	-0.581453	-0.07260956	-0.09955862
4.8e+08	-0.084021	-0.1020939	0.7446874	-0.6230003	0.0125344	0.01356368	0.003815491	0.0007551269
	0.0006168431	0.0008051961	-0.0001160438	-1.316245e-05	3.78349e-05	4.676771e-05	-1.916755e-05	-4.805489e-06
	0.7446874	-0.6230003	-0.084021	-0.1020939	0.003815491	0.0007551269	0.0125344	0.01356368
	-0.0001160438	-1.316245e-05	0.0006168431	0.0008051961	-1.916755e-05	-4.805489e-06	3.78349e-05	4.676771e-05
	0.0125344	0.01356368	0.003815491	0.0007551269	-0.08443194	-0.1024495	0.7442164	-0.622995
	0.01425454	0.01547753	0.004383616	0.0008457371	0.0006174543	0.0008059083	-0.0001158245	-1.311474e-05
	0.003815491	0.0007551269	0.0125344	0.01356368	0.7442164	-0.622995	-0.08443194	-0.1024495
	0.004383616	0.0008457371	0.01425454	0.01547753	-0.0001158245	-1.311474e-05	0.0006174543	0.0008059083
	0.0006168431	0.0008051961	-0.0001160438	-1.316245e-05	0.01425454	0.01547753	0.004383616	0.0008457371
	-0.0844615	-0.1024826	0.7442071	-0.6229955	0.01253638	0.0135649	0.003818093	0.0007557173
	-0.0001160438	-1.316245e-05	0.0006168431	0.0008051961	0.004383616	0.0008457371	0.01425454	0.01547753
	0.7442071	-0.6229955	-0.0844615	-0.1024826	0.003818093	0.0007557173	0.01253638	0.0135649
	3.78349e-05	4.676771e-05	-1.916755e-05	-4.805489e-06	0.0006174543	0.0008059083	-0.0001158245	-1.311474e-05
	0.01253638	0.0135649	0.003818093	0.0007557173	-0.08408089	-0.1021607	0.7446664	-0.6230044
