#    GHz    S    RI    R    50    

0.0400000000000000 0.9999993536971802 -0.0011369279756426
0.0800000000000000 0.9999974256698404 -0.0022690644971551
0.1200000000000000 0.9999942321916528 -0.0033964074293887
0.1600000000000000 0.9999897894721185 -0.0045189546920015
0.2000000000000000 0.9999841136563610 -0.0056367042588891
0.2400000000000000 0.9999772208249309 -0.0067496541576163
0.2800000000000000 0.9999691269936090 -0.0078578024688512
0.3200000000000000 0.9999598481132157 -0.0089611473258004
0.3600000000000000 0.9999494000694231 -0.0100596869136458
0.4000000000000000 0.9999377986825726 -0.0111534194689843
0.4400000000000000 0.9999250597074926 -0.0122423432792676
0.4800000000000000 0.9999111988333246 -0.0133264566822450
0.5200000000000000 0.9998962316833486 -0.0144057580654075
0.5600000000000001 0.9998801738148156 -0.0154802458654341
0.6000000000000000 0.9998630407187797 -0.0165499185676391
0.6400000000000000 0.9998448478199391 -0.0176147747054226
0.6800000000000000 0.9998256104764742 -0.0186748128597217
0.7200000000000000 0.9998051946322646 -0.0197375982920784
0.7600000000000000 0.9997831691393289 -0.0208234172440672
0.8000000000000000 0.9997599888628452 -0.0219080959684701
0.8400000000000000 0.9997356574751817 -0.0229916326663913
0.8800000000000000 0.9997101786486839 -0.0240740255507118
0.9200000000000000 0.9996835560556350 -0.0251552728460686
0.9600000000000000 0.9996557933682129 -0.0262353727888336
1.0000000000000000 0.9996268942584502 -0.0273143236270927
1.0400000000000000 0.9995968623981927 -0.0283921236206244
1.0800000000000001 0.9995657014590589 -0.0294687710408785
1.1200000000000001 0.9995334151123988 -0.0305442641709545
1.1599999999999999 0.9995000070292540 -0.0316186013055802
1.2000000000000000 0.9994654808803166 -0.0326917807510896
1.2400000000000000 0.9994298403358901 -0.0337638008254016
1.2800000000000000 0.9993930890658478 -0.0348346598579971
1.3200000000000001 0.9993552307395949 -0.0359043561898980
1.3600000000000001 0.9993162690260273 -0.0369728881736438
1.3999999999999999 0.9992760711912506 -0.0380438371432055
1.4399999999999999 0.9992345898026612 -0.0391182124068511
1.4800000000000000 0.9991919805072162 -0.0401918659689579
1.5200000000000000 0.9991482455586286 -0.0412647960992709
1.5600000000000001 0.9991033872127582 -0.0423370010746350
1.6000000000000001 0.9990574077275876 -0.0434084791789930
1.6399999999999999 0.9990103093631977 -0.0444792287033831
1.6799999999999999 0.9989620943817434 -0.0455492479459367
1.7200000000000000 0.9989127650474284 -0.0466185352118762
1.7600000000000000 0.9988623236264805 -0.0476870888135121
1.8000000000000000 0.9988107723871285 -0.0487549070702407
1.8400000000000001 0.9987581135995759 -0.0498219883085413
1.8799999999999999 0.9987043495359788 -0.0508883308619733
1.9199999999999999 0.9986494824704191 -0.0519539330711738
1.9600000000000000 0.9985935146788827 -0.0530187932838540
2.0000000000000000 0.9985364484392333 -0.0540829098547968
2.0400000000000000 0.9984782860311897 -0.0551462811458533
2.0800000000000001 0.9984188401703800 -0.0562122726175796
2.1200000000000001 0.9983581973977144 -0.0572792256301228
2.1600000000000001 0.9982964434542153 -0.0583456166876714
2.2000000000000002 0.9982335800351217 -0.0594114441018238
2.2400000000000002 0.9981696088383362 -0.0604767061894312
2.2799999999999998 0.9981045315644074 -0.0615414012725994
2.3199999999999998 0.9980383499165112 -0.0626055276786920
2.3599999999999999 0.9979710656004344 -0.0636690837403324
2.3999999999999999 0.9979026803245549 -0.0647320677954068
2.4399999999999999 0.9978331957998250 -0.0657944781870657
2.4800000000000000 0.9977626137397524 -0.0668563132637270
2.5200000000000000 0.9976909358603834 -0.0679175713790778
2.5600000000000001 0.9976181638802842 -0.0689782508920766
2.6000000000000001 0.9975442995205230 -0.0700383501669554
2.6400000000000001 0.9974693445046522 -0.0710978675732218
2.6800000000000002 0.9973933005586907 -0.0721568014856607
2.7200000000000002 0.9973161694111060 -0.0732151502843368
2.7599999999999998 0.9972377057704790 -0.0742762289674956
2.7999999999999998 0.9971581198109603 -0.0753371362282279
2.8399999999999999 0.9970774358802619 -0.0763975579350677
2.8799999999999999 0.9969956553897895 -0.0774574924321979
2.9199999999999999 0.9969127797537808 -0.0785169380681001
2.9600000000000000 0.9968288103892909 -0.0795758931955600
3.0000000000000000 0.9967437487161783 -0.0806343561716707
3.0400000000000000 0.9966575961570898 -0.0816923253578380
3.0800000000000001 0.9965703541374464 -0.0827497991197838
3.1200000000000001 0.9964820240854276 -0.0838067758275509
3.1600000000000001 0.9963926074319579 -0.0848632538555069
3.2000000000000002 0.9963021056106921 -0.0859192315823484
3.2400000000000002 0.9962105200580006 -0.0869747073911048
3.2799999999999998 0.9961178522129538 -0.0880296796691424
3.3199999999999998 0.9960241035173097 -0.0890841468081687
3.3599999999999999 0.9959292754154974 -0.0901381072042356
3.3999999999999999 0.9958333323528015 -0.0911919633252566
3.4399999999999999 0.9957360802327726 -0.0922478103950081
3.4800000000000000 0.9956377406137588 -0.0933032125145187
3.5200000000000000 0.9955383147431810 -0.0943581680529398
3.5600000000000001 0.9954378038713557 -0.0954126753831607
3.6000000000000001 0.9953362092514814 -0.0964667328818138
3.6400000000000001 0.9952335321396273 -0.0975203389292796
3.6800000000000002 0.9951297737947195 -0.0985734919096925
3.7200000000000002 0.9950249354785299 -0.0996261902109454
3.7599999999999998 0.9949190184556619 -0.1006784322246946
3.7999999999999998 0.9948120239935392 -0.1017302163463656
3.8399999999999999 0.9947039533623924 -0.1027815409751572
3.8799999999999999 0.9945948078352469 -0.1038324045140470
3.9199999999999999 0.9944845886879100 -0.1048828053697963
3.9600000000000000 0.9943732971989588 -0.1059327419529543
4.0000000000000000 0.9942609346497266 -0.1069822126778639
4.0400000000000000 0.9941475023242921 -0.1080312159626654
4.0800000000000001 0.9940329042419480 -0.1090806366149306
4.1200000000000001 0.9939170657006197 -0.1101311332415595
4.1600000000000001 0.9938001508834683 -0.1111812039150318
4.2000000000000002 0.9936821609420625 -0.1122308470319678
4.2400000000000002 0.9935630970308644 -0.1132800609923800
4.2800000000000002 0.9934429603072166 -0.1143288441996777
4.3200000000000003 0.9933217519313324 -0.1153771950606732
4.3600000000000003 0.9931994730662835 -0.1164251119855872
4.4000000000000004 0.9930761248779898 -0.1174725933880541
4.4400000000000004 0.9929517085352068 -0.1185196376851277
4.4800000000000004 0.9928262252095148 -0.1195662432972863
4.5199999999999996 0.9926996760753084 -0.1206124086484384
4.5599999999999996 0.9925720623097839 -0.1216581321659277
4.5999999999999996 0.9924433850929292 -0.1227034122805385
4.6399999999999997 0.9923136456075111 -0.1237482474265013
4.6799999999999997 0.9921828450390657 -0.1247926360414973
4.7199999999999998 0.9920509845758846 -0.1258365765666640
4.7599999999999998 0.9919179069574876 -0.1268813061765873
4.7999999999999998 0.9917836579601229 -0.1279264468483286
4.8399999999999999 0.9916483437338373 -0.1289711687546380
4.8799999999999999 0.9915119653729426 -0.1300154703190539
4.9199999999999999 0.9913745239746131 -0.1310593499682838
4.9600000000000000 0.9912360206388767 -0.1321028061322103
5.0000000000000000 0.9910964564686031 -0.1331458372438970
5.0400000000000000 0.9909558325694943 -0.1341884417395940
5.0800000000000001 0.9908141500500738 -0.1352306180587433
5.1200000000000001 0.9906714100216766 -0.1362723646439848
5.1600000000000001 0.9905276135984378 -0.1373136799411614
5.2000000000000002 0.9903827618972835 -0.1383545623993251
5.2400000000000002 0.9902368560379188 -0.1393950104707417
5.2800000000000002 0.9900898971428185 -0.1404350226108969
5.3200000000000003 0.9899418863372162 -0.1414745972785015
5.3600000000000003 0.9897928247490936 -0.1425137329354963
5.4000000000000004 0.9896427135091704 -0.1435524280470583
5.4400000000000004 0.9894913328316184 -0.1445921929120212
5.4800000000000004 0.9893388509838361 -0.1456318575517836
5.5199999999999996 0.9891853150499089 -0.1466711031171871
5.5599999999999996 0.9890307260913872 -0.1477099280588252
5.5999999999999996 0.9888750851726392 -0.1487483308303165
5.6399999999999997 0.9887183933608410 -0.1497863098883113
5.6799999999999997 0.9885606517259662 -0.1508238636924968
5.7199999999999998 0.9884018613407772 -0.1518609907056026
5.7599999999999998 0.9882420232808140 -0.1528976893934070
5.7999999999999998 0.9880811386243862 -0.1539339582247417
5.8399999999999999 0.9879192084525605 -0.1549697956714982
5.8799999999999999 0.9877562338491540 -0.1560052002086325
5.9199999999999999 0.9875922159007209 -0.1570401703141716
5.9600000000000000 0.9874271556965453 -0.1580747044692179
6.0000000000000000 0.9872610543286301 -0.1591088011579551
6.0400000000000000 0.9870939128916872 -0.1601424588676540
6.0800000000000001 0.9869257181484321 -0.1611757638641789
6.1200000000000001 0.9867562292422387 -0.1622101847962654
6.1600000000000001 0.9865856966104289 -0.1632441828786391
6.2000000000000002 0.9864141212953541 -0.1642777565865637
6.2400000000000002 0.9862415043421355 -0.1653109043982313
6.2800000000000002 0.9860678467986560 -0.1663436247947678
6.3200000000000003 0.9858931497155489 -0.1673759162602384
6.3600000000000003 0.9857174141461907 -0.1684077772816535
6.4000000000000004 0.9855406411466906 -0.1694392063489740
6.4400000000000004 0.9853628317758801 -0.1704702019551171
6.4800000000000004 0.9851839870953057 -0.1715007625959617
6.5199999999999996 0.9850041081692174 -0.1725308867703539
6.5599999999999996 0.9848231960645600 -0.1735605729801124
6.5999999999999996 0.9846412518509645 -0.1745898197300340
6.6399999999999997 0.9844582766007364 -0.1756186255278987
6.6799999999999997 0.9842742713888482 -0.1766469888844756
6.7199999999999998 0.9840892372929292 -0.1776749083135278
6.7599999999999998 0.9839030991314259 -0.1787028022152296
6.7999999999999998 0.9837157359375550 -0.1797313296808177
6.8399999999999999 0.9835273407890809 -0.1807594255367037
6.8799999999999999 0.9833379147232559 -0.1817870882865961
6.9199999999999999 0.9831474587800372 -0.1828143164370755
6.9600000000000000 0.9829559740020778 -0.1838411084976001
7.0000000000000000 0.9827634614347184 -0.1848674629805122
7.0400000000000000 0.9825699221259764 -0.1858933784010419
7.0800000000000001 0.9823753571265382 -0.1869188532773145
7.1200000000000001 0.9821797674897506 -0.1879438861303545
7.1600000000000001 0.9819831542716088 -0.1889684754840916
7.2000000000000002 0.9817855185307505 -0.1899926198653658
7.2400000000000002 0.9815868613284445 -0.1910163178039330
7.2800000000000002 0.9813871837285822 -0.1920395678324700
7.3200000000000003 0.9811864867976687 -0.1930623684865800
7.3600000000000003 0.9809847716048130 -0.1940847183047974
7.4000000000000004 0.9807820392217190 -0.1951066158285938
7.4400000000000004 0.9805781507373119 -0.1961287594836444
7.4800000000000004 0.9803731083989328 -0.1971511306795237
7.5199999999999996 0.9801670462974902 -0.1981730590984908
7.5599999999999996 0.9799599654730887 -0.1991945432736125
7.5999999999999996 0.9797518669684656 -0.2002155817407968
7.6399999999999997 0.9795427518289840 -0.2012361730387992
7.6799999999999997 0.9793326211026205 -0.2022563157092273
7.7199999999999998 0.9791214758399606 -0.2032760082965465
7.7599999999999998 0.9789093170941850 -0.2042952493480851
7.7999999999999998 0.9786961459210649 -0.2053140374140394
7.8399999999999999 0.9784819633789503 -0.2063323710474793
7.8799999999999999 0.9782667705287619 -0.2073502488043531
7.9199999999999999 0.9780505684339815 -0.2083676692434929
7.9600000000000000 0.9778333581606443 -0.2093846309266195
8.0000000000000000 0.9776151407773291 -0.2104011324183477
8.0399999999999991 0.9773959173551480 -0.2114171722861911
8.0800000000000001 0.9771756889677392 -0.2124327491005672
8.1199999999999992 0.9769542509621391 -0.2134488030582648
8.1600000000000001 0.9767317325591778 -0.2144647351243249
8.1999999999999993 0.9765082070486291 -0.2154802115431283
8.2400000000000002 0.9762836754791276 -0.2164952308781077
8.2799999999999994 0.9760581389018637 -0.2175097916955245
8.3200000000000003 0.9758315983705745 -0.2185238925644743
8.3599999999999994 0.9756040549415369 -0.2195375320568918
8.4000000000000004 0.9753755096735569 -0.2205507087475562
8.4399999999999995 0.9751459636279611 -0.2215634212140960
8.4800000000000004 0.9749154178685890 -0.2225756680369941
8.5199999999999996 0.9746838734617826 -0.2235874477995927
8.5600000000000005 0.9744513314763782 -0.2245987590880987
8.5999999999999996 0.9742177929836973 -0.2256096004915877
8.6400000000000006 0.9739832590575386 -0.2266199706020101
8.6799999999999997 0.9737477307741673 -0.2276298680141952
8.7200000000000006 0.9735112092123082 -0.2286392913258559
8.7599999999999998 0.9732736954531354 -0.2296482391375943
8.8000000000000007 0.9730349168674712 -0.2306578647189675
8.8399999999999999 0.9727951338406338 -0.2316670619142554
8.8800000000000008 0.9725543568518364 -0.2326757893905397
8.9199999999999999 0.9723125869623077 -0.2336840457426755
8.9600000000000009 0.9720698252357500 -0.2346918295683472
9.0000000000000000 0.9718260727383320 -0.2356991394680730
9.0399999999999991 0.9715813305386782 -0.2367059740452095
9.0800000000000001 0.9713355997078620 -0.2377123319059578
9.1199999999999992 0.9710888813193949 -0.2387182116593664
9.1600000000000001 0.9708411764492201 -0.2397236119173380
9.1999999999999993 0.9705924861757014 -0.2407285312946329
9.2400000000000002 0.9703428115796162 -0.2417329684088741
9.2799999999999994 0.9700921537441455 -0.2427369218805523
9.3200000000000003 0.9698405137548659 -0.2437403903330302
9.3599999999999994 0.9695878926997401 -0.2447433723925474
9.4000000000000004 0.9693342916691089 -0.2457458666882248
9.4399999999999995 0.9690796561411595 -0.2467480902729177
9.4800000000000004 0.9688238099025133 -0.2477507323217813
9.5199999999999996 0.9685669822774534 -0.2487528911227912
9.5600000000000005 0.9683091743402904 -0.2497545653004668
9.5999999999999996 0.9680503871677308 -0.2507557534821609
9.6400000000000006 0.9677906218388701 -0.2517564542980638
9.6799999999999997 0.9675298794351823 -0.2527566663812089
9.7200000000000006 0.9672681610405122 -0.2537563883674770
9.7599999999999998 0.9670054677410670 -0.2547556188956004
9.8000000000000007 0.9667418006254066 -0.2557543566071684
9.8399999999999999 0.9664771607844359 -0.2567526001466309
9.8800000000000008 0.9662115493113951 -0.2577503481613037
9.9199999999999999 0.9659449673018523 -0.2587475993013725
9.9600000000000009 0.9656774158536927 -0.2597443522198972
10.0000000000000000 0.9654088960671126 -0.2607406055728171
10.0399999999999991 0.9651394090446072 -0.2617363580189545
10.0800000000000001 0.9648689558909657 -0.2627316082200195
10.1199999999999992 0.9645974146520102 -0.2637268049453028
10.1600000000000001 0.9643247383628525 -0.2647221165324423
10.1999999999999993 0.9640510948290164 -0.2657169293796972
10.2400000000000002 0.9637764851423786 -0.2667112421451384
10.2799999999999994 0.9635009103971229 -0.2677050534896854
10.3200000000000003 0.9632243716897313 -0.2686983620771112
10.3599999999999994 0.9629468701189750 -0.2696911665740465
10.4000000000000004 0.9626684067859057 -0.2706834656499836
10.4399999999999995 0.9623889827938480 -0.2716752579772816
10.4800000000000004 0.9621085992483891 -0.2726665422311700
10.5199999999999996 0.9618272572573717 -0.2736573170897533
10.5600000000000005 0.9615449579308838 -0.2746475812340151
10.5999999999999996 0.9612617023812513 -0.2756373333478225
10.6400000000000006 0.9609774917230287 -0.2766265721179301
10.6799999999999997 0.9606923270729901 -0.2776152962339840
10.7200000000000006 0.9604062095501218 -0.2786035043885264
10.7599999999999998 0.9601191402756111 -0.2795911952769994
10.8000000000000007 0.9598309272536129 -0.2805790282388720
10.8399999999999999 0.9595416577303818 -0.2815667009431880
10.8800000000000008 0.9592514356108882 -0.2825538590754867
10.9199999999999999 0.9589602620058978 -0.2835405013284343
10.9600000000000009 0.9586681380283900 -0.2845266263975651
11.0000000000000000 0.9583750647935492 -0.2855122329812863
11.0399999999999991 0.9580810434187554 -0.2864973197808817
11.0800000000000001 0.9577860750235766 -0.2874818855005153
11.1199999999999992 0.9574901607297597 -0.2884659288472367
11.1600000000000001 0.9571933016612212 -0.2894494485309837
11.1999999999999993 0.9568954989440395 -0.2904324432645869
11.2400000000000002 0.9565967537064465 -0.2914149117637742
11.2799999999999994 0.9562970670788172 -0.2923968527471734
11.3200000000000003 0.9559964401936631 -0.2933782649363173
11.3599999999999994 0.9556948741856222 -0.2943591470556471
11.4000000000000004 0.9553923701914502 -0.2953394978325164
11.4399999999999995 0.9550889293500132 -0.2963193159971945
11.4800000000000004 0.9547842868163844 -0.2972994545042560
11.5199999999999996 0.9544786694012711 -0.2982791807317078
11.5600000000000005 0.9541721145389592 -0.2992583763844400
11.5999999999999996 0.9538646233598946 -0.3002370401907243
11.6400000000000006 0.9535561969966397 -0.3012151708817228
11.6799999999999997 0.9532468365838663 -0.3021927671914924
11.7200000000000006 0.9529365432583455 -0.3031698278569873
11.7599999999999998 0.9526253181589397 -0.3041463516180641
11.8000000000000007 0.9523131624265937 -0.3051223372174843
11.8399999999999999 0.9520000772043266 -0.3060977834009194
11.8800000000000008 0.9516860636372230 -0.3070726889169532
11.9199999999999999 0.9513711228724231 -0.3080470525170866
11.9600000000000009 0.9510552560591168 -0.3090208729557405
12.0000000000000000 0.9507384643485319 -0.3099941489902599
12.0399999999999991 0.9504207488939276 -0.3109668793809173
12.0800000000000001 0.9501021108505850 -0.3119390628909159
12.1199999999999992 0.9497825184320824 -0.3129107982809334
12.1600000000000001 0.9494617297734813 -0.3138828184140521
12.1999999999999993 0.9491400181587650 -0.3148542931731746
12.2400000000000002 0.9488173847364011 -0.3158252213202357
12.2799999999999994 0.9484938306568848 -0.3167956016200806
12.3200000000000003 0.9481693570727282 -0.3177654328404669
12.3599999999999994 0.9478439651384537 -0.3187347137520701
12.4000000000000004 0.9475176560105839 -0.3197034431284854
12.4399999999999995 0.9471904308476347 -0.3206716197462324
12.4800000000000004 0.9468622908101044 -0.3216392423847579
12.5199999999999996 0.9465332370604675 -0.3226063098264396
12.5600000000000005 0.9462032707631639 -0.3235728208565893
12.5999999999999996 0.9458723930845921 -0.3245387742634565
12.6400000000000006 0.9455406051930989 -0.3255041688382315
12.6799999999999997 0.9452079082589726 -0.3264690033750487
12.7200000000000006 0.9448743034544322 -0.3274332766709903
12.7599999999999998 0.9445397919536211 -0.3283969875260890
12.8000000000000007 0.9442042697930323 -0.3293604361555999
12.8399999999999999 0.9438676326516762 -0.3303239198612786
12.8800000000000008 0.9435300886506177 -0.3312868421941286
12.9199999999999999 0.9431916389585042 -0.3322492019535493
12.9600000000000009 0.9428522847459092 -0.3332109979418736
13.0000000000000000 0.9425120271853215 -0.3341722289643709
13.0399999999999991 0.9421708674511394 -0.3351328938292501
13.0800000000000001 0.9418288067196606 -0.3360929913476631
13.1199999999999992 0.9414858461690730 -0.3370525203337081
13.1600000000000001 0.9411419869794474 -0.3380114796044323
13.1999999999999993 0.9407972303327283 -0.3389698679798355
13.2400000000000002 0.9404515774127257 -0.3399276842828724
13.2799999999999994 0.9401050294051050 -0.3408849273394566
13.3200000000000003 0.9397575874973807 -0.3418415959784635
13.3599999999999994 0.9394092528789058 -0.3427976890317322
13.4000000000000004 0.9390600267408644 -0.3437532053340699
13.4399999999999995 0.9387099102762623 -0.3447081437232541
13.4800000000000004 0.9383587242141158 -0.3456629929443658
13.5199999999999996 0.9380065077907759 -0.3466176443029882
13.5600000000000005 0.9376534010653389 -0.3475717184562096
13.5999999999999996 0.9372994052263879 -0.3485252142417521
13.6400000000000006 0.9369445214643284 -0.3494781305002938
13.6799999999999997 0.9365887509713788 -0.3504304660754719
