#    GHz    S    RI    R    50    

0.0400000000000000 0.9999998872249317 0.0004749222743515
0.0800000000000000 0.9999995565467551 0.0009417606507758
0.1200000000000000 0.9999990122277972 0.0014055476647838
0.1600000000000000 0.9999982565179848 0.0018673529805555
0.2000000000000000 0.9999972909815650 0.0023276845755832
0.2400000000000000 0.9999961168209587 0.0027868416103645
0.2800000000000000 0.9999947350134621 0.0032450217343435
0.3200000000000000 0.9999931463824557 0.0037023654032689
0.3600000000000000 0.9999913516393371 0.0041589776169797
0.4000000000000000 0.9999893514103451 0.0046149398596038
0.4400000000000000 0.9999871462547589 0.0050703172114203
0.4800000000000000 0.9999847366778306 0.0055251628519586
0.5200000000000000 0.9999821231402919 0.0059795210513072
0.5600000000000001 0.9999793060655605 0.0064334292355114
0.6000000000000000 0.9999762858453269 0.0068869194588639
0.6400000000000000 0.9999730628439747 0.0073400194818717
0.6800000000000000 0.9999696374021351 0.0077927535787114
0.7200000000000000 0.9999660098395967 0.0082451431540631
0.7600000000000000 0.9999621804577070 0.0086972072224667
0.8000000000000000 0.9999581495413825 0.0091489627864972
0.8400000000000000 0.9999539173608116 0.0096004251391266
0.8800000000000000 0.9999494841728991 0.0100516081083709
0.9200000000000000 0.9999448502225163 0.0105025242573698
0.9600000000000000 0.9999400157435785 0.0109531850496093
1.0000000000000000 0.9999349809599829 0.0114036009865621
1.0400000000000000 0.9999297460864358 0.0118537817232733
1.0800000000000001 0.9999243113291776 0.0123037361661395
1.1200000000000001 0.9999186768866279 0.0127534725561832
1.1599999999999999 0.9999128429499586 0.0132029985404168
1.2000000000000000 0.9999068097036066 0.0136523212333530
1.2400000000000000 0.9999005773257327 0.0141014472703049
1.2800000000000000 0.9998941459886400 0.0145503828538016
1.3200000000000001 0.9998875158591453 0.0149991337941977
1.3600000000000001 0.9998806870989208 0.0154477055453547
1.3999999999999999 0.9998736598648044 0.0158961032361223
1.4399999999999999 0.9998664343090815 0.0163443316982187
1.4800000000000000 0.9998590105797440 0.0167923954910105
1.5200000000000000 0.9998513888207269 0.0172402989236121
1.5600000000000001 0.9998435691721270 0.0176880460746573
1.6000000000000001 0.9998355517704044 0.0181356408100416
1.6399999999999999 0.9998273367485669 0.0185830867988890
1.6799999999999999 0.9998189242363438 0.0190303875279608
1.7200000000000000 0.9998103143603427 0.0194775463146903
1.7600000000000000 0.9998015072442005 0.0199245663190055
1.8000000000000000 0.9997925030087195 0.0203714505540750
1.8400000000000001 0.9997833017719963 0.0208182018960999
1.8799999999999999 0.9997739036495409 0.0212648230932523
1.9199999999999999 0.9997643087543925 0.0217113167738535
1.9600000000000000 0.9997545171972183 0.0221576854538700
2.0000000000000000 0.9997445290864178 0.0226039315437978
2.0400000000000000 0.9997343445282140 0.0230500573549950
2.0800000000000001 0.9997239636267380 0.0234960651055179
2.1200000000000001 0.9997133864841128 0.0239419569255080
2.1600000000000001 0.9997026132005310 0.0243877348621722
2.2000000000000002 0.9996916438743275 0.0248334008843940
2.2400000000000002 0.9996804786020471 0.0252789568870086
2.2799999999999998 0.9996691174785096 0.0257244046947736
2.3199999999999998 0.9996575605968741 0.0261697460660600
2.3599999999999999 0.9996458080486944 0.0266149826962891
2.3999999999999999 0.9996338599239766 0.0270601162211359
2.4399999999999999 0.9996217163112289 0.0275051482195189
2.4800000000000000 0.9996093772975151 0.0279500802163945
2.5200000000000000 0.9995968429684993 0.0283949136853697
2.5600000000000001 0.9995841134084923 0.0288396500511499
2.6000000000000001 0.9995711887004951 0.0292842906918337
2.6400000000000001 0.9995580689262394 0.0297288369410653
2.6800000000000002 0.9995447541662258 0.0301732900900579
2.7200000000000002 0.9995312444997636 0.0306176513894950
2.7599999999999998 0.9995175400050039 0.0310619220513206
2.7999999999999998 0.9995036407589762 0.0315061032504251
2.8399999999999999 0.9994895468376190 0.0319501961262353
2.8799999999999999 0.9994752583158127 0.0323942017842142
2.9199999999999999 0.9994607752674081 0.0328381212972780
2.9600000000000000 0.9994460977652561 0.0332819557071350
3.0000000000000000 0.9994312258812356 0.0337257060255524
3.0400000000000000 0.9994161596862781 0.0341693732355551
3.0800000000000001 0.9994008992503955 0.0346129582925622
3.1200000000000001 0.9993854446427030 0.0350564621254635
3.1600000000000001 0.9993697959314424 0.0354998856376409
3.2000000000000002 0.9993539531840043 0.0359432297079391
3.2400000000000002 0.9993379164669527 0.0363864951915863
3.2799999999999998 0.9993216858460409 0.0368296829210703
3.3199999999999998 0.9993052613862367 0.0372727937069717
3.3599999999999999 0.9992886431517376 0.0377158283387566
3.3999999999999999 0.9992718312059924 0.0381587875855322
3.4399999999999999 0.9992548256117174 0.0386016721967659
3.4800000000000000 0.9992376264309139 0.0390444829029721
3.5200000000000000 0.9992202337248866 0.0394872204163659
3.5600000000000001 0.9992026475542577 0.0399298854314888
3.6000000000000001 0.9991848679789838 0.0403724786258047
3.6400000000000001 0.9991668950583701 0.0408150006602704
3.6800000000000002 0.9991487288510856 0.0412574521798809
3.7200000000000002 0.9991303694151782 0.0416998338141903
3.7599999999999998 0.9991118168080849 0.0421421461778111
3.7999999999999998 0.9990930710866490 0.0425843898708917
3.8399999999999999 0.9990741323071317 0.0430265654795743
3.8799999999999999 0.9990550005252227 0.0434686735764330
3.9199999999999999 0.9990356757960540 0.0439107147208945
3.9600000000000000 0.9990161581742105 0.0443526894596412
4.0000000000000000 0.9989964477137434 0.0447945983269982
4.0400000000000000 0.9989765444681772 0.0452364418453046
4.0800000000000001 0.9989564484905247 0.0456782205252706
4.1200000000000001 0.9989361598332944 0.0461199348663198
4.1600000000000001 0.9989156785485012 0.0465615853569189
4.2000000000000002 0.9988950046876756 0.0470031724748944
4.2400000000000002 0.9988741383018744 0.0474446966877372
4.2800000000000002 0.9988530794416898 0.0478861584528956
4.3200000000000003 0.9988318281572562 0.0483275582180578
4.3600000000000003 0.9988103844982612 0.0487688964214236
4.4000000000000004 0.9987887485139525 0.0492101734919659
4.4400000000000004 0.9987669202531471 0.0496513898496832
4.4800000000000004 0.9987448997642384 0.0500925459058425
4.5199999999999996 0.9987226870952041 0.0505336420632139
4.5599999999999996 0.9987002822936147 0.0509746787162969
4.5999999999999996 0.9986776854066396 0.0514156562515380
4.6399999999999997 0.9986548964810535 0.0518565750475421
4.6799999999999997 0.9986319155632464 0.0522974354752753
4.7199999999999998 0.9986087426992272 0.0527382378982612
4.7599999999999998 0.9985853779346315 0.0531789826727713
4.7999999999999998 0.9985618213147290 0.0536196701480074
4.8399999999999999 0.9985380728844280 0.0540603006662797
4.8799999999999999 0.9985141326882816 0.0545008745631774
4.9199999999999999 0.9984900007704962 0.0549413921677349
4.9600000000000000 0.9984656771749336 0.0553818538025921
5.0000000000000000 0.9984411619451200 0.0558222597841494
5.0400000000000000 0.9984164551242490 0.0562626104227179
5.0800000000000001 0.9983915567551888 0.0567029060226651
5.1200000000000001 0.9983664668804855 0.0571431468825551
5.1600000000000001 0.9983411855423706 0.0575833332952858
5.2000000000000002 0.9983157127827639 0.0580234655482207
5.2400000000000002 0.9982900486432802 0.0584635439233171
5.2800000000000002 0.9982641931652330 0.0589035686972499
5.3200000000000003 0.9982381463896386 0.0593435401415329
5.3600000000000003 0.9982119083572222 0.0597834585226347
5.4000000000000004 0.9981854791084217 0.0602233241020928
5.4400000000000004 0.9981588586833915 0.0606631371366229
5.4800000000000004 0.9981320471220074 0.0611028978782262
5.5199999999999996 0.9981050444638716 0.0615426065742926
5.5599999999999996 0.9980778507483137 0.0619822634677012
5.5999999999999996 0.9980504660143986 0.0624218687969188
5.6399999999999997 0.9980228903009283 0.0628614227960937
5.6799999999999997 0.9979951236464452 0.0633009256951487
5.7199999999999998 0.9979671660892382 0.0637403777198705
5.7599999999999998 0.9979390176673433 0.0641797790919964
5.7999999999999998 0.9979106784185492 0.0646191300292999
5.8399999999999999 0.9978821483804007 0.0650584307456720
5.8799999999999999 0.9978534275902015 0.0654976814512019
5.9199999999999999 0.9978245160850185 0.0659368823522548
5.9600000000000000 0.9977954139016829 0.0663760336515477
6.0000000000000000 0.9977661210767965 0.0668151355482230
6.0400000000000000 0.9977366376467325 0.0672541882379202
6.0800000000000001 0.9977069636476391 0.0676931919128463
6.1200000000000001 0.9976770991154452 0.0681321467618433
6.1600000000000001 0.9976470440858572 0.0685710529704547
6.2000000000000002 0.9976167985943695 0.0690099107209900
6.2400000000000002 0.9975863626762620 0.0694487201925876
6.2800000000000002 0.9975557363666030 0.0698874815612756
6.3200000000000003 0.9975249197002566 0.0703261950000326
6.3600000000000003 0.9974939127118806 0.0707648606788446
6.4000000000000004 0.9974627154359306 0.0712034787647625
6.4400000000000004 0.9974313279066636 0.0716420494219571
6.4800000000000004 0.9973997501581395 0.0720805728117731
6.5199999999999996 0.9973679822242237 0.0725190490927818
6.5599999999999996 0.9973360241385903 0.0729574784208320
6.5999999999999996 0.9973038759347238 0.0733958609491003
6.6399999999999997 0.9972715376459212 0.0738341968281403
6.6799999999999997 0.9972390093052956 0.0742724862059294
6.7199999999999998 0.9972062909457766 0.0747107292279158
6.7599999999999998 0.9971733826001143 0.0751489260370640
6.7999999999999998 0.9971402843008811 0.0755870767738990
6.8399999999999999 0.9971069960804725 0.0760251815765493
6.8799999999999999 0.9970735179711110 0.0764632405807894
6.9199999999999999 0.9970398500048478 0.0769012539200813
6.9600000000000000 0.9970059922135635 0.0773392217256142
7.0000000000000000 0.9969719446289721 0.0777771441263445
7.0400000000000000 0.9969377072826217 0.0782150212490340
7.0800000000000001 0.9969032802058958 0.0786528532182873
7.1200000000000001 0.9968686634300178 0.0790906401565892
7.1600000000000001 0.9968338569860504 0.0795283821843399
7.2000000000000002 0.9967988609048977 0.0799660794198906
7.2400000000000002 0.9967636752173088 0.0804037319795776
7.2800000000000002 0.9967282999538779 0.0808413399777560
7.3200000000000003 0.9966927351450461 0.0812789035268327
7.3600000000000003 0.9966569808211043 0.0817164227372979
7.4000000000000004 0.9966210370121933 0.0821538977177574
7.4400000000000004 0.9965849037483070 0.0825913285749627
7.4800000000000004 0.9965485810592933 0.0830287154138412
7.5199999999999996 0.9965120689748556 0.0834660583375260
7.5599999999999996 0.9964753675245547 0.0839033574473842
7.5999999999999996 0.9964384767378099 0.0843406128430453
7.6399999999999997 0.9964013966439020 0.0847778246224289
7.6799999999999997 0.9963641272719724 0.0852149928817717
7.7199999999999998 0.9963266686510264 0.0856521177156538
7.7599999999999998 0.9962890208099346 0.0860891992170247
7.7999999999999998 0.9962511837774329 0.0865262374772288
7.8399999999999999 0.9962131575821260 0.0869632325860300
7.8799999999999999 0.9961749422524874 0.0874001846316363
7.9199999999999999 0.9961365378168603 0.0878370937007233
7.9600000000000000 0.9960979443034607 0.0882739598784581
8.0000000000000000 0.9960591617403782 0.0887107832485217
8.0399999999999991 0.9960201901555753 0.0891475638931315
8.0800000000000001 0.9959810295768923 0.0895843018930636
8.1199999999999992 0.9959416800320454 0.0900209973276740
8.1600000000000001 0.9959021415486284 0.0904576502749200
8.1999999999999993 0.9958624141541170 0.0908942608113807
8.2400000000000002 0.9958224978758659 0.0913308290122775
8.2799999999999994 0.9957823927411116 0.0917673549514936
8.3200000000000003 0.9957420987769752 0.0922038387015940
8.3599999999999994 0.9957016160104611 0.0926402803338447
8.4000000000000004 0.9956609444684608 0.0930766799182308
8.4399999999999995 0.9956200841777502 0.0935130375234756
8.4800000000000004 0.9955790351649942 0.0939493532170585
8.5199999999999996 0.9955377974567470 0.0943856270652323
8.5600000000000005 0.9954963710794518 0.0948218591330415
8.5999999999999996 0.9954547560594436 0.0952580494843382
8.6400000000000006 0.9954129524229487 0.0956941981817999
8.6799999999999997 0.9953709601960873 0.0961303052869453
8.7200000000000006 0.9953287794048740 0.0965663708601509
8.7599999999999998 0.9952864100752176 0.0970023949606661
8.8000000000000007 0.9952438522329237 0.0974383776466297
8.8399999999999999 0.9952011059036946 0.0978743189750844
8.8800000000000008 0.9951581711131323 0.0983102190019921
8.9199999999999999 0.9951150478867354 0.0987460777822488
8.9600000000000009 0.9950717362499044 0.0991818953696984
9.0000000000000000 0.9950282362279406 0.0996176718171477
9.0399999999999991 0.9949845478460464 0.1000534071763799
9.0800000000000001 0.9949406711293272 0.1004891014981682
9.1199999999999992 0.9948966061027934 0.1009247548322896
9.1600000000000001 0.9948523527913575 0.1013603672275377
9.1999999999999993 0.9948079112198394 0.1017959387317361
9.2400000000000002 0.9947632814129654 0.1022314693917506
9.2799999999999994 0.9947184633953682 0.1026669592535028
9.3200000000000003 0.9946734571915882 0.1031024083619806
9.3599999999999994 0.9946282628260755 0.1035378167612525
9.4000000000000004 0.9945828803231893 0.1039731844944775
9.4399999999999995 0.9945373097071991 0.1044085116039184
9.4800000000000004 0.9944915510022870 0.1048437981309521
9.5199999999999996 0.9944456042325451 0.1052790441160815
9.5600000000000005 0.9943994694219800 0.1057142495989465
9.5999999999999996 0.9943531465945106 0.1061494146183349
9.6400000000000006 0.9943066357739708 0.1065845392121931
9.6799999999999997 0.9942599369841100 0.1070196234176367
9.7200000000000006 0.9942130502485929 0.1074546672709610
9.7599999999999998 0.9941659755910001 0.1078896708076509
9.8000000000000007 0.9941187130348303 0.1083246340623912
9.8399999999999999 0.9940712626035011 0.1087595570690765
9.8800000000000008 0.9940236243203462 0.1091944398608207
9.9199999999999999 0.9939757982086211 0.1096292824699668
9.9600000000000009 0.9939277842914999 0.1100640849280960
10.0000000000000000 0.9938795825920785 0.1104988472660375
10.0399999999999991 0.9938311931333732 0.1109335695138770
10.0800000000000001 0.9937826159383228 0.1113682517009660
10.1199999999999992 0.9937338510297888 0.1118028938559302
10.1600000000000001 0.9936848984305560 0.1122374960066791
10.1999999999999993 0.9936357581633337 0.1126720581804136
10.2400000000000002 0.9935864302507545 0.1131065804036346
10.2799999999999994 0.9935369147153781 0.1135410627021517
10.3200000000000003 0.9934872115796881 0.1139755051010909
10.3599999999999994 0.9934373208660959 0.1144099076249029
10.4000000000000004 0.9933872425969391 0.1148442702973706
10.4399999999999995 0.9933369767944844 0.1152785931416175
10.4800000000000004 0.9932865234809249 0.1157128761801148
10.5199999999999996 0.9932358826783833 0.1161471194346888
10.5600000000000005 0.9931850544089119 0.1165813229265294
10.5999999999999996 0.9931340386944930 0.1170154866761959
10.6400000000000006 0.9930828355570385 0.1174496107036251
10.6799999999999997 0.9930314450183928 0.1178836950281386
10.7200000000000006 0.9929798671003308 0.1183177396684489
10.7599999999999998 0.9929281018245597 0.1187517446426671
10.8000000000000007 0.9928761492127203 0.1191857099683092
10.8399999999999999 0.9928240092863848 0.1196196356623027
10.8800000000000008 0.9927716820670609 0.1200535217409938
10.9199999999999999 0.9927191675761898 0.1204873682201533
10.9600000000000009 0.9926664658351478 0.1209211751149825
11.0000000000000000 0.9926135768652455 0.1213549424401213
11.0399999999999991 0.9925605006877306 0.1217886702096523
11.0800000000000001 0.9925072373237857 0.1222223584371079
11.1199999999999992 0.9924537867945316 0.1226560071354764
11.1600000000000001 0.9924001491210249 0.1230896163172077
11.1999999999999993 0.9923463243242618 0.1235231859942194
11.2400000000000002 0.9922923124251739 0.1239567161779018
11.2799999999999994 0.9922381134446343 0.1243902068791247
11.3200000000000003 0.9921837274034532 0.1248236581082418
11.3599999999999994 0.9921291543223819 0.1252570698750974
11.4000000000000004 0.9920743942221096 0.1256904421890307
11.4399999999999995 0.9920194471232687 0.1261237750588823
11.4800000000000004 0.9919643130464302 0.1265570684929984
11.5199999999999996 0.9919089920121080 0.1269903224992367
11.5600000000000005 0.9918534840407566 0.1274235370849712
11.5999999999999996 0.9917977891527743 0.1278567122570979
11.6400000000000006 0.9917419073684998 0.1282898480220387
11.6799999999999997 0.9916858387082164 0.1287229443857469
11.7200000000000006 0.9916295831921511 0.1291560013537125
11.7599999999999998 0.9915731408404741 0.1295890189309665
11.8000000000000007 0.9915165116732992 0.1300219971220855
11.8399999999999999 0.9914596957106869 0.1304549359311966
11.8800000000000008 0.9914026929726409 0.1308878353619818
11.9199999999999999 0.9913455034791118 0.1313206954176832
11.9600000000000009 0.9912881272499950 0.1317535161011064
12.0000000000000000 0.9912305643051329 0.1321862974146256
12.0399999999999991 0.9911728146643136 0.1326190393601881
12.0800000000000001 0.9911148783472736 0.1330517419393180
12.1199999999999992 0.9910567553736960 0.1334844051531209
12.1600000000000001 0.9909984457632115 0.1339170290022879
12.1999999999999993 0.9909399495353993 0.1343496134870998
12.2400000000000002 0.9908812667097876 0.1347821586074310
12.2799999999999994 0.9908223973058522 0.1352146643627539
12.3200000000000003 0.9907633413430198 0.1356471307521423
12.3599999999999994 0.9907040988406653 0.1360795577742759
12.4000000000000004 0.9906446698181141 0.1365119454274439
12.4399999999999995 0.9905850542946411 0.1369442937095484
12.4800000000000004 0.9905252522894739 0.1373766026181091
12.5199999999999996 0.9904652638217886 0.1378088721502660
12.5600000000000005 0.9904050889107143 0.1382411023027839
12.5999999999999996 0.9903447275753309 0.1386732930720556
12.6400000000000006 0.9902841798346711 0.1391054444541054
12.6799999999999997 0.9902234457077185 0.1395375564445928
12.7200000000000006 0.9901625252134104 0.1399696290388157
12.7599999999999998 0.9901014183706371 0.1404016622317150
12.8000000000000007 0.9900401251982420 0.1408336560178758
12.8399999999999999 0.9899786457150218 0.1412656103915330
12.8800000000000008 0.9899169799397269 0.1416975253465730
12.9199999999999999 0.9898551278910624 0.1421294008765381
12.9600000000000009 0.9897930895876885 0.1425612369746289
13.0000000000000000 0.9897308650482187 0.1429930336337079
13.0399999999999991 0.9896684542912223 0.1434247908463025
13.0800000000000001 0.9896058573352243 0.1438565086046084
13.1199999999999992 0.9895430741987056 0.1442881869004924
13.1600000000000001 0.9894801049001021 0.1447198257254950
13.1999999999999993 0.9894169494578069 0.1451514250708343
13.2400000000000002 0.9893536078901692 0.1455829849274087
13.2799999999999994 0.9892900802154954 0.1460145052857990
13.3200000000000003 0.9892263664520490 0.1464459861362726
13.3599999999999994 0.9891624666180499 0.1468774274687852
13.4000000000000004 0.9890983807316776 0.1473088292729844
13.4399999999999995 0.9890341088110679 0.1477401915382118
13.4800000000000004 0.9889696508743158 0.1481715142535067
13.5199999999999996 0.9889050069394744 0.1486027974076078
13.5600000000000005 0.9888401770245560 0.1490340409889566
13.5999999999999996 0.9887751611475302 0.1494652449856993
13.6400000000000006 0.9887099593263288 0.1498964093856903
13.6799999999999997 0.9886445715788419 0.1503275341764944
13.7200000000000006 0.9885789979229180 0.1507586193453896
13.7599999999999998 0.9885132383763671 0.1511896648793686
13.8000000000000007 0.9884472929569601 0.1516206707651423
13.8399999999999999 0.9883811616824270 0.1520516369891430
13.8800000000000008 0.9883148445704597 0.1524825635375246
13.9199999999999999 0.9882483416387102 0.1529134503961666
