#    GHz    S    RI    R    50    

0.0400000000000000 -0.9987677131587217 0.0068792261851465
0.0800000000000000 -0.9974979053490500 0.0126676116336159
0.1200000000000000 -0.9962026358683281 0.0180365874051501
0.1600000000000000 -0.9948857865113471 0.0231292786226058
0.2000000000000000 -0.9935498124263991 0.0280138023456614
0.2400000000000000 -0.9921965029062193 0.0327303600625345
0.2800000000000000 -0.9908272603184132 0.0373055695426493
0.3200000000000000 -0.9894432343225983 0.0417583881199290
0.3600000000000000 -0.9880453968147067 0.0461030200402818
0.4000000000000000 -0.9866345880035735 0.0503505144519445
0.4400000000000000 -0.9852115467345629 0.0545097178001696
0.4800000000000000 -0.9837769314884510 0.0585878772308830
0.5200000000000000 -0.9823313355110288 0.0625910416536803
0.5600000000000001 -0.9808752980660886 0.0665243388206507
0.6000000000000000 -0.9794093130264276 0.0703921729480015
0.6400000000000000 -0.9779338355773292 0.0741983694872547
0.6800000000000000 -0.9764492875451157 0.0779462836238507
0.7200000000000000 -0.9749560617008839 0.0816388832045491
0.7600000000000000 -0.9734545252850773 0.0852788132147445
0.8000000000000000 -0.9719450229293396 0.0888684466709999
0.8400000000000000 -0.9704278791049830 0.0924099253306328
0.8800000000000000 -0.9689034001945908 0.0959051926460427
0.9200000000000000 -0.9673718762599599 0.0993560207281102
0.9600000000000000 -0.9658335825626961 0.1027640326220053
1.0000000000000000 -0.9642887808813485 0.1061307208724745
1.0400000000000000 -0.9627377206596845 0.1094574631209221
1.0800000000000001 -0.9611806400136765 0.1127455353051532
1.1200000000000001 -0.9596177666193907 0.1159961229056950
1.1599999999999999 -0.9580493184997881 0.1192103305874416
1.2000000000000000 -0.9564755047251826 0.1223891905131917
1.2400000000000000 -0.9548965260395172 0.1255336695503166
1.2800000000000000 -0.9533125754225547 0.1286446755489791
1.3200000000000001 -0.9517238385964319 0.1317230628368685
1.3600000000000001 -0.9501304944836805 0.1347696370490641
1.3999999999999999 -0.9485327156227135 0.1377851593907145
1.4399999999999999 -0.9469306685458984 0.1407703504134788
1.4800000000000000 -0.9453245141245774 0.1437258933731914
1.5200000000000000 -0.9437144078847863 0.1466524372252785
1.5600000000000001 -0.9421005002969066 0.1495505993055318
1.6000000000000001 -0.9404829370420510 0.1524209677365314
1.6399999999999999 -0.9388618592576218 0.1552641035939638
1.6799999999999999 -0.9372374037641634 0.1580805428620793
1.7200000000000000 -0.9356097032753767 0.1608707982033548
1.7600000000000000 -0.9339788865929246 0.1636353605639362
1.8000000000000000 -0.9323450787874812 0.1663747006334952
1.8400000000000001 -0.9307084013672912 0.1690892701756508
1.8799999999999999 -0.9290689724353779 0.1717795032430056
1.9199999999999999 -0.9274269068364027 0.1744458172890507
1.9600000000000000 -0.9257823162940755 0.1770886141876673
2.0000000000000000 -0.9241353095399168 0.1797082811696391
2.0400000000000000 -0.9224859924340933 0.1823051916844599
2.0800000000000001 -0.9208344680789680 0.1848797061947494
2.1200000000000001 -0.9191808369259514 0.1874321729097475
2.1600000000000001 -0.9175251968761746 0.1899629284636246
2.2000000000000002 -0.9158676433754614 0.1924722985437095
2.2400000000000002 -0.9142082695040241 0.1949605984731800
2.2799999999999998 -0.9125471660612804 0.1974281337522767
2.3199999999999998 -0.9108844216461358 0.1998752005616717
2.3599999999999999 -0.9092201227330635 0.2023020862312483
2.3999999999999999 -0.9075543537442712 0.2047090696772224
2.4399999999999999 -0.9058871971182230 0.2070964218102342
2.4800000000000000 -0.9042187333747657 0.2094644059167903
2.5200000000000000 -0.9025490411770852 0.2118132780161999
2.5600000000000001 -0.9008781973906949 0.2141432871949477
2.6000000000000001 -0.8992062771396540 0.2164546759202630
2.6400000000000001 -0.8975333538601857 0.2187476803344847
2.6800000000000002 -0.8958594993518585 0.2210225305316716
2.7200000000000002 -0.8941847838264799 0.2232794508177845
2.7599999999999998 -0.8925092759548406 0.2255186599556442
2.7999999999999998 -0.8908330429114359 0.2277403713957678
2.8399999999999999 -0.8891561504172832 0.2299447934940904
2.8799999999999999 -0.8874786627809448 0.2321321297174934
2.9199999999999999 -0.8858006429378573 0.2343025788379889
2.9600000000000000 -0.8841221524880645 0.2364563351163298
3.0000000000000000 -0.8824432517324361 0.2385935884757653
3.0400000000000000 -0.8807639997074632 0.2407145246665937
3.0800000000000001 -0.8790844542186975 0.2428193254221197
3.1200000000000001 -0.8774046718729122 0.2449081686065728
3.1600000000000001 -0.8757247081090479 0.2469812283554993
3.2000000000000002 -0.8740446172280065 0.2490386752091086
3.2400000000000002 -0.8723644524213531 0.2510806762390093
3.2799999999999998 -0.8706842657989775 0.2531073951687434
3.3199999999999998 -0.8690041084157683 0.2551189924884981
3.3599999999999999 -0.8673240302973479 0.2571156255643444
3.3999999999999999 -0.8656440804649127 0.2590974487423267
3.4399999999999999 -0.8639643069592206 0.2610646134477082
3.4800000000000000 -0.8622847568637675 0.2630172682796530
3.5200000000000000 -0.8606054763271864 0.2649555591016043
3.5600000000000001 -0.8589265105849109 0.2668796291276062
3.6000000000000001 -0.8572479039801277 0.2687896190047950
3.6400000000000001 -0.8555696999840599 0.2706856668922731
3.6800000000000002 -0.8538919412155990 0.2725679085365639
3.7200000000000002 -0.8522146694603258 0.2744364773438329
3.7599999999999998 -0.8505379256889363 0.2762915044490489
3.7999999999999998 -0.8488617500751041 0.2781331187822492
3.8399999999999999 -0.8471861820128005 0.2799614471320577
3.8799999999999999 -0.8455112601330943 0.2817766142066029
3.9199999999999999 -0.8438370223204553 0.2835787426919664
3.9600000000000000 -0.8421635057285779 0.2853679533082891
4.0000000000000000 -0.8404907467957468 0.2871443648636541
4.0400000000000000 -0.8388187812597604 0.2889080943058546
4.0800000000000001 -0.8371476441724350 0.2906592567721542
4.1200000000000001 -0.8354773699136956 0.2923979656371368
4.1600000000000001 -0.8338079922052795 0.2941243325587374
4.2000000000000002 -0.8321395441240630 0.2958384675225442
4.2400000000000002 -0.8304720581150236 0.2975404788844500
4.2800000000000002 -0.8288055660038531 0.2992304734117348
4.3200000000000003 -0.8271400990092382 0.3009085563226498
4.3600000000000003 -0.8254756877548100 0.3025748313245734
4.4000000000000004 -0.8238123622807875 0.3042294006508041
4.4400000000000004 -0.8221501520553164 0.3058723650960523
4.4800000000000004 -0.8204890859855163 0.3075038240506905
4.5199999999999996 -0.8188291924282511 0.3091238755338135
4.5599999999999996 -0.8171704992006226 0.3107326162251670
4.5999999999999996 -0.8155130335902085 0.3123301414959877
4.6399999999999997 -0.8138568223650415 0.3139165454388088
4.6799999999999997 -0.8122018917833493 0.3154919208962673
4.7199999999999998 -0.8105482676030535 0.3170563594889652
4.7599999999999998 -0.8088959750910435 0.3186099516424151
4.7999999999999998 -0.8072450390322259 0.3201527866131152
4.8399999999999999 -0.8055954837383634 0.3216849525137873
4.8799999999999999 -0.8039473330567032 0.3232065363378116
4.9199999999999999 -0.8023006103784056 0.3247176239828935
4.9600000000000000 -0.8006553386467803 0.3262183002739903
5.0000000000000000 -0.7990115403653294 0.3277086489855304
5.0400000000000000 -0.7973692376056134 0.3291887528629512
5.0800000000000001 -0.7957284520149359 0.3306586936435837
5.1200000000000001 -0.7940892048238579 0.3321185520769092
5.1600000000000001 -0.7924515168535461 0.3335684079442112
5.2000000000000002 -0.7908154085229584 0.3350083400776490
5.2400000000000002 -0.7891808998558735 0.3364384263787707
5.2800000000000002 -0.7875480104877665 0.3378587438364904
5.3200000000000003 -0.7859167596725384 0.3392693685445490
5.3600000000000003 -0.7842871662891007 0.3406703757184764
5.4000000000000004 -0.7826592488478199 0.3420618397120744
5.4400000000000004 -0.7810330254968275 0.3434438340334396
5.4800000000000004 -0.7794085140281973 0.3448164313605404
5.5199999999999996 -0.7777857318839935 0.3461797035563654
5.5599999999999996 -0.7761646961621964 0.3475337216836586
5.5999999999999996 -0.7745454236225033 0.3488785560192577
5.6399999999999997 -0.7729279306920145 0.3502142760680443
5.6799999999999997 -0.7713122334708019 0.3515409505765281
5.7199999999999998 -0.7696983477373671 0.3528586475460697
5.7599999999999998 -0.7680862889539906 0.3541674342457580
5.7999999999999998 -0.7664760722719720 0.3554673772249552
5.8399999999999999 -0.7648677125367715 0.3567585423255198
5.8799999999999999 -0.7632612242930474 0.3580409946937155
5.9199999999999999 -0.7616566217895954 0.3593147987918222
5.9600000000000000 -0.7600539189841942 0.3605800184094542
6.0000000000000000 -0.7584531295483552 0.3618367166745976
6.0400000000000000 -0.7568542668719841 0.3630849560643762
6.0800000000000001 -0.7552573440679522 0.3643247984155527
6.1200000000000001 -0.7536623739765802 0.3655563049347764
6.1600000000000001 -0.7520693691700396 0.3667795362085852
6.2000000000000002 -0.7504783419566715 0.3679945522131665
6.2400000000000002 -0.7488893043852221 0.3692014123238898
6.2800000000000002 -0.7473022682490049 0.3704001753246133
6.3200000000000003 -0.7457172450899813 0.3715908994167755
6.3600000000000003 -0.7441342462027685 0.3727736422282756
6.4000000000000004 -0.7425532826385768 0.3739484608221503
6.4400000000000004 -0.7409743652090688 0.3751154117050550
6.4800000000000004 -0.7393975044901575 0.3762745508355508
6.5199999999999996 -0.7378227108257286 0.3774259336322087
6.5599999999999996 -0.7362499943313019 0.3785696149815320
6.5999999999999996 -0.7346793648976236 0.3797056492457055
6.6399999999999997 -0.7331108321941976 0.3808340902701735
6.6799999999999997 -0.7315444056727536 0.3819549913910546
6.7199999999999998 -0.7299800945706542 0.3830684054423978
6.7599999999999998 -0.7284179079142427 0.3841743847632802
6.7999999999999998 -0.7268578545221336 0.3852729812047583
6.8399999999999999 -0.7252999430084448 0.3863642461366695
6.8799999999999999 -0.7237441817859751 0.3874482304542944
6.9199999999999999 -0.7221905790693268 0.3885249845848779
6.9600000000000000 -0.7206391428779744 0.3895945584940194
7.0000000000000000 -0.7190898810392833 0.3906570016919306
7.0400000000000000 -0.7175428011914752 0.3917123632395656
7.0800000000000001 -0.7159979107865435 0.3927606917546304
7.1200000000000001 -0.7144552170931218 0.3938020354174698
7.1600000000000001 -0.7129147271993015 0.3948364419768391
7.2000000000000002 -0.7113764480154056 0.3958639587555612
7.2400000000000002 -0.7098403862767142 0.3968846326560735
7.2800000000000002 -0.7083065485461462 0.3978985101658679
7.3200000000000003 -0.7067749412168944 0.3989056373628252
7.3600000000000003 -0.7052455705150226 0.3999060599204476
7.4000000000000004 -0.7037184425020134 0.4008998231129917
7.4400000000000004 -0.7021935630772804 0.4018869718205056
7.4800000000000004 -0.7006709379806371 0.4028675505337700
7.5199999999999996 -0.6991505727947236 0.4038416033591505
7.5599999999999996 -0.6976324729474008 0.4048091740233568
7.5999999999999996 -0.6961166437140976 0.4057703058781164
7.6399999999999997 -0.6946030902201279 0.4067250419047643
7.6799999999999997 -0.6930918174429667 0.4076734247187467
7.7199999999999998 -0.6915828302144904 0.4086154965740478
7.7599999999999998 -0.6900761332231834 0.4095512993675342
7.7999999999999998 -0.6885717310163071 0.4104808746432241
7.8399999999999999 -0.6870696280020372 0.4114042635964812
7.8799999999999999 -0.6855698284515670 0.4123215070781350
7.9199999999999999 -0.6840723365011757 0.4132326455985300
7.9600000000000000 -0.6825771561542667 0.4141377193315054
8.0000000000000000 -0.6810842912833746 0.4150367681183052
8.0399999999999991 -0.6795937456321388 0.4159298314714234
8.0800000000000001 -0.6781055228172479 0.4168169485783837
8.1199999999999992 -0.6766196263303536 0.4176981583054550
8.1600000000000001 -0.6751360595399567 0.4185734992013072
8.1999999999999993 -0.6736548256932622 0.4194430095006024
8.2400000000000002 -0.6721759279180072 0.4203067271275319
8.2799999999999994 -0.6706993692242598 0.4211646896992915
8.3200000000000003 -0.6692251525061924 0.4220169345295016
8.3599999999999994 -0.6677532805438277 0.4228634986315729
8.4000000000000004 -0.6662837560047554 0.4237044187220166
8.4399999999999995 -0.6648165814458274 0.4245397312237031
8.4800000000000004 -0.6633517593148245 0.4253694722690688
8.5199999999999996 -0.6618892919520996 0.4261936777032712
8.5600000000000005 -0.6604291815921945 0.4270123830872960
8.5999999999999996 -0.6589714303654362 0.4278256237010155
8.6400000000000006 -0.6575160402995026 0.4286334345461995
8.6799999999999997 -0.6560630133209733 0.4294358503494803
8.7200000000000006 -0.6546123512568517 0.4302329055652724
8.7599999999999998 -0.6531640558360661 0.4310246343786459
8.8000000000000007 -0.6517181286909494 0.4318110707081608
8.8399999999999999 -0.6502745713586944 0.4325922482086548
8.8800000000000008 -0.6488333852827926 0.4333682002739905
8.9199999999999999 -0.6473945718144459 0.4341389600397649
8.9600000000000009 -0.6459581322139631 0.4349045603859725
9.0000000000000000 -0.6445240676521321 0.4356650339396369
9.0399999999999991 -0.6430923792115733 0.4364204130773985
9.0800000000000001 -0.6416630678880743 0.4371707299280677
9.1199999999999992 -0.6402361345919045 0.4379160163751388
9.1600000000000001 -0.6388115801491099 0.4386563040592715
9.1999999999999993 -0.6373894053027904 0.4393916243807331
9.2400000000000002 -0.6359696107143574 0.4401220085018096
9.2799999999999994 -0.6345521969647749 0.4408474873491794
9.3200000000000003 -0.6331371645557813 0.4415680916162575
9.3599999999999994 -0.6317245139110934 0.4422838517655037
9.4000000000000004 -0.6303142453775965 0.4429947980307012
9.4399999999999995 -0.6289063592265107 0.4437009604192024
9.4800000000000004 -0.6275008556545494 0.4444023687141448
9.5199999999999996 -0.6260977347850533 0.4450990524766354
9.5600000000000005 -0.6246969966691122 0.4457910410479074
9.5999999999999996 -0.6232986412866710 0.4464783635514474
9.6400000000000006 -0.6219026685476197 0.4471610488950915
9.6799999999999997 -0.6205090782928648 0.4478391257730972
9.7200000000000006 -0.6191178702953917 0.4485126226681853
9.7599999999999998 -0.6177290442613063 0.4491815678535555
9.8000000000000007 -0.6163425998308648 0.4498459893948762
9.8399999999999999 -0.6149585365794884 0.4505059151522470
9.8800000000000008 -0.6135768540187648 0.4511613727821367
9.9199999999999999 -0.6121975515974326 0.4518123897392967
9.9600000000000009 -0.6108206287023553 0.4524589932786470
10.0000000000000000 -0.6094460846594804 0.4531012104571421
10.0399999999999991 -0.6080739187347842 0.4537390681356099
10.0800000000000001 -0.6067041301352049 0.4543725929805684
10.1199999999999992 -0.6053367180095608 0.4550018114660203
10.1600000000000001 -0.6039716814494583 0.4556267498752233
10.1999999999999993 -0.6026090194901849 0.4562474343024401
10.2400000000000002 -0.6012487311115912 0.4568638906546648
10.2799999999999994 -0.5998908152389598 0.4574761446533298
10.3200000000000003 -0.5985352707438631 0.4580842218359900
10.3599999999999994 -0.5971820964450080 0.4586881475579876
10.4000000000000004 -0.5958312911090698 0.4592879469940955
10.4399999999999995 -0.5944828534515156 0.4598836451401424
10.4800000000000004 -0.5931367821374132 0.4604752668146158
10.5199999999999996 -0.5917930757822316 0.4610628366602479
10.5600000000000005 -0.5904517329526306 0.4616463791455811
10.5999999999999996 -0.5891127521672366 0.4622259185665154
10.6400000000000006 -0.5877761318974124 0.4628014790478385
10.6799999999999997 -0.5864418705680114 0.4633730845447346
10.7200000000000006 -0.5851099665581247 0.4639407588442792
10.7599999999999998 -0.5837804182018176 0.4645045255669141
10.8000000000000007 -0.5824532237888552 0.4650644081679053
10.8399999999999999 -0.5811283815654188 0.4656204299387854
10.8800000000000008 -0.5798058897348108 0.4661726140087774
10.9199999999999999 -0.5784857464581526 0.4667209833462032
10.9600000000000009 -0.5771679498550721 0.4672655607598765
11.0000000000000000 -0.5758524980043803 0.4678063689004779
11.0399999999999991 -0.5745393889447401 0.4683434302619162
11.0800000000000001 -0.5732286206753259 0.4688767671826735
11.1199999999999992 -0.5719201911564744 0.4694064018471348
11.1600000000000001 -0.5706140983103258 0.4699323562869036
11.1999999999999993 -0.5693103400214572 0.4704546523821013
11.2400000000000002 -0.5680089141375061 0.4709733118626544
11.2799999999999994 -0.5667098184697874 0.4714883563095649
11.3200000000000003 -0.5654130507938995 0.4719998071561674
11.3599999999999994 -0.5641186088503258 0.4725076856893741
11.4000000000000004 -0.5628264903450232 0.4730120130509042
11.4399999999999995 -0.5615366929500082 0.4735128102384996
11.4800000000000004 -0.5602492143039300 0.4740100981071289
11.5199999999999996 -0.5589640520126389 0.4745038973701777
11.5600000000000005 -0.5576812036497468 0.4749942286006261
11.5999999999999996 -0.5564006667571785 0.4754811122322121
11.6400000000000006 -0.5551224388457171 0.4759645685605853
11.6799999999999997 -0.5538465173955424 0.4764446177444461
11.7200000000000006 -0.5525728998567597 0.4769212798066736
11.7599999999999998 -0.5513015836499247 0.4773945746354401
11.8000000000000007 -0.5500325661665578 0.4778645219853176
11.8399999999999999 -0.5487658447696553 0.4783311414783679
11.8800000000000008 -0.5475014167941904 0.4787944526052244
11.9199999999999999 -0.5462392795476091 0.4792544747261611
11.9600000000000009 -0.5449794303103204 0.4797112270721521
12.0000000000000000 -0.5437218663361759 0.4801647287459176
12.0399999999999991 -0.5424665848529496 0.4806149987229620
12.0800000000000001 -0.5412135830628039 0.4810620558525986
12.1199999999999992 -0.5399628581427556 0.4815059188589648
12.1600000000000001 -0.5387144072451303 0.4819466063420288
12.1999999999999993 -0.5374682274980161 0.4823841367785817
12.2400000000000002 -0.5362243160057067 0.4828185285232243
12.2799999999999994 -0.5349826698491409 0.4832497998093413
12.3200000000000003 -0.5337432860863344 0.4836779687500639
12.3599999999999994 -0.5325061617528101 0.4841030533392277
12.4000000000000004 -0.5312712938620160 0.4845250714523169
12.4399999999999995 -0.5300386794057439 0.4849440408473998
12.4800000000000004 -0.5288083153545378 0.4853599791660556
12.5199999999999996 -0.5275801986580994 0.4857729039342928
12.5600000000000005 -0.5263543262456883 0.4861828325634560
12.5999999999999996 -0.5251306950265145 0.4865897823511268
12.6400000000000006 -0.5239093018901291 0.4869937704820121
12.6799999999999997 -0.5226901437068054 0.4873948140288287
12.7200000000000006 -0.5214732173279193 0.4877929299531745
12.7599999999999998 -0.5202585195863227 0.4881881351063922
12.8000000000000007 -0.5190460472967102 0.4885804462304283
12.8399999999999999 -0.5178357972559845 0.4889698799586779
12.8800000000000008 -0.5166277662436137 0.4893564528168267
12.9199999999999999 -0.5154219510219852 0.4897401812236815
12.9600000000000009 -0.5142183483367559 0.4901210814919930
13.0000000000000000 -0.5130169549171947 0.4904991698292736
13.0399999999999991 -0.5118177674765242 0.4908744623386028
13.0800000000000001 -0.5106207827122549 0.4912469750194285
13.1199999999999992 -0.5094259973065149 0.4916167237683603
13.1600000000000001 -0.5082334079263795 0.4919837243799527
13.1999999999999993 -0.5070430112241893 0.4923479925474842
13.2400000000000002 -0.5058548038378700 0.4927095438637271
13.2799999999999994 -0.5046687823912451 0.4930683938217106
13.3200000000000003 -0.5034849434943461 0.4934245578154757
13.3599999999999994 -0.5023032837437152 0.4937780511408260
13.4000000000000004 -0.5011237997227095 0.4941288889960674
13.4399999999999995 -0.4999464880017940 0.4944770864827445
13.4800000000000004 -0.4987713451388389 0.4948226586063680
13.5199999999999996 -0.4975983676794041 0.4951656202771361
13.5600000000000005 -0.4964275521570278 0.4955059863106498
13.5999999999999996 -0.4952588950935062 0.4958437714286202
13.6400000000000006 -0.4940923929991709 0.4961789902595707
13.6799999999999997 -0.4929280423731632 0.4965116573395315
