! Created with skrf (http://scikit-rf.org).
# Hz S MA R 50.0 
!freq magS11 angS11 magS21 angS21 magS12 angS12 magS22 angS22
40000000.0 0.0012251848149037222 71.72896896697364 0.9996178290027458 -0.1288528939407452 0.9996178290027458 -0.1288528939407452 0.0012251848149037222 71.72896896697364
80000000.0 0.002197239608087083 70.42327438773106 0.9992703755094133 -0.24202400555253037 0.9992703755094133 -0.24202400555253037 0.002197239608087083 70.42327438773106
120000000.0 0.00307572536385893 69.34274398393275 0.9989283549017234 -0.3491913227053121 0.9989283549017234 -0.3491913227053121 0.00307572536385893 69.34274398393275
160000000.0 0.003893983514444894 68.41074834316461 0.9985892492227164 -0.4524463921011436 0.9985892492227164 -0.4524463921011436 0.003893983514444894 68.41074834316461
200000000.0 0.004667776921500963 67.580273142582 0.9982520924883916 -0.5527851314175959 0.9982520924883916 -0.5527851314175959 0.004667776921500963 67.580273142582
240000000.0 0.005406358833986071 66.82381726341396 0.9979163934230522 -0.6507951286056871 0.9979163934230522 -0.6507951286056871 0.005406358833986071 66.82381726341396
280000000.0 0.006115827095291599 66.12405312510671 0.9975818627897979 -0.7468651620215858 0.9975818627897979 -0.7468651620215858 0.006115827095291599 66.12405312510671
320000000.0 0.00680050587475719 65.46933777683009 0.997248313988211 -0.8412718652623004 0.997248313988211 -0.8412718652623004 0.00680050587475719 65.46933777683009
360000000.0 0.00746362199101018 64.85144356829329 0.9969156188030472 -0.9342222846150322 0.9969156188030472 -0.9342222846150322 0.00746362199101018 64.85144356829329
400000000.0 0.008107675737522715 64.26432116997525 0.9965836849718145 -1.025877276261394 0.9965836849718145 -1.025877276261394 0.008107675737522715 64.26432116997525
440000000.0 0.008734661404506808 63.70337931244345 0.9962524437136976 -1.1163654527431464 0.9962524437136976 -1.1163654527431464 0.008734661404506808 63.70337931244345
480000000.0 0.009346206709875642 63.16504180842074 0.9959218422988138 -1.2057920193942189 0.9959218422988138 -1.2057920193942189 0.009346206709875642 63.16504180842074
520000000.0 0.009943665299349693 62.646462487582774 0.9955918393744709 -1.2942446475951974 0.9955918393744709 -1.2942446475951974 0.009943665299349693 62.646462487582774
560000000.0 0.010528180537903522 62.145334676270515 0.9952624018947935 -1.3817975321874492 0.9952624018947935 -1.3817975321874492 0.010528180537903522 62.145334676270515
600000000.0 0.011100730931780106 61.65975972600458 0.9949335030302208 -1.4685142851340607 0.9949335030302208 -1.4685142851340607 0.011100730931780106 61.65975972600458
640000000.0 0.0116621633503822 61.188153773624265 0.9946051207008955 -1.554450055117191 0.9946051207008955 -1.554450055117191 0.0116621633503822 61.188153773624265
680000000.0 0.012213217886752796 60.729180033765296 0.9942772365212358 -1.6396531158899401 0.9942772365212358 -1.6396531158899401 0.012213217886752796 60.729180033765296
720000000.0 0.012754546831442162 60.28169860781667 0.993949835023603 -1.7241660801325265 0.993949835023603 -1.7241660801325265 0.012754546831442162 60.28169860781667
760000000.0 0.013286729404568034 59.844728596752425 0.9936229030762807 -1.8080268431205466 0.9936229030762807 -1.8080268431205466 0.013286729404568034 59.844728596752425
800000000.0 0.013810283368515244 59.41741903822546 0.9932964294397899 -1.891269327469777 0.9932964294397899 -1.891269327469777 0.013810283368515244 59.41741903822546
840000000.0 0.014325674305206901 58.99902629058839 0.9929704044236204 -1.9739240787841745 0.9929704044236204 -1.9739240787841745 0.014325674305206901 58.99902629058839
880000000.0 0.014833323116781148 58.58889620567004 0.9926448196171341 -2.05601874776386 0.9926448196171341 -2.05601874776386 0.014833323116781148 58.58889620567004
920000000.0 0.015333612155382719 58.1864499120403 0.992319667676114 -2.137578484612689 0.992319667676114 -2.137578484612689 0.015333612155382719 58.1864499120403
960000000.0 0.015826890281465538 57.791172357377555 0.9919949421516401 -2.2186262648322184 0.9919949421516401 -2.2186262648322184 0.015826890281465538 57.791172357377555
1000000000.0 0.01631347707483326 57.40260298532327 0.9916706373515739 -2.2991831607097843 0.9916706373515739 -2.2991831607097843 0.01631347707483326 57.40260298532327
1040000000.0 0.016793666368606668 57.02032808220726 0.9913467482274501 -2.3792685693699864 0.9913467482274501 -2.3792685693699864 0.016793666368606668 57.02032808220726
1080000000.0 0.017267729236877864 56.643974443623655 0.9910232702813729 -2.4589004057476593 0.9910232702813729 -2.4589004057476593 0.017267729236877864 56.643974443623655
1120000000.0 0.017735916537640763 56.27320409409685 0.9907001994888206 -2.538095266981229 0.9907001994888206 -2.538095266981229 0.017735916537640763 56.27320409409685
1160000000.0 0.01819846109073428 55.907709854358565 0.9903775322341976 -2.616868573331551 0.9903775322341976 -2.616868573331551 0.01819846109073428 55.907709854358565
1200000000.0 0.018655579553981505 55.54721159634872 0.9900552652567032 -2.6952346896743444 0.9900552652567032 -2.6952346896743444 0.018655579553981505 55.54721159634872
1240000000.0 0.019107474048021624 55.19145306043319 0.989733395604595 -2.7732070308042567 0.989733395604595 -2.7732070308042567 0.019107474048021624 55.19145306043319
1280000000.0 0.01955433357052751 54.840199135425706 0.989411920596344 -2.850798153161504 0.989411920596344 -2.850798153161504 0.01955433357052751 54.840199135425706
1320000000.0 0.01999633523284194 54.49323352209188 0.9890908377874766 -2.928019835102415 0.9890908377874766 -2.928019835102415 0.01999633523284194 54.49323352209188
1360000000.0 0.020433645346042903 54.15035671632234 0.9887701449421387 -3.004883147449244 0.9887701449421387 -3.004883147449244 0.020433645346042903 54.15035671632234
1400000000.0 0.02086642037866325 53.81138426032264 0.9884498400086071 -3.081398515748453 0.9884498400086071 -3.081398515748453 0.02086642037866325 53.81138426032264
1440000000.0 0.021294807804468022 53.47614521971622 0.9881299210981096 -3.1575757754215252 0.9881299210981096 -3.1575757754215252 0.021294807804468022 53.47614521971622
1480000000.0 0.021718946855616747 53.144480852027186 0.987810386466447 -3.233424220795069 0.987810386466447 -3.233424220795069 0.021718946855616747 53.144480852027186
1520000000.0 0.022138969194043234 52.81624343807022 0.987491234497977 -3.3089526488369474 0.987491234497977 -3.3089526488369474 0.022138969194043234 52.81624343807022
1560000000.0 0.022554999511852306 52.491295252629506 0.9871724636916207 -3.384169398294611 0.9871724636916207 -3.384169398294611 0.022554999511852306 52.491295252629506
1600000000.0 0.022967156069868634 52.16950765473955 0.9868540726485926 -3.4590823848247787 0.9868540726485926 -3.4590823848247787 0.022967156069868634 52.16950765473955
1640000000.0 0.023375551182095437 51.85076028107852 0.9865360600616115 -3.53369913261519 0.9865360600616115 -3.53369913261519 0.023375551182095437 51.85076028107852
1680000000.0 0.02378029165270339 51.53494032860064 0.9862184247053846 -3.6080268029259552 0.9862184247053846 -3.6080268029259552 0.02378029165270339 51.53494032860064
1720000000.0 0.024181479171222313 51.221941914670836 0.9859011654281991 -3.682072219916905 0.9859011654281991 -3.682072219916905 0.024181479171222313 51.221941914670836
1760000000.0 0.02457921067081173 50.91166550475835 0.9855842811444654 -3.755841894076321 0.9855842811444654 -3.755841894076321 0.02457921067081173 50.91166550475835
1800000000.0 0.024973578653821733 50.604017399197 0.9852677708280944 -3.8293420435233068 0.9852677708280944 -3.8293420435233068 0.024973578653821733 50.604017399197
1840000000.0 0.025364671488291704 50.29890927176224 0.9849516335066029 -3.9025786134199594 0.9849516335066029 -3.9025786134199594 0.025364671488291704 50.29890927176224
1880000000.0 0.02575257367855612 49.996257753834854 0.9846358682558505 -3.9755572936984804 0.9846358682558505 -3.9755572936984804 0.02575257367855612 49.996257753834854
1920000000.0 0.02613736611272319 49.6959840587872 0.9843204741953377 -4.048283535282438 0.9843204741953377 -4.048283535282438 0.02613736611272319 49.6959840587872
1960000000.0 0.026519126289442786 49.39801364195347 0.9840054504839943 -4.120762564958783 0.9840054504839943 -4.120762564958783 0.026519126289442786 49.39801364195347
2000000000.0 0.026897928526084813 49.10227589216799 0.983690796316398 -4.192999399038202 0.983690796316398 -4.192999399038202 0.026897928526084813 49.10227589216799
2040000000.0 0.027273844150194033 48.808703851371924 0.9833765109193794 -4.264998855924824 0.9833765109193794 -4.264998855924824 0.027273844150194033 48.808703851371924
2080000000.0 0.027646941675865597 48.51723395924452 0.9830625935489635 -4.336765567702086 0.9830625935489635 -4.336765567702086 0.027646941675865597 48.51723395924452
2120000000.0 0.028017286966498155 48.22780582018884 0.9827490434876128 -4.408303990829283 0.9827490434876128 -4.408303990829283 0.028017286966498155 48.22780582018884
2160000000.0 0.028384943385211983 47.940361990337664 0.9824358600417387 -4.479618416032513 0.9824358600417387 -4.479618416032513 0.028384943385211983 47.940361990337664
2200000000.0 0.028749971934079768 47.65484778252517 0.9821230425394512 -4.5507129774646256 0.9821230425394512 -4.5507129774646256 0.028749971934079768 47.65484778252517
2240000000.0 0.02911243138319056 47.37121108740962 0.9818105903285222 -4.62159166120046 0.9818105903285222 -4.62159166120046 0.02911243138319056 47.37121108740962
2280000000.0 0.029472378390457354 47.08940220915147 0.9814985027745403 -4.692258313126691 0.9814985027745403 -4.692258313126691 0.029472378390457354 47.08940220915147
2320000000.0 0.02982986761298328 46.80937371423 0.9811867792592351 -4.762716646279298 0.9811867792592351 -4.762716646279298 0.02982986761298328 46.80937371423
2360000000.0 0.03018495181071679 46.53108029213951 0.9808754191789568 -4.832970247676208 0.9808754191789568 -4.832970247676208 0.03018495181071679 46.53108029213951
2400000000.0 0.030537681943050895 46.25447862685214 0.9805644219432916 -4.903022584687851 0.9805644219432916 -4.903022584687851 0.030537681943050895 46.25447862685214
2440000000.0 0.03088810725895876 45.97952727804451 0.9802537869738057 -4.972877010984072 0.9802537869738057 -4.972877010984072 0.03088810725895876 45.97952727804451
2480000000.0 0.031236275381193543 45.70618657120911 0.979943513702897 -5.042536772092055 0.979943513702897 -5.042536772092055 0.031236275381193543 45.70618657120911
2520000000.0 0.03158223238503683 45.43441849584574 0.9796336015727497 -5.112005010596631 0.9796336015727497 -5.112005010596631 0.03158223238503683 45.43441849584574
2560000000.0 0.03192602287202696 45.164186611025954 0.9793240500343829 -5.181284771011236 0.9793240500343829 -5.181284771011236 0.03192602287202696 45.164186611025954
2600000000.0 0.032267690039062186 44.895455957690565 0.9790148585467788 -5.250379004345295 0.9790148585467788 -5.250379004345295 0.032267690039062186 44.895455957690565
2640000000.0 0.03260727574323525 44.62819297710334 0.9787060265760881 -5.319290572391277 0.9787060265760881 -5.319290572391277 0.03260727574323525 44.62819297710334
2680000000.0 0.03294482056272432 44.36236543494177 0.978397553594903 -5.388022251752652 0.978397553594903 -5.388022251752652 0.03294482056272432 44.36236543494177
2720000000.0 0.033280363854034496 44.09794235056191 0.9780894390815933 -5.4565767376320835 0.9780894390815933 -5.4565767376320835 0.033280363854034496 44.09794235056191
2760000000.0 0.033613943805861315 43.83489393100742 0.977781682519698 -5.524956647397365 0.977781682519698 -5.524956647397365 0.033613943805861315 43.83489393100742
2800000000.0 0.03394559748981903 43.57319150938923 0.9774742833973691 -5.5931645239413115 0.9774742833973691 -5.5931645239413115 0.03394559748981903 43.57319150938923
2840000000.0 0.03427536090826065 43.312807487281134 0.9771672412068609 -5.661202838850191 0.9771672412068609 -5.661202838850191 0.03427536090826065 43.312807487281134
2880000000.0 0.034603269039394834 43.05371528082045 0.9768605554440648 -5.729073995394171 0.9768605554440648 -5.729073995394171 0.034603269039394834 43.05371528082045
2920000000.0 0.03492935587988724 42.795889270228024 0.9765542256080811 -5.796780331352201 0.9765542256080811 -5.796780331352201 0.03492935587988724 42.795889270228024
2960000000.0 0.035253654485119246 42.53930475248679 0.9762482512008277 -5.864324121682522 0.9762482512008277 -5.864324121682522 0.035253654485119246 42.53930475248679
3000000000.0 0.035576197007264075 42.28393789694004 0.9759426317266793 -5.931707581049334 0.9759426317266793 -5.931707581049334 0.035576197007264075 42.28393789694004
3040000000.0 0.03589701473132574 42.02976570359337 0.9756373666921413 -5.998932866215119 0.9756373666921413 -5.998932866215119 0.03589701473132574 42.02976570359337
3080000000.0 0.0362161381092736 41.776765963925506 0.9753324556055459 -6.066002078307437 0.9753324556055459 -6.066002078307437 0.0362161381092736 41.776765963925506
3120000000.0 0.03653359679240018 41.52491722402179 0.9750278979767766 -6.132917264968438 0.9750278979767766 -6.132917264968438 0.03653359679240018 41.52491722402179
3160000000.0 0.036849419662013445 41.274198749867445 0.9747236933170168 -6.199680422394401 0.9747236933170168 -6.199680422394401 0.036849419662013445 41.274198749867445
3200000000.0 0.037163634858569564 41.02459049465118 0.9744198411385148 -6.266293497272461 0.9744198411385148 -6.266293497272461 0.037163634858569564 41.02459049465118
3240000000.0 0.03747626980934699 40.77607306793187 0.974116340954374 -6.332758388620784 0.974116340954374 -6.332758388620784 0.03747626980934699 40.77607306793187
3280000000.0 0.037787351254747574 40.52862770654828 0.9738131922783586 -6.39907694953818 0.9738131922783586 -6.39907694953818 0.037787351254747574 40.52862770654828
3320000000.0 0.038096905273312956 40.28223624714915 0.9735103946247149 -6.465250988868717 0.9735103946247149 -6.465250988868717 0.038096905273312956 40.28223624714915
3360000000.0 0.038404957305531076 40.03688110023488 0.9732079475080093 -6.531282272786347 0.9732079475080093 -6.531282272786347 0.038404957305531076 40.03688110023488
3400000000.0 0.03871153217650654 39.79254522561341 0.9729058504429806 -6.59717252630442 0.9729058504429806 -6.59717252630442 0.03871153217650654 39.79254522561341
3440000000.0 0.039016654117561306 39.54921210917489 0.972604102944404 -6.662923434714352 0.972604102944404 -6.662923434714352 0.039016654117561306 39.54921210917489
3480000000.0 0.03932034678682776 39.30686574090186 0.9723027045269678 -6.728536644957686 0.9723027045269678 -6.728536644957686 0.03932034678682776 39.30686574090186
3520000000.0 0.03962263328889455 39.065490594032994 0.9720016547051616 -6.794013766935303 0.9720016547051616 -6.794013766935303 0.03962263328889455 39.065490594032994
3560000000.0 0.03992353619355405 38.82507160531319 0.9717009529931733 -6.859356374757322 0.9717009529931733 -6.859356374757322 0.03992353619355405 38.82507160531319
3600000000.0 0.04022307755370931 38.585594156253265 0.9714005989047966 -6.924566007937079 0.9714005989047966 -6.924566007937079 0.04022307755370931 38.585594156253265
3640000000.0 0.04052127892248061 38.347044055346046 0.971100591953347 -6.989644172532249 0.971100591953347 -6.989644172532249 0.04052127892248061 38.347044055346046
3680000000.0 0.04081816136955994 38.1094075211739 0.9708009316515873 -7.054592342236009 0.9708009316515873 -7.054592342236009 0.04081816136955994 38.1094075211739
3720000000.0 0.04111374549685289 37.87267116635605 0.9705016175116556 -7.119411959420927 0.9705016175116556 -7.119411959420927 0.04111374549685289 37.87267116635605
3760000000.0 0.04140805145344609 37.63682198228644 0.9702026490450064 -7.184104436138186 0.9702026490450064 -7.184104436138186 0.04140805145344609 37.63682198228644
3800000000.0 0.04170109894993771 37.40184732461307 0.9699040257623551 -7.248671155074441 0.9699040257623551 -7.248671155074441 0.04170109894993771 37.40184732461307
3840000000.0 0.041992907272162636 37.16773489941613 0.9696057471736261 -7.31311347046856 0.9696057471736261 -7.31311347046856 0.041992907272162636 37.16773489941613
3880000000.0 0.042283495294345205 36.93447275004654 0.9693078127879121 -7.37743270899033 0.9693078127879121 -7.37743270899033 0.042283495294345205 36.93447275004654
3920000000.0 0.04257288149170981 36.702049244582774 0.9690102221134321 -7.44163017058311 0.9690102221134321 -7.44163017058311 0.04257288149170981 36.702049244582774
3960000000.0 0.04286108395257463 36.47045306387457 0.9687129746574991 -7.5057071292722 0.9687129746574991 -7.5057071292722 0.04286108395257463 36.47045306387457
4000000000.0 0.0431481203899577 36.23967319013944 0.9684160699264884 -7.569664833940758 0.9684160699264884 -7.569664833940758 0.0431481203899577 36.23967319013944
4040000000.0 0.04343400815271699 36.009698896079705 0.9681195074258133 -7.633504509074757 0.9681195074258133 -7.633504509074757 0.04343400815271699 36.009698896079705
4080000000.0 0.043718764236250054 35.78051973449346 0.9678232866599012 -7.697227355478616 0.9678232866599012 -7.697227355478616 0.043718764236250054 35.78051973449346
4120000000.0 0.04400240529277369 35.5521255283508 0.967527407132176 -7.760834550962893 0.967527407132176 -7.760834550962893 0.04400240529277369 35.5521255283508
4160000000.0 0.04428494764120302 35.32450636131219 0.9672318683450396 -7.82432725100538 0.9672318683450396 -7.82432725100538 0.04428494764120302 35.32450636131219
4200000000.0 0.04456640727665297 35.097652568661694 0.9669366697998644 -7.887706589386915 0.9669366697998644 -7.887706589386915 0.04456640727665297 35.097652568661694
4240000000.0 0.04484679987957417 34.871554728638664 0.9666418109969762 -7.950973678803085 0.9666418109969762 -7.950973678803085 0.04484679987957417 34.871554728638664
4280000000.0 0.045126140824547904 34.64620365414048 0.9663472914356526 -8.014129611452972 0.9663472914356526 -8.014129611452972 0.045126140824547904 34.64620365414048
4320000000.0 0.04540444518874929 34.42159038478223 0.9660531106141137 -8.077175459605936 0.9660531106141137 -8.077175459605936 0.04540444518874929 34.42159038478223
4360000000.0 0.04568172776009938 34.19770617929199 0.965759268029522 -8.140112276147633 0.965759268029522 -8.140112276147633 0.04568172776009938 34.19770617929199
4400000000.0 0.045958003045116394 33.97454250822572 0.9654657631779783 -8.202941095105968 0.9654657631779783 -8.202941095105968 0.045958003045116394 33.97454250822572
4440000000.0 0.04623328527648261 33.75209104698553 0.9651725955545234 -8.265662932158104 0.9651725955545234 -8.265662932158104 0.04623328527648261 33.75209104698553
4480000000.0 0.04650758842033944 33.53034366912555 0.9648797646531432 -8.328278785119297 0.9648797646531432 -8.328278785119297 0.04650758842033944 33.53034366912555
4520000000.0 0.046780926183320436 33.309292439931596 0.9645872699667666 -8.39078963441431 0.9645872699667666 -8.39078963441431 0.046780926183320436 33.309292439931596
4560000000.0 0.04705331201933741 33.08892961026073 0.9642951109872778 -8.453196443532272 0.9642951109872778 -8.453196443532272 0.04705331201933741 33.08892961026073
4600000000.0 0.047324759136127534 32.86924761062905 0.9640032872055173 -8.515500159465663 0.9640032872055173 -8.515500159465663 0.047324759136127534 32.86924761062905
4640000000.0 0.047595280501574175 32.650239045533866 0.9637117981112922 -8.577701713134124 0.9637117981112922 -8.577701713134124 0.047595280501574175 32.650239045533866
4680000000.0 0.04786488884980899 32.4318966880007 0.9634206431933865 -8.639802019793674 0.9634206431933865 -8.639802019793674 0.04786488884980899 32.4318966880007
4720000000.0 0.048133596687107046 32.214213474343275 0.9631298219395674 -8.701801979432116 0.9631298219395674 -8.701801979432116 0.048133596687107046 32.214213474343275
4760000000.0 0.04840141629758101 31.99718249912789 0.9628393338366004 -8.763702477151002 0.9628393338366004 -8.763702477151002 0.04840141629758101 31.99718249912789
