! Created with skrf (http://scikit-rf.org).
# Hz S MA R 50.0 
!freq magS11 angS11
40000000.0 1.0 -0.062144725114045826
80000000.0 0.9999999999999999 -0.12323162894711716
120000000.0 1.0 -0.18391920824214283
160000000.0 1.0 -0.24434740885419404
200000000.0 0.9999999999999999 -0.3045826788332395
240000000.0 1.0000000000000002 -0.36466414220851884
280000000.0 1.0000000000000002 -0.4246176401910238
320000000.0 1.0 -0.4844615301815001
360000000.0 1.0 -0.5442095301941092
400000000.0 1.0000000000000002 -0.603872281247043
440000000.0 1.0 -0.6634582779564671
480000000.0 1.0000000000000002 -0.7229744577698378
520000000.0 1.0 -0.7824265923791534
560000000.0 0.9999999999999999 -0.8418195579777916
600000000.0 1.0 -0.9011575279085834
640000000.0 0.9999999999999999 -0.9604441137145276
680000000.0 1.0000000000000002 -1.0196824707927936
720000000.0 1.0 -1.0788753791059806
760000000.0 0.9999999999999999 -1.1380253059044954
800000000.0 0.9999999999999998 -1.1971344552093637
840000000.0 1.0 -1.2562048073749925
880000000.0 1.0 -1.31523815109999
920000000.0 1.0000000000000002 -1.3742361096064646
960000000.0 1.0 -1.4332001622582748
1000000000.0 1.0 -1.492131662570315
1040000000.0 0.9999999999999998 -1.5510318533319507
1080000000.0 0.9999999999999999 -1.609901879400495
1120000000.0 1.0 -1.6687427985968792
1160000000.0 0.9999999999999999 -1.7275555910428935
1200000000.0 0.9999999999999998 -1.7863411672090488
1240000000.0 0.9999999999999999 -1.84510037488824
1280000000.0 1.0 -1.9038340052686558
1320000000.0 1.0 -1.9625427982468466
1360000000.0 1.0 -2.0212274470961895
1400000000.0 1.0 -2.0798886025856453
1440000000.0 1.0 -2.138526876627403
1480000000.0 1.0 -2.197142845518908
1520000000.0 0.9999999999999998 -2.255737052834133
1560000000.0 1.0 -2.314310012010276
1600000000.0 1.0 -2.3728622086689692
1640000000.0 0.9999999999999999 -2.431394102705205
1680000000.0 1.0 -2.489906130172327
1720000000.0 1.0000000000000002 -2.548398704987393
1760000000.0 1.0 -2.6068722204777757
1800000000.0 0.9999999999999999 -2.6653270507871034
1840000000.0 1.0000000000000002 -2.723763552156132
1880000000.0 1.0 -2.7821820640921917
1920000000.0 0.9999999999999999 -2.840582910439029
1960000000.0 1.0 -2.898966400357454
2000000000.0 1.0000000000000002 -2.9573328292259013
2040000000.0 1.0000000000000002 -3.0156824794688917
2080000000.0 1.0000000000000002 -3.074015621320482
2120000000.0 1.0 -3.132332513528974
2160000000.0 0.9999999999999999 -3.190633404008392
2200000000.0 0.9999999999999999 -3.248918530441688
2240000000.0 0.9999999999999998 -3.307188120840057
2280000000.0 0.9999999999999999 -3.3654423940622733
2320000000.0 0.9999999999999999 -3.4236815602975694
2360000000.0 1.0 -3.4819058215152046
2400000000.0 1.0 -3.5401153718835285
2440000000.0 0.9999999999999999 -3.598310398161092
2480000000.0 1.0 -3.6564910800621186
2520000000.0 1.0 -3.7146575905983634
2560000000.0 0.9999999999999999 -3.772810096399278
2600000000.0 1.0000000000000002 -3.8309487580121337
2640000000.0 0.9999999999999999 -3.889073730183696
2680000000.0 1.0 -3.947185162124792
2720000000.0 0.9999999999999999 -4.0052831977590975
2760000000.0 0.9999999999999999 -4.063367975957268
2800000000.0 1.0 -4.121439630757511
2840000000.0 1.0000000000000002 -4.179498291573526
2880000000.0 0.9999999999999999 -4.237544083390743
2920000000.0 1.0 -4.2955771269516445
2960000000.0 1.0 -4.3535975389309405
3000000000.0 0.9999999999999999 -4.41160543210126
3040000000.0 0.9999999999999999 -4.46960091549
3080000000.0 1.0 -4.527584094527933
3120000000.0 1.0 -4.585555071190089
3160000000.0 0.9999999999999997 -4.643513944129377
3200000000.0 1.0 -4.701460808803501
3240000000.0 1.0 -4.7593957575954695
3280000000.0 1.0 -4.817318879928192
3320000000.0 1.0 -4.8752302623734485
3360000000.0 1.0000000000000002 -4.933129988755653
3400000000.0 1.0 -4.991018140250631
3440000000.0 1.0000000000000002 -5.048894795479768
3480000000.0 1.0000000000000002 -5.10676003059978
3520000000.0 1.0 -5.164613919388349
3560000000.0 0.9999999999999999 -5.222456533325869
3600000000.0 1.0 -5.280287941673516
3640000000.0 1.0 -5.338108211547846
3680000000.0 1.0 -5.39591740799213
3720000000.0 0.9999999999999998 -5.4537155940445565
3760000000.0 0.9999999999999999 -5.511502830803524
3800000000.0 1.0000000000000002 -5.569279177490155
3840000000.0 1.0000000000000002 -5.627044691508169
3880000000.0 1.0 -5.684799428501265
3920000000.0 0.9999999999999999 -5.742543442408131
3960000000.0 1.0 -5.800276785515221
4000000000.0 1.0000000000000002 -5.857999508507398
4040000000.0 1.0000000000000002 -5.915711660516539
4080000000.0 1.0 -5.973413289168227
4120000000.0 1.0 -6.031104440626611
4160000000.0 0.9999999999999999 -6.088785159637523
4200000000.0 1.0000000000000002 -6.146455489569934
4240000000.0 1.0 -6.204115472455846
4280000000.0 1.0 -6.26176514902865
4320000000.0 1.0 -6.319404558760083
4360000000.0 0.9999999999999999 -6.377033739895796
4400000000.0 1.0 -6.434652729489633
4440000000.0 1.0 -6.492261563436645
4480000000.0 1.0 -6.54986027650493
4520000000.0 0.9999999999999999 -6.607448902366333
4560000000.0 1.0 -6.665027473626069
4600000000.0 1.0 -6.722596021851274
4640000000.0 1.0 -6.780154577598621
4680000000.0 1.0000000000000002 -6.837703170440917
4720000000.0 1.0 -6.8952418289928605
4760000000.0 0.9999999999999999 -6.952770580935864
4800000000.0 0.9999999999999999 -7.010289453042084
4840000000.0 0.9999999999999999 -7.0677984711976505
4880000000.0 1.0 -7.1252976604250975
4920000000.0 0.9999999999999999 -7.182787044905093
4960000000.0 0.9999999999999999 -7.240266647997441
5000000000.0 1.0 -7.297736492261422
5040000000.0 1.0000000000000002 -7.355196599475487
5080000000.0 0.9999999999999999 -7.412646990656293
5120000000.0 0.9999999999999999 -7.470087686077193
5160000000.0 1.0 -7.527518705286098
5200000000.0 0.9999999999999998 -7.584940067122821
5240000000.0 1.0 -7.642351789735885
5280000000.0 1.0000000000000002 -7.699753890598795
5320000000.0 0.9999999999999999 -7.75714638652585
5360000000.0 1.0000000000000002 -7.814529293687439
5400000000.0 0.9999999999999998 -7.871902627624938
5440000000.0 0.9999999999999999 -7.929266403265117
5480000000.0 0.9999999999999999 -7.986620634934146
5520000000.0 1.0000000000000002 -8.043965336371196
5560000000.0 1.0 -8.101300520741635
5600000000.0 1.0 -8.158626200649845
5640000000.0 0.9999999999999999 -8.215942388151706
5680000000.0 0.9999999999999999 -8.273249094766669
5720000000.0 0.9999999999999999 -8.330546331489552
5760000000.0 0.9999999999999998 -8.387834108801952
5800000000.0 1.0 -8.445112436683381
5840000000.0 0.9999999999999999 -8.502381324622082
5880000000.0 0.9999999999999999 -8.559640781625546
5920000000.0 0.9999999999999998 -8.616890816230754
5960000000.0 1.0000000000000002 -8.67413143651411
6000000000.0 0.9999999999999999 -8.731362650101183
6040000000.0 1.0 -8.788584464176099
6080000000.0 1.0 -8.845796885490751
6120000000.0 1.0 -8.902999920373727
6160000000.0 0.9999999999999999 -8.96019357473906
6200000000.0 0.9999999999999998 -9.017377854094683
6240000000.0 1.0 -9.074552763550695
6280000000.0 1.0 -9.131718307827459
6320000000.0 1.0000000000000002 -9.188874491263423
6360000000.0 1.0 -9.246021317822795
6400000000.0 1.0 -9.303158791102994
6440000000.0 0.9999999999999999 -9.36028691434195
6480000000.0 0.9999999999999999 -9.417405690425184
6520000000.0 1.0000000000000002 -9.474515121892761
6560000000.0 0.9999999999999999 -9.531615210946017
6600000000.0 0.9999999999999999 -9.58870595945418
6640000000.0 0.9999999999999999 -9.645787368960777
6680000000.0 1.0 -9.702859440689943
6720000000.0 1.0 -9.759922175552552
6760000000.0 1.0000000000000002 -9.816975574152169
6800000000.0 1.0 -9.874019636790932
6840000000.0 0.9999999999999999 -9.931054363475248
6880000000.0 1.0 -9.988079753921378
6920000000.0 0.9999999999999999 -10.045095807560863
6960000000.0 0.9999999999999999 -10.102102523545883
7000000000.0 0.9999999999999998 -10.159099900754429
7040000000.0 0.9999999999999999 -10.216087937795393
7080000000.0 1.0 -10.273066633013558
7120000000.0 0.9999999999999999 -10.330035984494433
7160000000.0 1.0 -10.386995990069005
7200000000.0 1.0 -10.4439466473184
7240000000.0 1.0000000000000002 -10.50088795357842
7280000000.0 1.0 -10.557819905943974
7320000000.0 1.0000000000000002 -10.61474250127344
7360000000.0 1.0 -10.671655736192905
7400000000.0 1.0 -10.728559607100344
7440000000.0 1.0 -10.785454110169676
7480000000.0 1.0000000000000002 -10.842339241354749
7520000000.0 1.0000000000000002 -10.899214996393255
7560000000.0 1.0000000000000002 -10.956081370810555
7600000000.0 1.0 -11.012938359923382
7640000000.0 0.9999999999999999 -11.069785958843536
7680000000.0 1.0 -11.126624162481475
7720000000.0 1.0000000000000002 -11.18345296554979
7760000000.0 1.0000000000000002 -11.240272362566682
7800000000.0 1.0 -11.297082347859314
7840000000.0 0.9999999999999999 -11.35388291556713
7880000000.0 0.9999999999999999 -11.41067405964506
7920000000.0 0.9999999999999999 -11.467455773866723
7960000000.0 1.0 -11.524228051827512
8000000000.0 1.0000000000000002 -11.580990886947669
8040000000.0 1.0 -11.637744272475228
8080000000.0 0.9999999999999999 -11.69448820148898
8120000000.0 0.9999999999999999 -11.751222666901326
8160000000.0 0.9999999999999999 -11.807947661461109
8200000000.0 1.0 -11.864663177756338
8240000000.0 1.0000000000000002 -11.92136920821694
8280000000.0 0.9999999999999998 -11.978065745117389
8320000000.0 1.0 -12.03475278057931
8360000000.0 1.0 -12.091430306574061
8400000000.0 1.0 -12.14809831492521
8440000000.0 1.0000000000000002 -12.204756797311015
8480000000.0 1.0 -12.26140574526682
8520000000.0 1.0 -12.318045150187462
8560000000.0 0.9999999999999999 -12.374675003329566
8600000000.0 1.0 -12.431295295813827
8640000000.0 1.0 -12.487906018627289
8680000000.0 0.9999999999999999 -12.544507162625502
8720000000.0 1.0 -12.601098718534722
8760000000.0 1.0000000000000002 -12.657680676953987
8800000000.0 1.0 -12.714253028357273
8840000000.0 0.9999999999999999 -12.77081576309547
8880000000.0 1.0 -12.827368871398443
8920000000.0 1.0000000000000002 -12.883912343376986
8960000000.0 0.9999999999999999 -12.940446169024762
9000000000.0 1.0 -12.996970338220232
9040000000.0 1.0 -13.053484840728494
9080000000.0 0.9999999999999999 -13.109989666203179
9120000000.0 0.9999999999999999 -13.166484804188197
9160000000.0 0.9999999999999998 -13.22297024411957
9200000000.0 0.9999999999999999 -13.279445975327153
9240000000.0 1.0 -13.335911987036361
9280000000.0 0.9999999999999999 -13.392368268369866
9320000000.0 1.0 -13.44881480834924
9360000000.0 0.9999999999999998 -13.505251595896619
9400000000.0 1.0 -13.561678619836277
9440000000.0 0.9999999999999999 -13.618095868896235
9480000000.0 0.9999999999999998 -13.67450333170981
9520000000.0 0.9999999999999999 -13.730900996817118
9560000000.0 1.0 -13.787288852666613
9600000000.0 1.0 -13.843666887616541
9640000000.0 0.9999999999999998 -13.900035089936413
9680000000.0 0.9999999999999999 -13.956393447808432
9720000000.0 0.9999999999999998 -14.012741949328896
9760000000.0 1.0 -14.069080582509578
9800000000.0 1.0 -14.125409335279127
9840000000.0 1.0000000000000002 -14.18172819548436
9880000000.0 1.0000000000000002 -14.238037150891635
9920000000.0 0.9999999999999999 -14.294336189188092
9960000000.0 1.0 -14.350625297982997
10000000000.0 1.0000000000000002 -14.406904464808962
10040000000.0 1.0 -14.4631736771232
10080000000.0 1.0 -14.519432922308741
10120000000.0 1.0000000000000002 -14.575682187675648
10160000000.0 1.0 -14.631921460462193
10200000000.0 0.9999999999999999 -14.688150727836012
10240000000.0 1.0 -14.744369976895278
10280000000.0 1.0 -14.80057919466982
10320000000.0 1.0 -14.85677836812225
10360000000.0 1.0 -14.912967484149034
10400000000.0 1.0000000000000002 -14.969146529581602
10440000000.0 0.9999999999999998 -15.0253154911874
10480000000.0 1.0 -15.081474355670952
10520000000.0 0.9999999999999999 -15.13762310967486
10560000000.0 1.0 -15.19376173978089
10600000000.0 1.0000000000000002 -15.24989023251091
10640000000.0 1.0000000000000002 -15.306008574327914
10680000000.0 0.9999999999999998 -15.362116751636993
10720000000.0 1.0000000000000002 -15.418214750786287
10760000000.0 1.0 -15.474302558067954
10800000000.0 0.9999999999999999 -15.530380159719083
10840000000.0 1.0 -15.586447541922633
10880000000.0 1.0 -15.64250469080832
10920000000.0 0.9999999999999999 -15.698551592453532
10960000000.0 1.0 -15.754588232884197
11000000000.0 1.0 -15.810614598075682
11040000000.0 1.0 -15.8666306739536
11080000000.0 1.0000000000000002 -15.92263644639472
11120000000.0 1.0 -15.97863190122774
11160000000.0 1.0000000000000002 -16.03461702423415
11200000000.0 0.9999999999999998 -16.090591801149053
11240000000.0 0.9999999999999999 -16.14655621766192
11280000000.0 1.0 -16.202510259417416
11320000000.0 1.0 -16.258453912016165
11360000000.0 0.9999999999999999 -16.314387161015546
11400000000.0 1.0 -16.3703099919304
11440000000.0 0.9999999999999998 -16.42622239023382
11480000000.0 1.0 -16.482124341357896
11520000000.0 1.0000000000000002 -16.53801583069439
11560000000.0 1.0000000000000002 -16.593896843595523
11600000000.0 0.9999999999999999 -16.649767365374643
11640000000.0 0.9999999999999999 -16.705627381306922
11680000000.0 1.0000000000000002 -16.761476876630073
11720000000.0 1.0000000000000002 -16.817315836545013
11760000000.0 1.0 -16.873144246216555
11800000000.0 1.0 -16.928962090774036
11840000000.0 1.0 -16.984769355312025
11880000000.0 1.0 -17.04056602489092
11920000000.0 1.0 -17.09635208453762
11960000000.0 0.9999999999999999 -17.152127519246157
12000000000.0 1.0000000000000002 -17.207892313978284
12040000000.0 1.0000000000000002 -17.263646453664144
12080000000.0 1.0000000000000002 -17.31938992320283
12120000000.0 1.0 -17.375122707463017
12160000000.0 1.0 -17.43084479128353
12200000000.0 1.0 -17.486556159473945
12240000000.0 0.9999999999999999 -17.542256796815163
12280000000.0 1.0 -17.597946688060002
12320000000.0 1.0000000000000002 -17.65362581793371
12360000000.0 1.0 -17.709294171134573
12400000000.0 0.9999999999999999 -17.764951732334424
12440000000.0 1.0000000000000002 -17.820598486179232
12480000000.0 0.9999999999999999 -17.876234417289595
12520000000.0 0.9999999999999999 -17.931859510261308
12560000000.0 0.9999999999999999 -17.987473749665842
12600000000.0 1.0000000000000002 -18.043077120050906
12640000000.0 0.9999999999999997 -18.09866960594095
12680000000.0 0.9999999999999999 -18.154251191837645
12720000000.0 1.0000000000000002 -18.209821862220398
12760000000.0 1.0000000000000002 -18.26538160154687
12800000000.0 0.9999999999999999 -18.320930394253395
12840000000.0 1.0 -18.37646822475556
12880000000.0 0.9999999999999998 -18.431995077448605
12920000000.0 1.0 -18.487510936707903
12960000000.0 1.0000000000000002 -18.54301578688948
13000000000.0 0.9999999999999998 -18.59850961233038
13040000000.0 1.0 -18.653992397349242
13080000000.0 1.0 -18.70946412624662
13120000000.0 1.0 -18.76492478330553
13160000000.0 1.0000000000000002 -18.82037435279185
13200000000.0 0.9999999999999998 -18.875812818954735
13240000000.0 1.0 -18.931240166027063
13280000000.0 0.9999999999999999 -18.986656378225895
13320000000.0 0.9999999999999999 -19.04206143975282
13360000000.0 1.0000000000000002 -19.09745533479444
13400000000.0 1.0 -19.15283804752276
13440000000.0 1.0 -19.208209562095547
13480000000.0 1.0 -19.263569862656816
13520000000.0 1.0 -19.318918933337148
13560000000.0 1.0 -19.374256758254138
13600000000.0 1.0 -19.42958332151275
13640000000.0 0.9999999999999998 -19.484898607205732
13680000000.0 0.9999999999999998 -19.540202599413938
13720000000.0 1.0 -19.59549528220678
13760000000.0 0.9999999999999999 -19.65077663964255
13800000000.0 1.0000000000000002 -19.706046655768787
13840000000.0 1.0 -19.76130531462268
13880000000.0 0.9999999999999999 -19.816552600231372
13920000000.0 0.9999999999999999 -19.871788496612353
13960000000.0 1.0 -19.927012987773825
14000000000.0 0.9999999999999997 -19.982226057715
14040000000.0 1.0000000000000002 -20.037427690426494
14080000000.0 1.0 -20.092617869890628
14120000000.0 0.9999999999999999 -20.147796580081813
14160000000.0 1.0000000000000002 -20.202963804966824
14200000000.0 1.0 -20.258119528505176
14240000000.0 0.9999999999999999 -20.313263734649464
14280000000.0 0.9999999999999999 -20.368396407345614
14320000000.0 1.0000000000000002 -20.42351753053327
14360000000.0 0.9999999999999998 -20.478627088146098
14400000000.0 0.9999999999999999 -20.53372506411207
14440000000.0 1.0 -20.588811442353826
14480000000.0 0.9999999999999999 -20.64388620678891
14520000000.0 1.0000000000000002 -20.69894934133015
14560000000.0 1.0 -20.7540008298859
14600000000.0 1.0 -20.80904065636039
14640000000.0 1.0000000000000002 -20.864068804653936
14680000000.0 1.0 -20.91908525866337
14720000000.0 1.0 -20.974090002282157
14760000000.0 1.0 -21.029083019400844
14800000000.0 0.9999999999999998 -21.08406429390723
14840000000.0 1.0 -21.139033809686683
14880000000.0 0.9999999999999999 -21.19399155062245
14920000000.0 1.0 -21.24893750059588
14960000000.0 1.0 -21.303871643486723
15000000000.0 0.9999999999999999 -21.358793963173376
15040000000.0 0.9999999999999999 -21.413704443533206
15080000000.0 0.9999999999999999 -21.468603068442754
15120000000.0 0.9999999999999998 -21.52348982177801
15160000000.0 0.9999999999999998 -21.57836468741469
15200000000.0 1.0 -21.63322764922849
15240000000.0 0.9999999999999997 -21.688078691095313
15280000000.0 0.9999999999999999 -21.74291779689156
15320000000.0 1.0 -21.797744950494344
15360000000.0 0.9999999999999999 -21.852560135781758
15400000000.0 1.0 -21.907363336633107
15440000000.0 0.9999999999999999 -21.96215453692916
15480000000.0 1.0000000000000002 -22.016933720552373
15520000000.0 1.0 -22.071700871387176
15560000000.0 1.0 -22.126455973320095
15600000000.0 1.0 -22.181199010240146
15640000000.0 0.9999999999999999 -22.23592996603892
15680000000.0 0.9999999999999997 -22.290648824610894
15720000000.0 1.0 -22.345355569853606
15760000000.0 0.9999999999999998 -22.40005018566795
15800000000.0 1.0 -22.454732655958324
15840000000.0 1.0 -22.50940296463289
15880000000.0 1.0 -22.564061095603773
15920000000.0 0.9999999999999999 -22.618707032787285
15960000000.0 1.0 -22.67334076010416
16000000000.0 0.9999999999999999 -22.72796226147972
16040000000.0 0.9999999999999998 -22.78257152084413
16080000000.0 1.0 -22.83716852213257
16120000000.0 1.0 -22.891753249285447
16160000000.0 0.9999999999999998 -22.946325686248638
16200000000.0 1.0 -23.00088581697366
16240000000.0 1.0 -23.055433625417834
16280000000.0 1.0 -23.109969095544564
16320000000.0 0.9999999999999999 -23.164492211323488
16360000000.0 1.0000000000000004 -23.21900295673064
16400000000.0 1.0 -23.273501315748724
16440000000.0 0.9999999999999997 -23.327987272367235
16480000000.0 0.9999999999999999 -23.382460810582696
16520000000.0 0.9999999999999999 -23.436921914398802
16560000000.0 0.9999999999999999 -23.491370567826642
16600000000.0 1.0000000000000002 -23.54580675488486
16640000000.0 1.0000000000000002 -23.600230459599867
16680000000.0 0.9999999999999999 -23.654641666005986
16720000000.0 1.0 -23.709040358145668
16760000000.0 0.9999999999999999 -23.763426520069633
16800000000.0 1.0 -23.81780013583706
16840000000.0 1.0 -23.872161189515797
16880000000.0 1.0 -23.926509665182472
16920000000.0 0.9999999999999999 -23.980845546922705
16960000000.0 0.9999999999999999 -24.035168818831288
17000000000.0 1.0 -24.089479465012317
17040000000.0 1.0 -24.14377746957937
17080000000.0 1.0 -24.198062816655714
17120000000.0 1.0 -24.252335490374403
17160000000.0 1.0 -24.30659547487848
17200000000.0 1.0 -24.360842754321137
17240000000.0 1.0 -24.415077312865893
17280000000.0 0.9999999999999999 -24.46929913468669
17320000000.0 0.9999999999999999 -24.52350820396812
17360000000.0 0.9999999999999999 -24.577704504905522
17400000000.0 1.0 -24.631888021705198
17440000000.0 1.0000000000000002 -24.686058738584517
17480000000.0 0.9999999999999999 -24.74021663977208
17520000000.0 1.0 -24.79436170950788
17560000000.0 0.9999999999999999 -24.848493932043443
17600000000.0 1.0000000000000002 -24.902613291641995
