#    GHz    S    RI    R    50    

0.0400000000000000 0.9999996156248462 -0.0008767839868767
0.0800000000000000 0.9999984689699196 -0.0017498736573326
0.1200000000000000 0.9999965697116047 -0.0026192680320832
0.1600000000000000 0.9999939274870047 -0.0034849661569757
0.2000000000000000 0.9999905518938705 -0.0043469671027251
0.2400000000000000 0.9999864524905302 -0.0052052699646515
0.2800000000000000 0.9999816387958189 -0.0060598738624186
0.3200000000000000 0.9999761202890132 -0.0069107779397732
0.3600000000000000 0.9999699064097637 -0.0077579813642847
0.4000000000000000 0.9999630065580297 -0.0086014833270869
0.4400000000000000 0.9999554300940162 -0.0094412830426196
0.4800000000000000 0.9999471863381125 -0.0102773797483718
0.5200000000000000 0.9999382845708288 -0.0111097727046255
0.5600000000000001 0.9999287340327381 -0.0119384611942007
0.6000000000000000 0.9999185439244181 -0.0127634445222015
0.6400000000000000 0.9999077234063924 -0.0135847220157623
0.6800000000000000 0.9998962815990750 -0.0144022930237963
0.7200000000000000 0.9998841387484786 -0.0152219932733221
0.7600000000000000 0.9998710383806646 -0.0160594709617558
0.8000000000000000 0.9998572510347996 -0.0168960809992610
0.8400000000000000 0.9998427788751030 -0.0177318225603504
0.8800000000000000 0.9998276240649082 -0.0185666948248966
0.9200000000000000 0.9998117887666472 -0.0194006969781216
0.9600000000000000 0.9997952751418385 -0.0202338282105845
1.0000000000000000 0.9997780853510695 -0.0210660877181712
1.0400000000000000 0.9997602215539844 -0.0218974747020825
1.0800000000000001 0.9997416859092687 -0.0227279883688231
1.1200000000000001 0.9997224805746355 -0.0235576279301901
1.1599999999999999 0.9997026077068120 -0.0243863926032616
1.2000000000000000 0.9996820694615223 -0.0252142816103855
1.2400000000000000 0.9996608679934782 -0.0260412941791679
1.2800000000000000 0.9996390054563603 -0.0268674295424617
1.3200000000000001 0.9996164840028071 -0.0276926869383550
1.3600000000000001 0.9995933057844004 -0.0285170656101599
1.3999999999999999 0.9995693917628586 -0.0293433306021810
1.4399999999999999 0.9995447136672042 -0.0301722617638584
1.4800000000000000 0.9995193641037509 -0.0310006577613085
1.5200000000000000 0.9994933443773825 -0.0318285177995345
1.5600000000000001 0.9994666557934379 -0.0326558410867242
1.6000000000000001 0.9994392996577022 -0.0334826268342472
1.6399999999999999 0.9994112772763979 -0.0343088742566521
1.6799999999999999 0.9993825899561762 -0.0351345825716648
1.7200000000000000 0.9993532390041094 -0.0359597510001848
1.7600000000000000 0.9993232257276813 -0.0367843787662836
1.8000000000000000 0.9992925514347800 -0.0376084650972017
1.8400000000000001 0.9992612174336883 -0.0384320092233457
1.8799999999999999 0.9992292250330753 -0.0392550103782863
1.9199999999999999 0.9991965755419900 -0.0400774677987550
1.9600000000000000 0.9991632702698499 -0.0408993807246417
2.0000000000000000 0.9991293105264342 -0.0417207483989920
2.0400000000000000 0.9990946976218765 -0.0425415700680044
2.0800000000000001 0.9990593199152272 -0.0433644473102490
2.1200000000000001 0.9990232289143546 -0.0441880989581689
2.1600000000000001 0.9989864756545416 -0.0450113481170901
2.2000000000000002 0.9989490610934491 -0.0458341940096786
2.2400000000000002 0.9989109861895318 -0.0466566358609079
2.2799999999999998 0.9988722519020334 -0.0474786728980588
2.3199999999999998 0.9988328591909799 -0.0483003043507192
2.3599999999999999 0.9987928090171735 -0.0491215294507841
2.3999999999999999 0.9987521023421859 -0.0499423474324546
2.4399999999999999 0.9987107401283531 -0.0507627575322384
2.4800000000000000 0.9986687233387697 -0.0515827589889491
2.5200000000000000 0.9986260529372806 -0.0524023510437059
2.5600000000000001 0.9985827298884772 -0.0532215329399333
2.6000000000000001 0.9985387551576909 -0.0540403039233607
2.6400000000000001 0.9984941297109855 -0.0548586632420221
2.6800000000000002 0.9984488545151534 -0.0556766101462556
2.7200000000000002 0.9984029305377076 -0.0564941438887032
2.7599999999999998 0.9983562113488036 -0.0573138313259810
2.7999999999999998 0.9983088222835285 -0.0581334271385630
2.8399999999999999 0.9982607778024989 -0.0589526886676938
2.8799999999999999 0.9982120786799208 -0.0597716151489286
2.9199999999999999 0.9981627256909220 -0.0605902058196649
2.9600000000000000 0.9981127196115471 -0.0614084599191426
3.0000000000000000 0.9980620612187541 -0.0622263766884453
3.0400000000000000 0.9980107512904069 -0.0630439553705007
3.0800000000000001 0.9979587906052733 -0.0638611952100812
3.1200000000000001 0.9979061799430188 -0.0646780954538044
3.1600000000000001 0.9978529200842011 -0.0654946553501339
3.2000000000000002 0.9977990118102669 -0.0663108741493799
3.2400000000000002 0.9977444559035454 -0.0671267511036996
3.2799999999999998 0.9976892531472449 -0.0679422854670980
3.3199999999999998 0.9976334043254470 -0.0687574764954282
3.3599999999999999 0.9975769102231017 -0.0695723234463919
3.3999999999999999 0.9975197495079484 -0.0703871390354785
3.4399999999999999 0.9974618060702986 -0.0712035492863826
3.4800000000000000 0.9974032122612136 -0.0720196651687060
3.5200000000000000 0.9973439687438682 -0.0728354859270525
3.5600000000000001 0.9972840761824191 -0.0736510108075845
3.6000000000000001 0.9972235352420004 -0.0744662390580243
3.6400000000000001 0.9971623465887206 -0.0752811699276553
3.6800000000000002 0.9971005108896573 -0.0760958026673228
3.7200000000000002 0.9970380288128551 -0.0769101365294355
3.7599999999999998 0.9969749010273189 -0.0777241707679660
3.7999999999999998 0.9969111282030116 -0.0785379046384526
3.8399999999999999 0.9968467110108498 -0.0793513373979996
3.8799999999999999 0.9967816501226996 -0.0801644683052788
3.9199999999999999 0.9967159462113718 -0.0809772966205304
3.9600000000000000 0.9966495999506195 -0.0817898216055639
4.0000000000000000 0.9965826120151319 -0.0826020425237594
4.0400000000000000 0.9965149830805321 -0.0834139586400681
4.0800000000000001 0.9964466555552530 -0.0842262585702993
4.1200000000000001 0.9963775845835030 -0.0850394551931301
4.1600000000000001 0.9963078684178088 -0.0858523810314095
4.2000000000000002 0.9962375076504769 -0.0866650353393215
4.2400000000000002 0.9961665028748209 -0.0874774173724237
4.2800000000000002 0.9960948546851572 -0.0882895263876489
4.3200000000000003 0.9960225636768020 -0.0891013616433063
4.3600000000000003 0.9959496304460665 -0.0899129223990829
4.4000000000000004 0.9958760555902558 -0.0907242079160447
4.4400000000000004 0.9958018397076630 -0.0915352174566382
4.4800000000000004 0.9957269833975663 -0.0923459502846914
4.5199999999999996 0.9956514872602261 -0.0931564056654156
4.5599999999999996 0.9955753518968811 -0.0939665828654059
4.5999999999999996 0.9954985779097439 -0.0947764811526432
4.6399999999999997 0.9954211659019986 -0.0955860997964951
4.6799999999999997 0.9953431164777969 -0.0963954380677171
4.7199999999999998 0.9952644302422533 -0.0972044952384539
4.7599999999999998 0.9951850126430213 -0.0980142367756329
4.7999999999999998 0.9951048910469599 -0.0988243685252680
4.8399999999999999 0.9950241290875999 -0.0996342437792523
4.8799999999999999 0.9949427273097564 -0.1004438618006282
4.9199999999999999 0.9948606862592614 -0.1012532218536854
4.9600000000000000 0.9947780064829591 -0.1020623232039615
5.0000000000000000 0.9946946885287038 -0.1028711651182436
5.0400000000000000 0.9946107329453561 -0.1036797468645702
5.0800000000000001 0.9945261402827803 -0.1044880677122322
5.1200000000000001 0.9944409110918394 -0.1052961269317746
5.1600000000000001 0.9943550459243946 -0.1061039237949978
5.2000000000000002 0.9942685453333006 -0.1069114575749590
5.2400000000000002 0.9941814098724017 -0.1077187275459737
5.2800000000000002 0.9940936400965298 -0.1085257329836171
5.3200000000000003 0.9940052365615007 -0.1093324731647253
5.3600000000000003 0.9939161998241108 -0.1101389473673969
5.4000000000000004 0.9938265304421345 -0.1109451548709943
5.4400000000000004 0.9937360959247121 -0.1117522780810802
5.4800000000000004 0.9936449974683612 -0.1125594021221706
5.5199999999999996 0.9935532633016502 -0.1133662779782493
5.5599999999999996 0.9934608939369172 -0.1141729049208318
5.5999999999999996 0.9933678898875170 -0.1149792822225899
5.6399999999999997 0.9932742516678182 -0.1157854091573541
5.6799999999999997 0.9931799797932005 -0.1165912850001147
5.7199999999999998 0.9930850747800516 -0.1173969090270233
5.7599999999999998 0.9929895371457647 -0.1182022805153947
5.7999999999999998 0.9928933674087346 -0.1190073987437080
5.8399999999999999 0.9927965660883551 -0.1198122629916082
5.8799999999999999 0.9926991337050172 -0.1206168725399080
5.9199999999999999 0.9926010707801044 -0.1214212266705888
5.9600000000000000 0.9925023778359902 -0.1222253246668025
6.0000000000000000 0.9924030553960363 -0.1230291658128728
6.0400000000000000 0.9923031039845887 -0.1238327493942971
6.0800000000000001 0.9922025154673116 -0.1246361436355412
6.1200000000000001 0.9921011441912184 -0.1254405026077118
6.1600000000000001 0.9919991412963108 -0.1262446183699801
6.2000000000000002 0.9918965072716156 -0.1270484902010633
6.2400000000000002 0.9917932426071747 -0.1278521173807692
6.2800000000000002 0.9916893477940422 -0.1286554991899976
6.3200000000000003 0.9915848233242818 -0.1294586349107421
6.3600000000000003 0.9914796696909648 -0.1302615238260912
6.4000000000000004 0.9913738873881661 -0.1310641652202303
6.4400000000000004 0.9912674769109621 -0.1318665583784431
6.4800000000000004 0.9911604387554277 -0.1326687025871132
6.5199999999999996 0.9910527734186344 -0.1334705971337255
6.5599999999999996 0.9909444813986453 -0.1342722413068679
6.5999999999999996 0.9908355631945155 -0.1350736343962328
6.6399999999999997 0.9907260193062866 -0.1358747756926186
6.6799999999999997 0.9906158502349851 -0.1366756644879310
6.7199999999999998 0.9905050564826198 -0.1374763000751851
6.7599999999999998 0.9903935923242202 -0.1382770128514728
6.7999999999999998 0.9902813842639527 -0.1390783231861453
6.8399999999999999 0.9901685491774633 -0.1398793916908329
6.8799999999999999 0.9900550875386843 -0.1406802176525471
6.9199999999999999 0.9899409998225550 -0.1414808003593424
6.9600000000000000 0.9898262865050190 -0.1422811391003182
7.0000000000000000 0.9897109480630218 -0.1430812331656207
7.0400000000000000 0.9895949849745080 -0.1438810818464440
7.0800000000000001 0.9894783977184194 -0.1446806844350320
7.1200000000000001 0.9893611867746914 -0.1454800402246798
7.1600000000000001 0.9892433526242503 -0.1462791485097357
7.2000000000000002 0.9891248957490119 -0.1470780085856020
7.2400000000000002 0.9890058166318778 -0.1478766197487372
7.2800000000000002 0.9888861157567328 -0.1486749812966574
7.3200000000000003 0.9887657936084432 -0.1494730925279376
7.3600000000000003 0.9886448506728527 -0.1502709527422133
7.4000000000000004 0.9885232874367812 -0.1510685612401824
7.4400000000000004 0.9884010192188766 -0.1518664716357303
7.4800000000000004 0.9882780471984994 -0.1526646698667401
7.5199999999999996 0.9881544527835928 -0.1534626255606182
7.5599999999999996 0.9880302364382413 -0.1542603380127013
7.5999999999999996 0.9879053986275265 -0.1550578065193356
7.6399999999999997 0.9877799398175238 -0.1558550303778778
7.6799999999999997 0.9876538604752993 -0.1566520088866972
7.7199999999999998 0.9875271610689095 -0.1574487413451767
7.7599999999999998 0.9873998420673958 -0.1582452270537151
7.7999999999999998 0.9872719039407847 -0.1590414653137281
7.8399999999999999 0.9871433471600838 -0.1598374554276500
7.8799999999999999 0.9870141721972796 -0.1606331966989357
7.9199999999999999 0.9868843795253345 -0.1614286884320614
7.9600000000000000 0.9867539696181854 -0.1622239299325270
8.0000000000000000 0.9866229429507400 -0.1630189205068571
8.0399999999999991 0.9864912999988749 -0.1638136594626029
8.0800000000000001 0.9863590412394333 -0.1646081461083433
8.1199999999999992 0.9862260414875229 -0.1654031290267829
8.1600000000000001 0.9860923794658171 -0.1661981322381299
8.1999999999999993 0.9859580997550875 -0.1669928906490837
8.2400000000000002 0.9858232028134919 -0.1677874035634050
8.2799999999999994 0.9856876891001718 -0.1685816702858389
8.3200000000000003 0.9855515590752506 -0.1693756901221166
8.3599999999999994 0.9854148131998303 -0.1701694623789571
8.4000000000000004 0.9852774519359909 -0.1709629863640691
8.4399999999999995 0.9851394757467857 -0.1717562613861517
8.4800000000000004 0.9850008850962402 -0.1725492867548968
8.5199999999999996 0.9848616804493490 -0.1733420617809902
8.5600000000000005 0.9847218622720741 -0.1741345857761133
8.5999999999999996 0.9845814310313420 -0.1749268580529449
8.6400000000000006 0.9844403871950407 -0.1757188779251621
8.6799999999999997 0.9842987312320192 -0.1765106447074425
8.7200000000000006 0.9841564636120824 -0.1773021577154655
8.7599999999999998 0.9840135848059904 -0.1780934162659133
8.8000000000000007 0.9838699273984071 -0.1788853430582089
8.8399999999999999 0.9837256508741180 -0.1796770542175400
8.8800000000000008 0.9835807614650233 -0.1804685171321719
8.9199999999999999 0.9834352596263382 -0.1812597311144335
8.9600000000000009 0.9832891458142484 -0.1820506954776207
9.0000000000000000 0.9831424204859077 -0.1828414095359987
9.0399999999999991 0.9829950840994340 -0.1836318726048028
9.0800000000000001 0.9828471371139097 -0.1844220840002407
9.1199999999999992 0.9826985799893763 -0.1852120430394932
9.1600000000000001 0.9825494131868351 -0.1860017490407169
9.1999999999999993 0.9823996371682421 -0.1867912013230446
9.2400000000000002 0.9822492523965072 -0.1875803992065874
9.2799999999999994 0.9820982593354911 -0.1883693420124363
9.3200000000000003 0.9819466584500040 -0.1891580290626634
9.3599999999999994 0.9817944502058010 -0.1899464596803237
9.4000000000000004 0.9816416350695827 -0.1907346331894564
9.4399999999999995 0.9814881792504927 -0.1915227244782010
9.4800000000000004 0.9813339739728532 -0.1923112880895134
9.5199999999999996 0.9811791602777890 -0.1930995997835639
9.5600000000000005 0.9810237386189230 -0.1938876588804731
9.5999999999999996 0.9808677094508347 -0.1946754647013158
9.6400000000000006 0.9807110732290576 -0.1954630165681224
9.6799999999999997 0.9805538304100792 -0.1962503138038805
9.7200000000000006 0.9803959814513368 -0.1970373557325367
9.7599999999999998 0.9802375268112150 -0.1978241416789979
9.8000000000000007 0.9800784669490452 -0.1986106709691330
9.8399999999999999 0.9799188023251010 -0.1993969429297739
9.8800000000000008 0.9797585334005975 -0.2001829568887179
9.9199999999999999 0.9795976606376881 -0.2009687121747284
9.9600000000000009 0.9794361844994629 -0.2017542081175371
10.0000000000000000 0.9792741054499450 -0.2025394440478448
10.0399999999999991 0.9791114239540900 -0.2033244192973234
10.0800000000000001 0.9789481404777830 -0.2041091331986171
10.1199999999999992 0.9787841793348611 -0.2048939488705866
10.1600000000000001 0.9786195112145665 -0.2056790029880620
10.1999999999999993 0.9784542397266274 -0.2064638001224134
10.2400000000000002 0.9782883653258466 -0.2072483396027156
10.2799999999999994 0.9781218884679689 -0.2080326207589905
10.3200000000000003 0.9779548096096766 -0.2088166429222084
10.3599999999999994 0.9777871292085887 -0.2096004054242899
10.4000000000000004 0.9776188477232582 -0.2103839075981069
10.4399999999999995 0.9774499656131703 -0.2111671487774842
10.4800000000000004 0.9772804833387392 -0.2119501282972017
10.5199999999999996 0.9771104013613064 -0.2127328454929949
10.5600000000000005 0.9769397201431387 -0.2135152997015571
10.5999999999999996 0.9767684401474247 -0.2142974902605404
10.6400000000000006 0.9765965618382745 -0.2150794165085576
10.6799999999999997 0.9764240856807144 -0.2158610777851835
10.7200000000000006 0.9762510121406878 -0.2166424734309561
10.7599999999999998 0.9760773416850511 -0.2174236027873784
10.8000000000000007 0.9759029547062729 -0.2182050022239781
10.8399999999999999 0.9757279051833762 -0.2189864266260817
10.8800000000000008 0.9755522574807085 -0.2197675884298990
10.9199999999999999 0.9753760120556705 -0.2205484869736732
10.9600000000000009 0.9751991693665870 -0.2213291215965910
11.0000000000000000 0.9750217298727044 -0.2221094916387839
11.0399999999999991 0.9748436940341880 -0.2228895964413294
11.0800000000000001 0.9746650623121197 -0.2236694353462529
11.1199999999999992 0.9744858351684972 -0.2244490076965291
11.1600000000000001 0.9743060130662293 -0.2252283128360832
11.1999999999999993 0.9741255964691358 -0.2260073501097928
11.2400000000000002 0.9739445858419439 -0.2267861188634888
11.2799999999999994 0.9737629816502865 -0.2275646184439574
11.3200000000000003 0.9735807843606998 -0.2283428481989410
11.3599999999999994 0.9733979944406210 -0.2291208074771403
11.4000000000000004 0.9732146123583860 -0.2298984956282150
11.4399999999999995 0.9730306385832272 -0.2306759120027857
11.4800000000000004 0.9728459073896928 -0.2314537545064350
11.5199999999999996 0.9726605602071190 -0.2322314246986690
11.5600000000000005 0.9724746201778558 -0.2330088262489961
11.5999999999999996 0.9722880877630217 -0.2337859585050541
11.6400000000000006 0.9721009634246391 -0.2345628208154228
11.6799999999999997 0.9719132476256358 -0.2353394125296265
11.7200000000000006 0.9717249408298388 -0.2361157329981339
11.7599999999999998 0.9715360435019758 -0.2368917815723607
11.8000000000000007 0.9713465561076698 -0.2376675576046707
11.8399999999999999 0.9711564791134391 -0.2384430604483773
11.8800000000000008 0.9709658129866935 -0.2392182894577446
11.9199999999999999 0.9707745581957333 -0.2399932439879894
11.9600000000000009 0.9705827152097463 -0.2407679233952818
12.0000000000000000 0.9703902844988056 -0.2415423270367474
12.0399999999999991 0.9701972665338674 -0.2423164542704685
12.0800000000000001 0.9700036617867684 -0.2430903044554848
12.1199999999999992 0.9698094500444483 -0.2438639592159630
12.1600000000000001 0.9696144791539474 -0.2446380220141982
12.1999999999999993 0.9694189204351595 -0.2454118104377418
12.2400000000000002 0.9692227743529132 -0.2461853238429173
12.2799999999999994 0.9690260413729264 -0.2469585615869904
12.3200000000000003 0.9688287219618044 -0.2477315230281703
12.3599999999999994 0.9686308165870360 -0.2485042075256111
12.4000000000000004 0.9684323257169930 -0.2492766144394130
12.4399999999999995 0.9682332498209277 -0.2500487431306243
12.4800000000000004 0.9680335893689698 -0.2508205929612419
12.5199999999999996 0.9678333448321244 -0.2515921632942137
12.5600000000000005 0.9676325166822707 -0.2523634534934391
12.5999999999999996 0.9674311053921587 -0.2531344629237711
12.6400000000000006 0.9672291114354075 -0.2539051909510170
12.6799999999999997 0.9670265352865023 -0.2546756369419402
12.7200000000000006 0.9668233774207941 -0.2554458002642616
12.7599999999999998 0.9666196383144944 -0.2562156802866605
12.8000000000000007 0.9664152520832154 -0.2569855259366476
12.8399999999999999 0.9662101525794672 -0.2577555839402177
12.8800000000000008 0.9660044708787267 -0.2585253609267593
12.9199999999999999 0.9657982074511378 -0.2592948562624587
12.9600000000000009 0.9655913627677137 -0.2600640693144471
13.0000000000000000 0.9653839373003352 -0.2608329994508024
13.0399999999999991 0.9651759315217485 -0.2616016460405497
13.0800000000000001 0.9649673459055619 -0.2623700084536636
13.1199999999999992 0.9647581809262451 -0.2631380860610690
13.1600000000000001 0.9645484370591255 -0.2639058782346427
13.1999999999999993 0.9643381147803874 -0.2646733843472147
13.2400000000000002 0.9641272145670685 -0.2654406037725692
13.2799999999999994 0.9639157368970582 -0.2662075358854465
13.3200000000000003 0.9637036822490959 -0.2669741800615442
13.3599999999999994 0.9634910511027676 -0.2677405356775178
13.4000000000000004 0.9632778439385047 -0.2685066021109833
13.4399999999999995 0.9630640612375811 -0.2692723787405173
13.4800000000000004 0.9628495889712134 -0.2700382732465264
13.5199999999999996 0.9626344517129435 -0.2708041956383265
13.5600000000000005 0.9624187380436764 -0.2715698301770968
13.5999999999999996 0.9622024484394150 -0.2723351762391245
13.6400000000000006 0.9619855833770102 -0.2731002332016452
13.6799999999999997 0.9617681433341614 -0.2738650004428461
