#    GHz    S    RI    R    50    

0.0400000000000000 0.9999997393794494 0.0007219713264670
0.0800000000000000 0.9999989751890181 0.0014316532934593
0.1200000000000000 0.9999977172780783 0.0021366960071227
0.1600000000000000 0.9999959708459094 0.0028387252683984
0.2000000000000000 0.9999937395076585 0.0035385130124100
0.2400000000000000 0.9999910260427197 0.0042365137358828
0.2800000000000000 0.9999878327106447 0.0049330276218115
0.3200000000000000 0.9999841614156875 0.0056282679098168
0.3600000000000000 0.9999800138037114 0.0063223939414061
0.4000000000000000 0.9999753913241645 0.0070155293111279
0.4400000000000000 0.9999702952721460 0.0077077726777877
0.4800000000000000 0.9999647268182733 0.0083992046098856
0.5200000000000000 0.9999586870306644 0.0090898921328693
0.5600000000000001 0.9999521768915801 0.0097798918688459
0.6000000000000000 0.9999451973103348 0.0104692522746706
0.6400000000000000 0.9999377491335066 0.0111580152806010
0.6800000000000000 0.9999298331531605 0.0118462175177298
0.7200000000000000 0.9999214501135577 0.0125338912556432
0.7600000000000000 0.9999126007167105 0.0132210651310947
0.8000000000000000 0.9999032856270301 0.0139077647228671
0.8400000000000000 0.9998935054752502 0.0145940130113887
0.8800000000000000 0.9998832608617756 0.0152798307506150
0.9200000000000000 0.9998725523595613 0.0159652367721628
0.9600000000000000 0.9998613805166033 0.0166502482364562
1.0000000000000000 0.9998497458581109 0.0173348808419460
1.0400000000000000 0.9998376488884090 0.0180191490008026
1.0800000000000001 0.9998250900926184 0.0187030659875408
1.1200000000000001 0.9998120699381432 0.0193866440655970
1.1599999999999999 0.9997985888759942 0.0200698945958019
1.2000000000000000 0.9997846473419750 0.0207528281298730
1.2400000000000000 0.9997702457577415 0.0214354544914289
1.2800000000000000 0.9997553845317632 0.0221177828465382
1.3200000000000001 0.9997400640601882 0.0227998217654418
1.3600000000000001 0.9997242847276283 0.0234815792767860
1.3999999999999999 0.9997080469078742 0.0241630629154702
1.4399999999999999 0.9996913509645486 0.0248442797650207
1.4800000000000000 0.9996741972517014 0.0255252364952532
1.5200000000000000 0.9996565861143608 0.0262059393958595
1.5600000000000001 0.9996385178890327 0.0268863944064569
1.6000000000000001 0.9996199929041684 0.0275666071435526
1.6399999999999999 0.9996010114805898 0.0282465829248101
1.6799999999999999 0.9995815739318894 0.0289263267909459
1.7200000000000000 0.9995616805647973 0.0296058435255404
1.7600000000000000 0.9995413316795209 0.0302851376730028
1.8000000000000000 0.9995205275700654 0.0309642135549041
1.8400000000000001 0.9994992685245295 0.0316430752848550
1.8799999999999999 0.9994775548253817 0.0323217267820912
1.9199999999999999 0.9994553867497206 0.0330001717839000
1.9600000000000000 0.9994327645695154 0.0336784138570120
2.0000000000000000 0.9994096885518339 0.0343564564080618
2.0400000000000000 0.9993861589590566 0.0350343026932108
2.0800000000000001 0.9993621760490782 0.0357119558270160
2.1200000000000001 0.9993377400754938 0.0363894187906149
2.1600000000000001 0.9993128512877784 0.0370666944392928
2.2000000000000002 0.9992875099314571 0.0377437855094897
2.2400000000000002 0.9992617162482589 0.0384206946252964
2.2799999999999998 0.9992354704762718 0.0390974243044867
2.3199999999999998 0.9992087728500822 0.0397739769641265
2.3599999999999999 0.9991816236009100 0.0404503549257947
2.3999999999999999 0.9991540229567354 0.0411265604204511
2.4399999999999999 0.9991259711424226 0.0418025955929788
2.4800000000000000 0.9990974683798319 0.0424784625064288
2.5200000000000000 0.9990685148879308 0.0431541631459908
2.5600000000000001 0.9990391108828983 0.0438296994227110
2.6000000000000001 0.9990092565782229 0.0445050731769784
2.6400000000000001 0.9989789521847994 0.0451802861817958
2.6800000000000002 0.9989481979110154 0.0458553401458522
2.7200000000000002 0.9989169939628418 0.0465302367164121
2.7599999999999998 0.9988853405439120 0.0472049774820351
2.7999999999999998 0.9988532378556008 0.0478795639751365
2.8399999999999999 0.9988206860971010 0.0485539976744027
2.8799999999999999 0.9987876854654946 0.0492282800070698
2.9199999999999999 0.9987542361558216 0.0499024123510757
2.9600000000000000 0.9987203383611453 0.0505763960370942
3.0000000000000000 0.9986859922726173 0.0512502323504589
3.0400000000000000 0.9986511980795370 0.0519239225329849
3.0800000000000001 0.9986159559694109 0.0525974677846939
3.1200000000000001 0.9985802661280075 0.0532708692654499
3.1600000000000001 0.9985441287394115 0.0539441280965112
3.2000000000000002 0.9985075439860757 0.0546172453620037
3.2400000000000002 0.9984705120488715 0.0552902221103198
3.2799999999999998 0.9984330331071353 0.0559630593554493
3.3199999999999998 0.9983951073387154 0.0566357580782443
3.3599999999999999 0.9983567349200169 0.0573083192276238
3.3999999999999999 0.9983179160260438 0.0579807437217206
3.4399999999999999 0.9982786508304408 0.0586530324489739
3.4800000000000000 0.9982389395055322 0.0593251862691720
3.5200000000000000 0.9981987822223612 0.0599972060144455
3.5600000000000001 0.9981581791507269 0.0606690924902171
3.6000000000000001 0.9981171304592197 0.0613408464761071
3.6400000000000001 0.9980756363152569 0.0620124687267999
3.6800000000000002 0.9980336968851136 0.0626839599728711
3.7200000000000002 0.9979913123339591 0.0633553209215800
3.7599999999999998 0.9979484828258843 0.0640265522576266
3.7999999999999998 0.9979052085239341 0.0646976546438778
3.8399999999999999 0.9978614895901367 0.0653686287220616
3.8799999999999999 0.9978173261855299 0.0660394751134334
3.9199999999999999 0.9977727184701918 0.0667101944194143
3.9600000000000000 0.9977276666032635 0.0673807872222031
4.0000000000000000 0.9976821707429800 0.0680512540853646
4.0400000000000000 0.9976362310466891 0.0687215955543929
4.0800000000000001 0.9975898476708809 0.0693918121572536
4.1200000000000001 0.9975430207712086 0.0700619044049040
4.1600000000000001 0.9974957505025110 0.0707318727917934
4.2000000000000002 0.9974480370188376 0.0714017177963440
4.2400000000000002 0.9973998804734654 0.0720714398814135
4.2800000000000002 0.9973512810189241 0.0727410394947403
4.3200000000000003 0.9973022388070143 0.0734105170693722
4.3600000000000003 0.9972527539888273 0.0740798730240784
4.4000000000000004 0.9972028267147656 0.0747491077637477
4.4400000000000004 0.9971524571345586 0.0754182216797711
4.4800000000000004 0.9971016453972840 0.0760872151504108
4.5199999999999996 0.9970503916513834 0.0767560885411566
4.5599999999999996 0.9969986960446803 0.0774248422050692
4.5999999999999996 0.9969465587243957 0.0780934764831115
4.6399999999999997 0.9968939798371663 0.0787619917044678
4.6799999999999997 0.9968409595290576 0.0794303881868537
4.7199999999999998 0.9967874979455820 0.0800986662368132
4.7599999999999998 0.9967335952317122 0.0807668261500075
4.7999999999999998 0.9966792515318950 0.0814348682114931
4.8399999999999999 0.9966244669900683 0.0821027926959908
4.8799999999999999 0.9965692417496723 0.0827705998681461
4.9199999999999999 0.9965135759536641 0.0834382899827808
4.9600000000000000 0.9964574697445313 0.0841058632851365
5.0000000000000000 0.9964009232643033 0.0847733200111100
5.0400000000000000 0.9963439366545659 0.0854406603874820
5.0800000000000001 0.9962865100564715 0.0861078846321368
5.1200000000000001 0.9962286436107529 0.0867749929542775
5.1600000000000001 0.9961703374577336 0.0874419855546321
5.2000000000000002 0.9961115917373389 0.0881088626256548
5.2400000000000002 0.9960524065891093 0.0887756243517206
5.2800000000000002 0.9959927821522075 0.0894422709093135
5.3200000000000003 0.9959327185654332 0.0901088024672101
5.3600000000000003 0.9958722159672305 0.0907752191866563
5.4000000000000004 0.9958112744956978 0.0914415212215396
5.4400000000000004 0.9957498942886014 0.0921077087185566
5.4800000000000004 0.9956880754833802 0.0927737818173746
5.5199999999999996 0.9956258182171579 0.0934397406507889
5.5599999999999996 0.9955631226267524 0.0941055853448760
5.5999999999999996 0.9954999888486830 0.0947713160191417
5.6399999999999997 0.9954364170191808 0.0954369327866653
5.6799999999999997 0.9953724072741976 0.0961024357542398
5.7199999999999998 0.9953079597494127 0.0967678250225079
5.7599999999999998 0.9952430745802415 0.0974331006860943
5.7999999999999998 0.9951777519018448 0.0980982628337346
5.8399999999999999 0.9951119918491356 0.0987633115483999
5.8799999999999999 0.9950457945567881 0.0994282469074191
5.9199999999999999 0.9949791601592420 0.1000930689825965
5.9600000000000000 0.9949120887907147 0.1007577778403276
6.0000000000000000 0.9948445805852042 0.1014223735417110
6.0400000000000000 0.9947766356764984 0.1020868561426573
6.0800000000000001 0.9947082541981824 0.1027512256939952
6.1200000000000001 0.9946394362836438 0.1034154822415754
6.1600000000000001 0.9945701820660811 0.1040796258263710
6.2000000000000002 0.9945004916785073 0.1047436564845752
6.2400000000000002 0.9944303652537603 0.1054075742476975
6.2800000000000002 0.9943598029245054 0.1060713791426564
6.3200000000000003 0.9942888048232452 0.1067350711918703
6.3600000000000003 0.9942173710823207 0.1073986504133458
6.4000000000000004 0.9941455018339227 0.1080621168207640
6.4400000000000004 0.9940731972100938 0.1087254704235644
6.4800000000000004 0.9940004573427350 0.1093887112270273
6.5199999999999996 0.9939272823636118 0.1100518392323531
6.5599999999999996 0.9938536724043592 0.1107148544367411
6.5999999999999996 0.9937796275964882 0.1113777568334645
6.6399999999999997 0.9937051480713882 0.1120405464119459
6.6799999999999997 0.9936302339603346 0.1127032231578284
6.7199999999999998 0.9935548853944945 0.1133657870530480
6.7599999999999998 0.9934791025049293 0.1140282380759008
6.7999999999999998 0.9934028854225998 0.1146905762011117
6.8399999999999999 0.9933262342783735 0.1153528013998997
6.8799999999999999 0.9932491492030271 0.1160149136400426
6.9199999999999999 0.9931716303272504 0.1166769128859393
6.9600000000000000 0.9930936777816540 0.1173387990986710
7.0000000000000000 0.9930152916967701 0.1180005722360622
7.0400000000000000 0.9929364722030593 0.1186622322527380
7.0800000000000001 0.9928572194309144 0.1193237791001824
7.1200000000000001 0.9927775335106631 0.1199852127267931
7.1600000000000001 0.9926974145725734 0.1206465330779374
7.2000000000000002 0.9926168627468593 0.1213077400960050
7.2400000000000002 0.9925358781636809 0.1219688337204602
7.2800000000000002 0.9924544609531516 0.1226298138878936
7.3200000000000003 0.9923726112453404 0.1232906805320714
7.3600000000000003 0.9922903291702758 0.1239514335839852
7.4000000000000004 0.9922076148579498 0.1246120729718987
7.4400000000000004 0.9921244684383218 0.1252725986213959
7.4800000000000004 0.9920408900413216 0.1259330104554257
7.5199999999999996 0.9919568797968528 0.1265933083943475
7.5599999999999996 0.9918724378347968 0.1272534923559750
7.5999999999999996 0.9917875642850170 0.1279135622556188
7.6399999999999997 0.9917022592773593 0.1285735180061287
7.6799999999999997 0.9916165229416581 0.1292333595179352
7.7199999999999998 0.9915303554077392 0.1298930866990895
7.7599999999999998 0.9914437568054215 0.1305526994553028
7.7999999999999998 0.9913567272645214 0.1312121976899857
7.8399999999999999 0.9912692669148551 0.1318715813042852
7.8799999999999999 0.9911813758862421 0.1325308501971225
7.9199999999999999 0.9910930543085097 0.1331900042652294
7.9600000000000000 0.9910043023114911 0.1338490434031833
8.0000000000000000 0.9909151200250341 0.1345079675034428
8.0399999999999991 0.9908255075790006 0.1351667764563819
8.0800000000000001 0.9907354651032692 0.1358254701503230
8.1199999999999992 0.9906449927277394 0.1364840484715704
8.1600000000000001 0.9905540905823339 0.1371425113044422
8.1999999999999993 0.9904627587970002 0.1378008585313023
8.2400000000000002 0.9903709975017150 0.1384590900325909
8.2799999999999994 0.9902788068264856 0.1391172056868553
8.3200000000000003 0.9901861869013519 0.1397752053707796
8.3599999999999994 0.9900931378563895 0.1404330889592141
8.4000000000000004 0.9899996598217126 0.1410908563252036
8.4399999999999995 0.9899057529274766 0.1417485073400160
8.4800000000000004 0.9898114173038787 0.1424060418731700
8.5199999999999996 0.9897166530811622 0.1430634597924614
8.5600000000000005 0.9896214603896175 0.1437207609639909
8.5999999999999996 0.9895258393595857 0.1443779452521895
8.6400000000000006 0.9894297901214579 0.1450350125198435
8.6799999999999997 0.9893333128056820 0.1456919626281215
8.7200000000000006 0.9892364075427605 0.1463487954365971
8.7599999999999998 0.9891390744632542 0.1470055108032742
8.8000000000000007 0.9890413136977866 0.1476621085846111
8.8399999999999999 0.9889431253770414 0.1483185886355430
8.8800000000000008 0.9888445096317686 0.1489749508095052
8.9199999999999999 0.9887454665927830 0.1496311949584562
8.9600000000000009 0.9886459963909706 0.1502873209328994
9.0000000000000000 0.9885460991572858 0.1509433285819047
9.0399999999999991 0.9884457750227557 0.1515992177531302
9.0800000000000001 0.9883450241184829 0.1522549882928432
9.1199999999999992 0.9882438465756451 0.1529106400459405
9.1600000000000001 0.9881422425254978 0.1535661728559692
9.1999999999999993 0.9880402120993766 0.1542215865651456
9.2400000000000002 0.9879377554286994 0.1548768810143766
9.2799999999999994 0.9878348726449662 0.1555320560432768
9.3200000000000003 0.9877315638797614 0.1561871114901888
9.3599999999999994 0.9876278292647583 0.1568420471922017
9.4000000000000004 0.9875236689317164 0.1574968629851686
9.4399999999999995 0.9874190830124863 0.1581515587037254
9.4800000000000004 0.9873140716390091 0.1588061341813082
9.5199999999999996 0.9872086349433205 0.1594605892501702
9.5600000000000005 0.9871027730575489 0.1601149237413997
9.5999999999999996 0.9869964861139205 0.1607691374849360
9.6400000000000006 0.9868897742447593 0.1614232303095866
9.6799999999999997 0.9867826375824875 0.1620772020430431
9.7200000000000006 0.9866750762596288 0.1627310525118970
9.7599999999999998 0.9865670904088083 0.1633847815416561
9.8000000000000007 0.9864586801627558 0.1640383889567593
9.8399999999999999 0.9863498456543056 0.1646918745805923
9.8800000000000008 0.9862405870163975 0.1653452382355023
9.9199999999999999 0.9861309043820814 0.1659984797428126
9.9600000000000009 0.9860207978845130 0.1666515989228375
10.0000000000000000 0.9859102676569618 0.1673045955948964
10.0399999999999991 0.9857993138328065 0.1679574695773280
10.0800000000000001 0.9856879365455410 0.1686102206875038
10.1199999999999992 0.9855761359287710 0.1692628487418416
10.1600000000000001 0.9854639121162208 0.1699153535558200
10.1999999999999993 0.9853512652417291 0.1705677349439901
10.2400000000000002 0.9852381954392535 0.1712199927199893
10.2799999999999994 0.9851247028428711 0.1718721266965543
10.3200000000000003 0.9850107875867792 0.1725241366855330
10.3599999999999994 0.9848964498052968 0.1731760224978973
10.4000000000000004 0.9847816896328653 0.1738277839437557
10.4399999999999995 0.9846665072040506 0.1744794208323646
10.4800000000000004 0.9845509026535432 0.1751309329721405
10.5199999999999996 0.9844348761161600 0.1757823201706716
10.5600000000000005 0.9843184277268444 0.1764335822347294
10.5999999999999996 0.9842015576206689 0.1770847189702799
10.6400000000000006 0.9840842659328350 0.1777357301824951
10.6799999999999997 0.9839665527986748 0.1783866156757634
10.7200000000000006 0.9838484183536516 0.1790373752537008
10.7599999999999998 0.9837298627333610 0.1796880087191617
10.8000000000000007 0.9836108860735331 0.1803385158742491
10.8399999999999999 0.9834914885100301 0.1809888965203252
10.8800000000000008 0.9833716701788516 0.1816391504580215
10.9199999999999999 0.9832514312161330 0.1822892774872487
10.9600000000000009 0.9831307717581469 0.1829392774072071
11.0000000000000000 0.9830096919413043 0.1835891500163958
11.0399999999999991 0.9828881919021545 0.1842388951126232
11.0800000000000001 0.9827662717773882 0.1848885124930153
11.1199999999999992 0.9826439317038357 0.1855380019540259
11.1600000000000001 0.9825211718184700 0.1861873632914459
11.1999999999999993 0.9823979922584068 0.1868365963004121
11.2400000000000002 0.9822743931609046 0.1874857007754160
11.2799999999999994 0.9821503746633671 0.1881346765103133
11.3200000000000003 0.9820259369033419 0.1887835232983318
11.3599999999999994 0.9819010800185243 0.1894322409320809
11.4000000000000004 0.9817758041467550 0.1900808292035595
11.4399999999999995 0.9816501094260242 0.1907292879041644
11.4800000000000004 0.9815239959944679 0.1913776168246991
11.5199999999999996 0.9813974639903729 0.1920258157553807
11.5600000000000005 0.9812705135521763 0.1926738844858503
11.5999999999999996 0.9811431448184647 0.1933218228051782
11.6400000000000006 0.9810153579279769 0.1939696305018731
11.6799999999999997 0.9808871530196039 0.1946173073638900
11.7200000000000006 0.9807585302323891 0.1952648531786378
11.7599999999999998 0.9806294897055300 0.1959122677329861
11.8000000000000007 0.9805000315783777 0.1965595508132732
11.8399999999999999 0.9803701559904401 0.1972067022053134
11.8800000000000008 0.9802398630813772 0.1978537216944038
11.9199999999999999 0.9801091529910098 0.1985006090653320
11.9600000000000009 0.9799780258593124 0.1991473641023833
12.0000000000000000 0.9798464818264179 0.1997939865893462
12.0399999999999991 0.9797145210326190 0.2004404763095214
12.0800000000000001 0.9795821436183649 0.2010868330457266
12.1199999999999992 0.9794493497242666 0.2017330565803051
12.1600000000000001 0.9793161394910936 0.2023791466951299
12.1999999999999993 0.9791825130597777 0.2030251031716131
12.2400000000000002 0.9790484705714104 0.2036709257907101
12.2799999999999994 0.9789140121672465 0.2043166143329270
12.3200000000000003 0.9787791379887028 0.2049621685783263
12.3599999999999994 0.9786438481773591 0.2056075883065344
12.4000000000000004 0.9785081428749595 0.2062528732967455
12.4399999999999995 0.9783720222234112 0.2068980233277294
12.4800000000000004 0.9782354863647874 0.2075430381778373
12.5199999999999996 0.9780985354413257 0.2081879176250066
12.5600000000000005 0.9779611695954307 0.2088326614467682
12.5999999999999996 0.9778233889696721 0.2094772694202511
12.6400000000000006 0.9776851937067867 0.2101217413221882
12.6799999999999997 0.9775465839496796 0.2107660769289229
12.7200000000000006 0.9774075598414235 0.2114102760164133
12.7599999999999998 0.9772681215252585 0.2120543383602385
12.8000000000000007 0.9771282691445944 0.2126982637356037
12.8399999999999999 0.9769880028430107 0.2133420519173461
12.8800000000000008 0.9768473227642562 0.2139857026799389
12.9199999999999999 0.9767062290522506 0.2146292157974982
12.9600000000000009 0.9765647218510828 0.2152725910437866
13.0000000000000000 0.9764228013050148 0.2159158281922191
13.0399999999999991 0.9762804675584796 0.2165589270158687
13.0800000000000001 0.9761377207560816 0.2172018872874695
13.1199999999999992 0.9759945610425982 0.2178447087794237
13.1600000000000001 0.9758509885629806 0.2184873912638055
13.1999999999999993 0.9757070034623521 0.2191299345123653
13.2400000000000002 0.9755626058860097 0.2197723382965354
13.2799999999999994 0.9754177959794267 0.2204146023874352
13.3200000000000003 0.9752725738882481 0.2210567265558739
13.3599999999999994 0.9751269397582953 0.2216987105723564
13.4000000000000004 0.9749808937355658 0.2223405542070883
13.4399999999999995 0.9748344359662314 0.2229822572299790
13.4800000000000004 0.9746875665966407 0.2236238194106470
13.5199999999999996 0.9745402857733186 0.2242652405184249
13.5600000000000005 0.9743925936429670 0.2249065203223617
13.5999999999999996 0.9742444903524651 0.2255476585912291
13.6400000000000006 0.9740959760488697 0.2261886550935249
13.6799999999999997 0.9739470508794150 0.2268295095974768
13.7200000000000006 0.9737977149915140 0.2274702218710478
13.7599999999999998 0.9736479685327574 0.2281107916819389
13.8000000000000007 0.9734978116509159 0.2287512187975935
13.8399999999999999 0.9733472444939396 0.2293915029852025
13.8800000000000008 0.9731962672099566 0.2300316440117066
13.9199999999999999 0.9730448799472752 0.2306716416438012
