! Created with skrf (http://scikit-rf.org).
# Hz S MA R 50.0 
!freq magS11 angS11
40000000.0 0.9999999999999999 -0.04748146999642581
80000000.0 1.0000000000000002 -0.09415472643611802
120000000.0 1.0 -0.14052290225275801
160000000.0 0.9999999999999999 -0.18669293309433602
200000000.0 0.9999999999999999 -0.23271559871973274
240000000.0 0.9999999999999999 -0.278620801960536
280000000.0 1.0000000000000002 -0.3244282968758214
320000000.0 1.0000000000000002 -0.3701521194785318
360000000.0 1.0 -0.4158027610175201
400000000.0 1.0 -0.4613883617240451
440000000.0 0.9999999999999999 -0.5069154218344919
480000000.0 1.0 -0.5523892517965123
520000000.0 1.0 -0.5978142713305763
560000000.0 0.9999999999999999 -0.6431942159217668
600000000.0 1.0000000000000004 -0.6885322840143806
640000000.0 1.0000000000000002 -0.7338312447833758
680000000.0 0.9999999999999999 -0.7790935188607868
720000000.0 0.9999999999999998 -0.824321240004477
760000000.0 1.0 -0.8695163030223599
800000000.0 0.9999999999999999 -0.9146804015808049
840000000.0 1.0 -0.9598150584335294
880000000.0 1.0 -1.0049216498803368
920000000.0 1.0000000000000002 -1.0500014257702068
960000000.0 1.0 -1.0950555260194392
1000000000.0 1.0 -1.1400849943723101
1040000000.0 0.9999999999999999 -1.1850907899567384
1080000000.0 1.0 -1.2300737970597035
1120000000.0 1.0000000000000002 -1.2750348334525894
1160000000.0 0.9999999999999998 -1.319974657525781
1200000000.0 1.0 -1.364893974438069
1240000000.0 1.0 -1.4097934414452884
1280000000.0 1.0 -1.454673672540698
1320000000.0 0.9999999999999998 -1.4995352425147845
1360000000.0 1.0000000000000002 -1.5443786905225305
1400000000.0 1.0 -1.5892045232306524
1440000000.0 0.9999999999999999 -1.634013217604876
1480000000.0 0.9999999999999999 -1.6788052233872697
1520000000.0 1.0 -1.7235809653055696
1560000000.0 0.9999999999999998 -1.7683408450497868
1600000000.0 0.9999999999999999 -1.8130852430459419
1640000000.0 1.0 -1.85781452005232
1680000000.0 0.9999999999999999 -1.9025290185998915
1720000000.0 1.0000000000000002 -1.947229064295474
1760000000.0 0.9999999999999999 -1.9919149670035947
1800000000.0 0.9999999999999999 -2.0365870219208526
1840000000.0 0.9999999999999999 -2.0812455105547327
1880000000.0 0.9999999999999998 -2.1258907016172555
1920000000.0 0.9999999999999999 -2.1705228518425352
1960000000.0 1.0 -2.2151422067361715
2000000000.0 0.9999999999999998 -2.259749001263443
2040000000.0 1.0 -2.304343460482409
2080000000.0 1.0 -2.34892580012734
2120000000.0 0.9999999999999999 -2.393496227147243
2160000000.0 1.0000000000000002 -2.4380549402037297
2200000000.0 0.9999999999999998 -2.4826021301319874
2240000000.0 1.0000000000000002 -2.527137980368204
2280000000.0 0.9999999999999999 -2.571662667346462
2320000000.0 1.0 -2.616176360867755
2360000000.0 1.0 -2.6606792244435535
2400000000.0 1.0 -2.7051714156160607
2440000000.0 0.9999999999999999 -2.7496530862571174
2480000000.0 0.9999999999999999 -2.7941243828474907
2520000000.0 1.0000000000000002 -2.83858544673814
2560000000.0 0.9999999999999999 -2.883036414394891
2600000000.0 0.9999999999999998 -2.9274774176278053
2640000000.0 1.0000000000000002 -2.9719085838064356
2680000000.0 0.9999999999999999 -3.0163300360620218
2720000000.0 1.0 -3.060741893477622
2760000000.0 0.9999999999999999 -3.105144271267043
2800000000.0 0.9999999999999999 -3.1495372809434046
2840000000.0 1.0000000000000002 -3.193921030478063
2880000000.0 1.0000000000000002 -3.2382956244505734
2920000000.0 1.0 -3.282661164190328
2960000000.0 0.9999999999999999 -3.3270177479104177
3000000000.0 1.0 -3.3713654708342697
3040000000.0 0.9999999999999999 -3.4157044253155164
3080000000.0 0.9999999999999999 -3.460034700951558
3120000000.0 1.0 -3.5043563846912207
3160000000.0 0.9999999999999999 -3.5486695609369043
3200000000.0 1.0 -3.592974311641534
3240000000.0 0.9999999999999999 -3.6372707164006806
3280000000.0 1.0 -3.6815588525401233
3320000000.0 1.0000000000000002 -3.725838795199144
3360000000.0 0.9999999999999999 -3.7701106174097947
3400000000.0 1.0 -3.8143743901724045
3440000000.0 0.9999999999999999 -3.8586301825275218
3480000000.0 1.0 -3.9028780616245085
3520000000.0 1.0000000000000002 -3.94711809278699
3560000000.0 1.0000000000000002 -3.9913503395753134
3600000000.0 1.0000000000000002 -4.035574863846211
3640000000.0 1.0 -4.079791725809806
3680000000.0 0.9999999999999999 -4.124000984084114
3720000000.0 0.9999999999999999 -4.168202695747167
3760000000.0 1.0000000000000002 -4.212396916386903
3800000000.0 1.0 -4.256583700148929
3840000000.0 1.0 -4.300763099782274
3880000000.0 1.0000000000000002 -4.3449351666832285
3920000000.0 1.0000000000000002 -4.3890999509373865
3960000000.0 0.9999999999999997 -4.433257501359963
4000000000.0 1.0 -4.4774078655344764
4040000000.0 0.9999999999999999 -4.521551089849904
4080000000.0 0.9999999999999999 -4.565687219536348
4120000000.0 1.0 -4.609816298699302
4160000000.0 1.0000000000000002 -4.653938370352592
4200000000.0 1.0 -4.698053476450061
4240000000.0 0.9999999999999999 -4.742161657916021
4280000000.0 1.0 -4.786262954674577
4320000000.0 0.9999999999999999 -4.830357405677846
4360000000.0 1.0 -4.87444504893313
4400000000.0 1.0000000000000002 -4.918525921529097
4440000000.0 1.0 -4.962600059661002
4480000000.0 1.0 -5.006667498655009
4520000000.0 1.0000000000000002 -5.050728272991632
4560000000.0 1.0 -5.094782416328358
4600000000.0 1.0 -5.138829961521465
4640000000.0 0.9999999999999999 -5.182870940647099
4680000000.0 1.0000000000000002 -5.226905385021594
4720000000.0 1.0 -5.2709333252211295
4760000000.0 1.0 -5.314954791100708
4800000000.0 1.0 -5.358969811812478
4840000000.0 1.0 -5.402978415823484
4880000000.0 1.0 -5.446980630932788
4920000000.0 1.0 -5.490976484288066
4960000000.0 1.0 -5.5349660024016405
5000000000.0 1.0 -5.578949211166
5040000000.0 1.0 -5.6229261358688385
5080000000.0 1.0000000000000002 -5.666896801207586
5120000000.0 1.0000000000000002 -5.710861231303521
5160000000.0 1.0000000000000002 -5.754819449715404
5200000000.0 0.9999999999999999 -5.798771479452718
5240000000.0 1.0 -5.842717342988484
5280000000.0 1.0 -5.886657062271693
5320000000.0 1.0 -5.9305906587393515
5360000000.0 0.9999999999999999 -5.97451815332818
5400000000.0 0.9999999999999999 -6.018439566485955
5440000000.0 0.9999999999999999 -6.062354918182513
5480000000.0 0.9999999999999997 -6.1062642279204296
5520000000.0 1.0 -6.150167514745399
5560000000.0 1.0000000000000002 -6.194064797256288
5600000000.0 1.0 -6.237956093614936
5640000000.0 0.9999999999999999 -6.281841421555645
5680000000.0 1.0000000000000002 -6.325720798394407
5720000000.0 1.0 -6.369594241037894
5760000000.0 1.0000000000000002 -6.413461765992151
5800000000.0 0.9999999999999999 -6.457323389371111
5840000000.0 1.0 -6.501179126904801
5880000000.0 1.0 -6.54502899394739
5920000000.0 0.9999999999999999 -6.588873005484986
5960000000.0 0.9999999999999999 -6.632711176143215
6000000000.0 1.0 -6.676543520194615
6040000000.0 1.0 -6.720370051565835
6080000000.0 1.0 -6.764190783844622
6120000000.0 0.9999999999999999 -6.808005730286633
6160000000.0 1.0 -6.8518149038221035
6200000000.0 1.0000000000000002 -6.89561831706227
6240000000.0 1.0 -6.939415982305703
6280000000.0 1.0 -6.983207911544431
6320000000.0 1.0 -7.0269941164699254
6360000000.0 1.0 -7.070774608478924
6400000000.0 1.0 -7.114549398679129
6440000000.0 1.0000000000000002 -7.158318497894732
6480000000.0 1.0000000000000002 -7.202081916671832
6520000000.0 0.9999999999999998 -7.245839665283706
6560000000.0 1.0 -7.28959175373593
6600000000.0 1.0 -7.333338191771441
6640000000.0 1.0 -7.377078988875376
6680000000.0 1.0000000000000002 -7.420814154279898
6720000000.0 1.0 -7.464543696968834
6760000000.0 0.9999999999999999 -7.508267625682227
6800000000.0 0.9999999999999999 -7.551985948920797
6840000000.0 0.9999999999999998 -7.595698674950264
6880000000.0 1.0 -7.63940581180561
6920000000.0 1.0 -7.68310736729519
6960000000.0 1.0 -7.726803349004798
7000000000.0 0.9999999999999999 -7.770493764301625
7040000000.0 0.9999999999999999 -7.814178620338102
7080000000.0 1.0 -7.857857924055686
7120000000.0 0.9999999999999999 -7.901531682188557
7160000000.0 0.9999999999999999 -7.945199901267203
7200000000.0 1.0000000000000002 -7.98886258762197
7240000000.0 0.9999999999999999 -8.032519747386507
7280000000.0 1.0000000000000002 -8.076171386501125
7320000000.0 1.0 -8.119817510716107
7360000000.0 1.0 -8.16345812559493
7400000000.0 0.9999999999999998 -8.20709323651743
7440000000.0 1.0 -8.250722848682878
7480000000.0 0.9999999999999998 -8.294346967113013
7520000000.0 0.9999999999999999 -8.337965596654998
7560000000.0 1.0 -8.381578741984317
7600000000.0 0.9999999999999999 -8.4251864076076
7640000000.0 1.0 -8.468788597865405
7680000000.0 1.0 -8.512385316934946
7720000000.0 1.0 -8.555976568832733
7760000000.0 1.0 -8.599562357417192
7800000000.0 1.0 -8.643142686391206
7840000000.0 1.0000000000000002 -8.686717559304634
7880000000.0 1.0 -8.730286979556741
7920000000.0 1.0 -8.773850950398607
7960000000.0 1.0 -8.817409474935475
8000000000.0 1.0 -8.860962556129062
8040000000.0 1.0 -8.904510196799809
8080000000.0 0.9999999999999999 -8.948052399629091
8120000000.0 1.0000000000000002 -8.991589167161418
8160000000.0 0.9999999999999999 -9.035120501806514
8200000000.0 0.9999999999999998 -9.078646405841448
8240000000.0 1.0 -9.122166881412651
8280000000.0 0.9999999999999999 -9.16568193053794
8320000000.0 0.9999999999999998 -9.20919155510846
8360000000.0 1.0 -9.25269575689065
8400000000.0 1.0 -9.296194537528118
8440000000.0 1.0000000000000002 -9.339687898543481
8480000000.0 0.9999999999999998 -9.383175841340229
8520000000.0 1.0 -9.42665836720446
8560000000.0 1.0000000000000002 -9.47013547730669
8600000000.0 1.0 -9.513607172703532
8640000000.0 1.0000000000000002 -9.557073454339417
8680000000.0 0.9999999999999999 -9.600534323048231
8720000000.0 0.9999999999999999 -9.643989779554959
8760000000.0 1.0 -9.687439824477261
8800000000.0 1.0000000000000002 -9.730884458327088
8840000000.0 1.0 -9.774323681512174
8880000000.0 1.0 -9.817757494337572
8920000000.0 1.0 -9.861185897007157
8960000000.0 0.9999999999999999 -9.904608889625056
9000000000.0 1.0000000000000002 -9.948026472197096
9040000000.0 0.9999999999999999 -9.991438644632225
9080000000.0 0.9999999999999998 -10.034845406743878
9120000000.0 1.0 -10.078246758251357
9160000000.0 0.9999999999999999 -10.121642698781137
9200000000.0 1.0 -10.165033227868218
9240000000.0 1.0 -10.208418344957394
9280000000.0 1.0000000000000002 -10.251798049404515
9320000000.0 1.0 -10.295172340477755
9360000000.0 0.9999999999999999 -10.338541217358829
9400000000.0 1.0000000000000002 -10.381904679144188
9440000000.0 1.0 -10.42526272484621
9480000000.0 1.0 -10.468615353394396
9520000000.0 1.0 -10.511962563636452
9560000000.0 1.0 -10.55530435433946
9600000000.0 1.0 -10.598640724190997
9640000000.0 0.9999999999999999 -10.641971671800178
9680000000.0 1.0 -10.685297195698773
9720000000.0 1.0000000000000002 -10.72861729434223
9760000000.0 0.9999999999999999 -10.771931966110731
9800000000.0 1.0 -10.8152412093102
9840000000.0 0.9999999999999999 -10.858545022173319
9880000000.0 1.0 -10.901843402860502
9920000000.0 0.9999999999999998 -10.945136349460872
9960000000.0 1.0000000000000002 -10.988423859993226
10000000000.0 1.0000000000000002 -11.031705932406963
10040000000.0 0.9999999999999999 -11.074982564583017
10080000000.0 1.0000000000000002 -11.11825375433477
10120000000.0 1.0 -11.161519499408934
10160000000.0 0.9999999999999999 -11.204779797486472
10200000000.0 0.9999999999999998 -11.248034646183426
10240000000.0 0.9999999999999999 -11.291284043051778
10280000000.0 1.0 -11.33452798558033
10320000000.0 1.0 -11.377766471195498
10360000000.0 1.0 -11.420999497262132
10400000000.0 1.0 -11.464227061084339
10440000000.0 1.0 -11.507449159906272
10480000000.0 0.9999999999999998 -11.550665790912888
10520000000.0 0.9999999999999999 -11.593876951230735
10560000000.0 1.0000000000000002 -11.63708263792872
10600000000.0 1.0000000000000002 -11.680282848018836
10640000000.0 1.0 -11.723477578456905
10680000000.0 1.0000000000000002 -11.76666682614329
10720000000.0 1.0 -11.809850587923638
10760000000.0 0.9999999999999999 -11.853028860589555
10800000000.0 1.0000000000000002 -11.896201640879301
10840000000.0 1.0 -11.939368925478497
10880000000.0 0.9999999999999999 -11.982530711020765
10920000000.0 0.9999999999999997 -12.025686994088412
10960000000.0 0.9999999999999998 -12.068837771213078
11000000000.0 0.9999999999999998 -12.111983038876376
11040000000.0 1.0 -12.15512279351054
11080000000.0 1.0000000000000002 -12.198257031499034
11120000000.0 0.9999999999999999 -12.241385749177171
11160000000.0 0.9999999999999999 -12.28450894283274
11200000000.0 1.0 -12.327626608706588
11240000000.0 0.9999999999999999 -12.370738742993211
11280000000.0 1.0 -12.41384534184134
11320000000.0 1.0000000000000002 -12.456946401354518
11360000000.0 1.0000000000000002 -12.500041917591686
11400000000.0 1.0 -12.543131886567691
11440000000.0 1.0 -12.586216304253881
11480000000.0 1.0 -12.629295166578649
11520000000.0 1.0 -12.672368469427946
11560000000.0 1.0000000000000002 -12.715436208645821
11600000000.0 0.9999999999999998 -12.758498380034947
11640000000.0 1.0 -12.801554979357132
11680000000.0 1.0 -12.844606002333814
11720000000.0 1.0 -12.887651444646593
11760000000.0 1.0000000000000002 -12.930691301937705
11800000000.0 0.9999999999999999 -12.973725569810503
11840000000.0 0.9999999999999999 -13.01675424382996
11880000000.0 1.0 -13.059777319523118
11920000000.0 0.9999999999999999 -13.102794792379578
11960000000.0 1.0 -13.145806657851972
12000000000.0 1.0 -13.188812911356365
12040000000.0 0.9999999999999999 -13.231813548272786
12080000000.0 0.9999999999999999 -13.2748085639456
12120000000.0 1.0000000000000002 -13.317797953683998
12160000000.0 0.9999999999999999 -13.360781712762396
12200000000.0 1.0 -13.403759836420887
12240000000.0 1.0 -13.446732319865648
12280000000.0 0.9999999999999999 -13.489699158269367
12320000000.0 1.0000000000000002 -13.532660346771646
12360000000.0 0.9999999999999998 -13.575615880479424
12400000000.0 1.0 -13.618565754467346
12440000000.0 0.9999999999999999 -13.661509963778196
12480000000.0 1.0 -13.704448503423272
12520000000.0 1.0 -13.747381368382756
12560000000.0 1.0 -13.79030855360614
12600000000.0 0.9999999999999998 -13.833230054012553
12640000000.0 1.0000000000000002 -13.876145864491166
12680000000.0 0.9999999999999999 -13.919055979901541
12720000000.0 1.0000000000000002 -13.96196039507402
12760000000.0 0.9999999999999999 -14.004859104810052
12800000000.0 1.0 -14.047752103882564
12840000000.0 1.0000000000000002 -14.090639387036317
12880000000.0 0.9999999999999999 -14.133520948988236
12920000000.0 0.9999999999999998 -14.176396784427766
12960000000.0 1.0000000000000002 -14.219266888017206
13000000000.0 1.0 -14.26213125439203
13040000000.0 1.0 -14.304989878161237
13080000000.0 1.0 -14.347842753907656
13120000000.0 1.0 -14.3906898761883
13160000000.0 1.0000000000000002 -14.433531239534632
13200000000.0 1.0 -14.47636683845295
13240000000.0 1.0 -14.519196667424618
13280000000.0 1.0 -14.562020720906437
13320000000.0 1.0000000000000002 -14.604838993330912
13360000000.0 1.0000000000000002 -14.647651479106568
13400000000.0 0.9999999999999999 -14.690458172618253
13440000000.0 0.9999999999999999 -14.733259068227406
13480000000.0 1.0 -14.77605416027237
13520000000.0 0.9999999999999999 -14.818843443068667
13560000000.0 1.0 -14.861626910909283
13600000000.0 0.9999999999999998 -14.904404558064948
13640000000.0 1.0 -14.947176378784409
13680000000.0 1.0 -14.989942367294725
13720000000.0 1.0000000000000002 -15.032702517801507
13760000000.0 1.0 -15.075456824489194
13800000000.0 1.0 -15.11820528152134
13840000000.0 1.0 -15.160947883040837
13880000000.0 1.0 -15.20368462317021
13920000000.0 1.0 -15.24641549601184
13960000000.0 1.0000000000000002 -15.289140495648262
14000000000.0 1.0 -15.331859616142356
14040000000.0 1.0 -15.374572851537653
14080000000.0 1.0000000000000002 -15.41728019585853
14120000000.0 0.9999999999999998 -15.459981643110481
14160000000.0 0.9999999999999998 -15.502677187280357
14200000000.0 1.0 -15.545366822336586
14240000000.0 1.0 -15.588050542229416
14280000000.0 0.9999999999999999 -15.630728340891162
14320000000.0 1.0 -15.673400212236393
14360000000.0 1.0 -15.716066150162218
14400000000.0 1.0 -15.75872614854845
14440000000.0 1.0000000000000002 -15.801380201257873
14480000000.0 1.0 -15.844028302136438
14520000000.0 1.0 -15.886670445013495
14560000000.0 1.0000000000000002 -15.92930662370198
14600000000.0 1.0 -15.971936831998677
14640000000.0 1.0000000000000002 -16.014561063684376
14680000000.0 0.9999999999999999 -16.057179312524116
14720000000.0 1.0 -16.099791572267364
14760000000.0 1.0 -16.14239783664826
14800000000.0 0.9999999999999998 -16.184998099385773
14840000000.0 1.0 -16.227592354183923
14880000000.0 1.0 -16.27018059473199
14920000000.0 1.0 -16.31276281470468
14960000000.0 1.0 -16.35533900776235
15000000000.0 1.0000000000000002 -16.397909167551163
15040000000.0 0.9999999999999999 -16.44047328770334
15080000000.0 1.0000000000000002 -16.48303136183726
15120000000.0 1.0000000000000002 -16.525583383557727
15160000000.0 1.0 -16.5681293464561
15200000000.0 0.9999999999999998 -16.610669244110515
15240000000.0 1.0 -16.65320307008602
15280000000.0 1.0 -16.69573081793482
15320000000.0 0.9999999999999999 -16.73825248119637
15360000000.0 0.9999999999999999 -16.780768053397626
15400000000.0 1.0 -16.82327752805316
15440000000.0 1.0 -16.865780898665385
15480000000.0 1.0 -16.908278158724674
15520000000.0 1.0 -16.950769301709563
15560000000.0 1.0000000000000002 -16.993254321086905
15600000000.0 1.0 -17.035733210312042
15640000000.0 0.9999999999999997 -17.07820596282895
15680000000.0 1.0 -17.120672572070436
15720000000.0 1.0000000000000002 -17.16313303145825
15760000000.0 0.9999999999999998 -17.205587334403273
15800000000.0 0.9999999999999999 -17.2480354743057
15840000000.0 0.9999999999999999 -17.290477444555123
15880000000.0 0.9999999999999999 -17.332913238530782
15920000000.0 1.0 -17.3753428496016
15960000000.0 0.9999999999999999 -17.41776627112645
16000000000.0 1.0 -17.460183496454242
16040000000.0 1.0 -17.502594518924074
16080000000.0 1.0000000000000002 -17.544999331865387
16120000000.0 0.9999999999999998 -17.587397928598122
16160000000.0 1.0000000000000002 -17.629790302432838
16200000000.0 1.0 -17.672176446670907
16240000000.0 1.0000000000000002 -17.71455635460457
16280000000.0 1.0 -17.75693001951716
16320000000.0 1.0 -17.799297434683208
16360000000.0 1.0000000000000002 -17.841658593368557
16400000000.0 0.9999999999999999 -17.88401348883054
16440000000.0 1.0 -17.926362114318103
16480000000.0 1.0000000000000002 -17.96870446307192
16520000000.0 1.0000000000000002 -18.01104052832455
16560000000.0 0.9999999999999999 -18.053370303300532
16600000000.0 1.0 -18.09569378121658
16640000000.0 1.0 -18.138010955281644
16680000000.0 1.0 -18.180321818697074
16720000000.0 1.0 -18.222626364656747
16760000000.0 0.9999999999999999 -18.26492458634718
16800000000.0 0.9999999999999999 -18.307216476947648
16840000000.0 0.9999999999999997 -18.34950202963034
16880000000.0 1.0 -18.391781237560455
16920000000.0 1.0 -18.434054093896318
16960000000.0 1.0 -18.476320591789516
17000000000.0 0.9999999999999999 -18.518580724385032
17040000000.0 1.0000000000000002 -18.56083448482131
17080000000.0 1.0 -18.603081866230422
17120000000.0 1.0000000000000002 -18.645322861738173
17160000000.0 1.0 -18.68755746446421
17200000000.0 1.0 -18.72978566752212
17240000000.0 1.0 -18.77200746401958
17280000000.0 1.0 -18.814222847058428
17320000000.0 1.0000000000000002 -18.85643180973481
17360000000.0 1.0000000000000002 -18.898634345139268
17400000000.0 0.9999999999999999 -18.940830446356866
17440000000.0 0.9999999999999999 -18.98302010646727
17480000000.0 1.0000000000000002 -19.02520331854487
17520000000.0 1.0000000000000002 -19.067380075658928
17560000000.0 0.9999999999999998 -19.109550370873595
17600000000.0 1.0 -19.15171419724811
17640000000.0 0.9999999999999999 -19.19387154783681
17680000000.0 0.9999999999999999 -19.236022415689334
