! Created with skrf (http://scikit-rf.org).
# Hz S MA R 50.0 
!freq magS11 angS11 magS21 angS21 magS12 angS12 magS22 angS22
40000000.0 0.001347325708160043 73.43029450093293 0.9996176723263597 -0.12151840892324013 0.9996176723263597 -0.12151840892324013 0.001347325708160043 73.43029450093293
80000000.0 0.0024379358278320017 72.41119080463997 0.9992698206707613 -0.22747457070444443 0.9992698206707613 -0.22747457070444443 0.0024379358278320017 72.41119080463997
120000000.0 0.0034329967759279224 71.55630216274652 0.9989272015859154 -0.3274687748218728 0.9989272015859154 -0.3274687748218728 0.0034329967759279224 71.55630216274652
160000000.0 0.004366310624662091 70.81770225398643 0.9985873195071747 -0.4235759833586755 0.9985873195071747 -0.4235759833586755 0.004366310624662091 70.81770225398643
200000000.0 0.00525387681672761 70.16006807853105 0.9982492244150246 -0.5167841946576034 0.9982492244150246 -0.5167841946576034 0.00525387681672761 70.16006807853105
240000000.0 0.00610509552229358 69.56196323889023 0.9979124375894967 -0.6076763025552091 0.9979124375894967 -0.6076763025552091 0.00610509552229358 69.56196323889023
280000000.0 0.0069261656326089225 69.00966644251596 0.9975766802171537 -0.6966379617703764 0.9975766802171537 -0.6966379617703764 0.0069261656326089225 69.00966644251596
320000000.0 0.007721485463596041 68.49387758884123 0.9972417746548586 -0.7839435689859415 0.9972417746548586 -0.7839435689859415 0.007721485463596041 68.49387758884123
360000000.0 0.008494338743341195 68.00798893052688 0.9969076005715514 -0.8697984846783657 0.9969076005715514 -0.8697984846783657 0.008494338743341195 68.00798893052688
400000000.0 0.009247270915935298 67.54712432220732 0.9965740727677566 -0.9543622458077907 0.9965740727677566 -0.9543622458077907 0.009247270915935298 67.54712432220732
440000000.0 0.009982313016221017 67.10757319278372 0.9962411288758748 -1.0377624022659788 0.9962411288758748 -1.0377624022659788 0.009982313016221017 67.10757319278372
480000000.0 0.010701123275150744 66.68643968146075 0.9959087220514141 -1.1201032835613867 0.9959087220514141 -1.1201032835613867 0.010701123275150744 66.68643968146075
520000000.0 0.01140508109557187 66.28141558569162 0.9955768163892106 -1.2014718256778343 0.9955768163892106 -1.2014718256778343 0.01140508109557187 66.28141558569162
560000000.0 0.012095351882531255 65.8906279825033 0.9952453839213532 -1.2819415964042633 0.9952453839213532 -1.2819415964042633 0.012095351882531255 65.8906279825033
600000000.0 0.012772933219057665 65.51253374175828 0.9949144025797784 -1.3615756660858582 0.9949144025797784 -1.3615756660858582 0.012772933219057665 65.51253374175828
640000000.0 0.013438688649005815 65.14584452687927 0.994583854771778 -1.4404287104164541 0.994583854771778 -1.4404287104164541 0.013438688649005815 65.14584452687927
680000000.0 0.014093372964100907 64.78947222317962 0.9942537263585562 -1.5185485861774644 0.9942537263585562 -1.5185485861774644 0.014093372964100907 64.78947222317962
720000000.0 0.014737651508265046 64.4424884177324 0.993924005906722 -1.595977535438087 0.993924005906722 -1.595977535438087 0.014737651508265046 64.4424884177324
760000000.0 0.015372115169866047 64.1040937706941 0.9935946841293554 -1.6727531217025569 0.9935946841293554 -1.6727531217025569 0.015372115169866047 64.1040937706941
800000000.0 0.015997292202213142 63.77359449352962 0.9932657534616854 -1.748908968707083 0.9932657534616854 -1.748908968707083 0.015997292202213142 63.77359449352962
840000000.0 0.016613657668887904 63.45038402733746 0.9929372077342332 -1.8244753513001986 0.9929372077342332 -1.8244753513001986 0.016613657668887904 63.45038402733746
880000000.0 0.017221641081880772 63.13392858876369 0.9926090419177471 -1.8994796736827482 0.9926090419177471 -1.8994796736827482 0.017221641081880772 63.13392858876369
920000000.0 0.01782163264495416 62.82375563510869 0.9922812519218469 -1.973946860643177 0.9922812519218469 -1.973946860643177 0.01782163264495416 62.82375563510869
960000000.0 0.01841398840663884 62.51944456237417 0.9919538344344047 -2.0478996807241208 0.9919538344344047 -2.0478996807241208 0.01841398840663884 62.51944456237417
1000000000.0 0.018999034550883115 62.22061913218192 0.9916267867922054 -2.121359015514993 0.9916267867922054 -2.121359015514993 0.018999034550883115 62.22061913218192
1040000000.0 0.019577070998453523 61.926941252209 0.9913001068759172 -2.1943440858538223 0.9913001068759172 -2.1943440858538223 0.019577070998453523 61.926941252209
1080000000.0 0.02014837445210266 61.6381058271188 0.9909737930241248 -2.2668726432303505 0.9909737930241248 -2.2668726432303505 0.02014837445210266 61.6381058271188
1120000000.0 0.02071320098886416 61.3538364641022 0.990647843962478 -2.338961132837748 0.990647843962478 -2.338961132837748 0.02071320098886416 61.3538364641022
1160000000.0 0.02127178828061486 61.07388186661303 0.9903222587449133 -2.41062483333758 0.9903222587449133 -2.41062483333758 0.02127178828061486 61.07388186661303
1200000000.0 0.021824357507206224 60.79801278673688 0.9899970367046032 -2.4818779773540407 0.9899970367046032 -2.4818779773540407 0.021824357507206224 60.79801278673688
1240000000.0 0.022371115013566326 60.526019434423425 0.9896721774127987 -2.5527338559097372 0.9896721774127987 -2.5527338559097372 0.022371115013566326 60.526019434423425
1280000000.0 0.022912253752197874 60.25770926293256 0.9893476806441199 -2.6232049093932366 0.9893476806441199 -2.6232049093932366 0.022912253752197874 60.25770926293256
1320000000.0 0.02344795454470814 59.99290506610755 0.9890235463471528 -2.6933028071628025 0.9890235463471528 -2.6933028071628025 0.02344795454470814 59.99290506610755
1360000000.0 0.0239783871898729 59.73144333566894 0.9886997746194298 -2.7630385175078507 0.9886997746194298 -2.7630385175078507 0.0239783871898729 59.73144333566894
1400000000.0 0.02450371144087105 59.473172836567585 0.9883763656860596 -2.832422369385956 0.9883763656860596 -2.832422369385956 0.02450371144087105 59.473172836567585
1440000000.0 0.025024077870436097 59.217953366181256 0.9880533198814042 -2.90146410710998 0.9880533198814042 -2.90146410710998 0.025024077870436097 59.217953366181256
1480000000.0 0.025539628639535954 58.96565466929402 0.9877306376333209 -2.9701729389642075 0.9877306376333209 -2.9701729389642075 0.025539628639535954 58.96565466929402
1520000000.0 0.026050498182657363 58.716155485700114 0.987408319449563 -3.0385575805696 0.987408319449563 -3.0385575805696 0.026050498182657363 58.716155485700114
1560000000.0 0.026556813820698404 58.46934271122781 0.9870863659060093 -3.1066262936887648 0.9870863659060093 -3.1066262936887648 0.026556813820698404 58.46934271122781
1600000000.0 0.027058696310778212 58.22511065616733 0.9867647776364599 -3.174386921055055 0.9867647776364599 -3.174386921055055 0.027058696310778212 58.22511065616733
1640000000.0 0.027556260340869682 57.98336038769109 0.9864435553237499 -3.2418469177225027 0.9864435553237499 -3.2418469177225027 0.027556260340869682 57.98336038769109
1680000000.0 0.028049614976005936 57.743999144964754 0.9861226996920147 -3.3090133793606396 0.9861226996920147 -3.3090133793606396 0.028049614976005936 57.743999144964754
1720000000.0 0.028538864061839034 57.50693981741138 0.9858022114999255 -3.3758930678577133 0.9858022114999255 -3.3758930678577133 0.028538864061839034 57.50693981741138
1760000000.0 0.029024106590526347 57.2721004780187 0.9854820915347753 -3.442492434545061 0.9854820915347753 -3.442492434545061 0.029024106590526347 57.2721004780187
1800000000.0 0.029505437033236027 57.03940396478388 0.985162340607295 -3.508817641312757 0.985162340607295 -3.508817641312757 0.029505437033236027 57.03940396478388
1840000000.0 0.029982945642991383 56.808777504391216 0.984842959547102 -3.5748745798507424 0.984842959547102 -3.5748745798507424 0.029982945642991383 56.808777504391216
1880000000.0 0.03045671873108718 56.580152373044555 0.9845239491986996 -3.6406688892189374 0.9845239491986996 -3.6406688892189374 0.03045671873108718 56.580152373044555
1920000000.0 0.030926838919898236 56.35346359008706 0.9842053104179593 -3.7062059719240734 0.9842053104179593 -3.7062059719240734 0.030926838919898236 56.35346359008706
1960000000.0 0.031393385374543975 56.128649640633014 0.9838870440690214 -3.7714910086585665 0.9838870440690214 -3.7714910086585665 0.031393385374543975 56.128649640633014
2000000000.0 0.03185643401557472 55.90565222393327 0.983569151021562 -3.836528971837926 0.983569151021562 -3.836528971837926 0.03185643401557472 55.90565222393327
2040000000.0 0.032316057714581875 55.68441602462808 0.983251632148386 -3.9013246380567033 0.983251632148386 -3.9013246380567033 0.032316057714581875 55.68441602462808
2080000000.0 0.032772326474411174 55.46488850440154 0.9829344883233023 -3.9658825995688867 0.9829344883233023 -3.9658825995688867 0.032772326474411174 55.46488850440154
2120000000.0 0.03322530759546249 55.24701971187113 0.9826177204192462 -4.030207274886557 0.9826177204192462 -4.030207274886557 0.03322530759546249 55.24701971187113
2160000000.0 0.03367506582939429 55.03076210879651 0.9823013293066295 -4.094302918579744 0.9823013293066295 -4.094302918579744 0.03367506582939429 55.03076210879651
2200000000.0 0.034121663521400405 54.81607041094422 0.9819853158518759 -4.15817363035157 0.9819853158518759 -4.15817363035157 0.034121663521400405 54.81607041094422
2240000000.0 0.03456516074210248 54.60290144212358 0.9816696809161399 -4.221823363454343 0.9816696809161399 -4.221823363454343 0.03456516074210248 54.60290144212358
2280000000.0 0.03500561540998609 54.39121400009562 0.9813544253541681 -4.285255932505442 0.9813544253541681 -4.285255932505442 0.03500561540998609 54.39121400009562
2320000000.0 0.035443083405214744 54.18096873319478 0.9810395500133055 -4.348475020755637 0.9810395500133055 -4.348475020755637 0.035443083405214744 54.18096873319478
2360000000.0 0.035877618675564 53.9721280266466 0.9807250557326173 -4.4114841868568835 0.9807250557326173 -4.4114841868568835 0.035877618675564 53.9721280266466
2400000000.0 0.036309273335148884 53.76465589766033 0.98041094334212 -4.474286871172091 0.98041094334212 -4.474286871172091 0.036309273335148884 53.76465589766033
2440000000.0 0.036738097756543575 53.55851789849525 0.9800972136621078 -4.536886401664903 0.9800972136621078 -4.536886401664903 0.036738097756543575 53.55851789849525
2480000000.0 0.03716414065683924 53.35368102676632 0.9797838675025646 -4.599285999403898 0.9797838675025646 -4.599285999403898 0.03716414065683924 53.35368102676632
2520000000.0 0.03758744917812801 53.150113642348714 0.9794709056626542 -4.661488783712326 0.9794709056626542 -4.661488783712326 0.03758744917812801 53.150113642348714
2560000000.0 0.038008068962858174 52.94778539029411 0.9791583289302762 -4.723497776991365 0.9791583289302762 -4.723497776991365 0.038008068962858174 52.94778539029411
2600000000.0 0.03842604422446213 52.746667129239896 0.9788461380816827 -4.7853159092424935 0.9788461380816827 -4.7853159092424935 0.03842604422446213 52.746667129239896
2640000000.0 0.038841417813621486 52.546730864842615 0.9785343338811527 -4.846946022312058 0.9785343338811527 -4.846946022312058 0.038841417813621486 52.546730864842615
2680000000.0 0.03925423128050017 52.347949687812196 0.9782229170807126 -4.9083908738789885 0.9782229170807126 -4.9083908738789885 0.03925423128050017 52.347949687812196
2720000000.0 0.03966452493324975 52.150297716162356 0.9779118884199003 -4.969653141204916 0.9779118884199003 -4.969653141204916 0.03966452493324975 52.150297716162356
2760000000.0 0.04007233789305761 51.9537500413407 0.9776012486255716 -5.030735424664059 0.9776012486255716 -5.030735424664059 0.04007233789305761 51.9537500413407
2800000000.0 0.04047770814599454 51.7582826779164 0.9772909984117388 -5.091640251068886 0.9772909984117388 -5.091640251068886 0.04047770814599454 51.7582826779164
2840000000.0 0.04088067259188573 51.563872516551264 0.9769811384794408 -5.152370076806036 0.9769811384794408 -5.152370076806036 0.04088067259188573 51.563872516551264
2880000000.0 0.04128126709041947 51.37049727999159 0.9766716695166444 -5.21292729079592 0.9766716695166444 -5.21292729079592 0.04128126709041947 51.37049727999159
2920000000.0 0.04167952650468371 51.178135481850724 0.9763625921981688 -5.2733142172882275 0.9763625921981688 -5.2733142172882275 0.04167952650468371 51.178135481850724
2960000000.0 0.04207548474230766 50.986766387969446 0.9760539071856327 -5.333533118504485 0.9760539071856327 -5.333533118504485 0.04207548474230766 50.986766387969446
3000000000.0 0.04246917479437138 50.796369980158595 0.9757456151274218 -5.393586197138104 0.9757456151274218 -5.393586197138104 0.04246917479437138 50.796369980158595
3040000000.0 0.04286062877223174 50.60692692214942 0.975437716658677 -5.453475598721296 0.975437716658677 -5.453475598721296 0.04286062877223174 50.60692692214942
3080000000.0 0.043249877942402024 50.41841852759055 0.9751302124012958 -5.513203413867681 0.9751302124012958 -5.513203413867681 0.043249877942402024 50.41841852759055
3120000000.0 0.04363695275961379 50.230826729940595 0.97482310296395 -5.572771680398623 0.97482310296395 -5.572771680398623 0.04363695275961379 50.230826729940595
3160000000.0 0.04402188289817547 50.04413405412394 0.9745163889421179 -5.632182385360712 0.9745163889421179 -5.632182385360712 0.04402188289817547 50.04413405412394
3200000000.0 0.044404697281737036 49.8583235898269 0.9742100709181244 -5.691437466941317 0.9742100709181244 -5.691437466941317 0.044404697281737036 49.8583235898269
3240000000.0 0.044785424111561035 49.67337896631546 0.9739041494611955 -5.750538816288559 0.9739041494611955 -5.750538816288559 0.044785424111561035 49.67337896631546
3280000000.0 0.04516409089339156 49.48928432867389 0.9735986251275198 -5.809488279241548 0.9735986251275198 -5.809488279241548 0.04516409089339156 49.48928432867389
3320000000.0 0.04554072446300723 49.30602431536811 0.9732934984603203 -5.868287657976428 0.9732934984603203 -5.868287657976428 0.04554072446300723 49.30602431536811
3360000000.0 0.04591535101053779 49.12358403704197 0.9729887699899316 -5.926938712573242 0.9729887699899316 -5.926938712573242 0.04591535101053779 49.12358403704197
3400000000.0 0.04628799610361862 48.94194905646711 0.9726844402338837 -5.985443162508339 0.9726844402338837 -5.985443162508339 0.04628799610361862 48.94194905646711
3440000000.0 0.0466586847094507 48.7611053695705 0.9723805096969952 -6.04380268807667 0.9723805096969952 -6.04380268807667 0.0466586847094507 48.7611053695705
3480000000.0 0.04702744121582992 48.58103938747017 0.9720769788714659 -6.102018931748125 0.9720769788714659 -6.102018931748125 0.04702744121582992 48.58103938747017
3520000000.0 0.047394289451207265 48.40173791945274 0.9717738482369792 -6.160093499461582 0.9717738482369792 -6.160093499461582 0.047394289451207265 48.40173791945274
3560000000.0 0.04775925270383147 48.22318815683634 0.9714711182608048 -6.2180279618602885 0.9714711182608048 -6.2180279618602885 0.04775925270383147 48.22318815683634
3600000000.0 0.0481223537400289 48.04537765766148 0.9711687893979059 -6.275823855471825 0.9711687893979059 -6.275823855471825 0.0481223537400289 48.04537765766148
3640000000.0 0.048483614821668304 47.86829433215657 0.9708668620910519 -6.333482683835762 0.9708668620910519 -6.333482683835762 0.048483614821668304 47.86829433215657
3680000000.0 0.04884305772285257 47.691926428938466 0.9705653367709288 -6.391005918581838 0.9705653367709288 -6.391005918581838 0.04884305772285257 47.691926428938466
3720000000.0 0.04920070374588426 47.516262521892656 0.9702642138562566 -6.44839500046136 0.9702642138562566 -6.44839500046136 0.04920070374588426 47.516262521892656
3760000000.0 0.049556573736540155 47.34129149770115 0.9699634937539038 -6.505651340334333 0.9699634937539038 -6.505651340334333 0.049556573736540155 47.34129149770115
3800000000.0 0.04991068809869338 47.167002543976906 0.9696631768590087 -6.562776320114728 0.9696631768590087 -6.562776320114728 0.04991068809869338 47.167002543976906
3840000000.0 0.050263066808317755 46.99338513796623 0.9693632635550979 -6.619771293675963 0.9693632635550979 -6.619771293675963 0.050263066808317755 46.99338513796623
3880000000.0 0.05061372942690521 46.8204290357926 0.9690637542142063 -6.676637587718803 0.9690637542142063 -6.676637587718803 0.05061372942690521 46.8204290357926
3920000000.0 0.050962695114329444 46.648124262203616 0.9687646491970008 -6.733376502603521 0.9687646491970008 -6.733376502603521 0.050962695114329444 46.648124262203616
3960000000.0 0.05130998264117988 46.4764611007986 0.9684659488528993 -6.789989313148168 0.9684659488528993 -6.789989313148168 0.05130998264117988 46.4764611007986
4000000000.0 0.0516556104005976 46.30543008470611 0.9681676535201962 -6.846477269394697 0.9681676535201962 -6.846477269394697 0.0516556104005976 46.30543008470611
4040000000.0 0.051999596419634364 46.135021987687246 0.9678697635261836 -6.902841597344475 0.9678697635261836 -6.902841597344475 0.051999596419634364 46.135021987687246
4080000000.0 0.05234195837016021 45.96522781564223 0.9675722791872738 -6.959083499664755 0.9675722791872738 -6.959083499664755 0.05234195837016021 45.96522781564223
4120000000.0 0.05268271357934185 45.79603879849719 0.9672752008091212 -7.015204156367511 0.9672752008091212 -7.015204156367511 0.05268271357934185 45.79603879849719
4160000000.0 0.053021879039712255 45.62744638245032 0.9669785286867464 -7.071204725461969 0.9669785286867464 -7.071204725461969 0.053021879039712255 45.62744638245032
4200000000.0 0.05335947141885095 45.45944222255981 0.9666822631046573 -7.127086343582101 0.9666822631046573 -7.127086343582101 0.05335947141885095 45.45944222255981
4240000000.0 0.05369550706869498 45.29201817565317 0.9663864043369699 -7.1828501265902736 0.9663864043369699 -7.1828501265902736 0.05369550706869498 45.29201817565317
4280000000.0 0.05403000203449559 45.12516629354344 0.9660909526475298 -7.238497170158183 0.9660909526475298 -7.238497170158183 0.05403000203449559 45.12516629354344
4320000000.0 0.054362972063440165 44.95887881653412 0.9657959082900321 -7.294028550326109 0.9657959082900321 -7.294028550326109 0.054362972063440165 44.95887881653412
4360000000.0 0.05469443261295276 44.793148167199064 0.9655012715081426 -7.349445324041541 0.9655012715081426 -7.349445324041541 0.05469443261295276 44.793148167199064
4400000000.0 0.055024398858688116 44.62796694442423 0.965207042535614 -7.404748529678039 0.965207042535614 -7.404748529678039 0.055024398858688116 44.62796694442423
4440000000.0 0.05535288570223529 44.46332791769509 0.964913221596406 -7.459939187535328 0.964913221596406 -7.459939187535328 0.05535288570223529 44.46332791769509
4480000000.0 0.05567990777854132 44.29922402162105 0.9646198089048016 -7.515018300321387 0.9646198089048016 -7.515018300321387 0.05567990777854132 44.29922402162105
4520000000.0 0.05600547946306885 44.135648350682104 0.964326804665524 -7.569986853617384 0.964326804665524 -7.569986853617384 0.05600547946306885 44.135648350682104
4560000000.0 0.056329614878699814 43.9725941541881 0.9640342090738501 -7.624845816326176 0.9640342090738501 -7.624845816326176 0.056329614878699814 43.9725941541881
4600000000.0 0.056652327902395196 43.81005483144046 0.9637420223157269 -7.679596141105121 0.9637420223157269 -7.679596141105121 0.056652327902395196 43.81005483144046
4640000000.0 0.05697363217162277 43.64802392708614 0.9634502445678843 -7.734238764783927 0.9634502445678843 -7.734238764783927 0.05697363217162277 43.64802392708614
4680000000.0 0.05729354109056182 43.486495126653885 0.9631588759979458 -7.7887746087680245 0.9631588759979458 -7.7887746087680245 0.05729354109056182 43.486495126653885
4720000000.0 0.057612067836095106 43.32546225226583 0.9628679167645412 -7.84320457942832 0.9628679167645412 -7.84320457942832 0.057612067836095106 43.32546225226583
4760000000.0 0.057929225363596744 43.16491925851423 0.9625773670174163 -7.897529568477653 0.9625773670174163 -7.897529568477653 0.057929225363596744 43.16491925851423
