# GHz S MA R 50

4.000000000000000e-02  7.4554931971674817e-03 -1.7613273269561802e+02  3.8231871287508351e-02 -1.3325774943008705e+01  9.6075277568730955e-01 -1.0408505138594070e+02  1.2980084889574288e-03 -4.0686444534919033e+01
                         3.8231871287508351e-02 -1.3325774943008705e+01  7.5214881184036408e-03 -1.7594421289868612e+02  1.2980084889574288e-03 -4.0686444534919033e+01  9.6067503273089661e-01 -1.0407869971316529e+02
                         9.6075277159563410e-01 -1.0408505161286023e+02  1.2980082378114457e-03 -4.0686451015297251e+01  7.4555003316713114e-03 -1.7613274050501724e+02  3.8231871173271786e-02 -1.3325775464170079e+01
                         1.2980082378114457e-03 -4.0686451015297251e+01  9.6067503681424526e-01 -1.0407869948795370e+02  3.8231871173271786e-02 -1.3325775464170079e+01  7.5214809873911034e-03 -1.7594420497950134e+02
8.000000000000000e-02  3.5102979661150759e-03 -1.2641224539031096e+02  1.8107383835190803e-02  5.5465629529081404e+01  9.3915659801475815e-01  1.5215230665450568e+02  2.6708845584822510e-03 -1.2562019148251737e+02
                         1.8107383835190803e-02  5.5465629529081404e+01  3.5401440990387020e-03 -1.2611329877316504e+02  2.6708845584822510e-03 -1.2562019148251737e+02  9.3902453724647927e-01  1.5216767657426701e+02
                         9.3915658019665949e-01  1.5215230728946486e+02  2.6708842953991306e-03 -1.2562016772090433e+02  3.5103127230901696e-03 -1.2641214973100855e+02  1.8107383353012034e-02  5.5465627331979611e+01
                         2.6708842953991306e-03 -1.2562016772090433e+02  9.3902455503704285e-01  1.5216767593756842e+02  1.8107383353012034e-02  5.5465627331979611e+01  3.5401293117570871e-03 -1.2611339237893313e+02
1.200000000000000e-01  5.3293783664431806e-03  1.2978181510440433e+02  2.8226339364031922e-02 -3.6047845662292929e+01  9.0766590412480341e-01  4.9046491634584882e+01  3.6848756907261648e-03  1.2811866898195981e+02
                         2.8226339364031922e-02 -3.6047845662292929e+01  5.3836467315973155e-03  1.3022631587058217e+02  3.6848756907261648e-03  1.2811866898195981e+02  9.0749652330604791e-01  4.9073943881657215e+01
                         9.0766588114058067e-01  4.9046488218573010e+01  3.6848722951987670e-03  1.2811864991886861e+02  5.3294330807162373e-03  1.2978208115650804e+02  2.8226336554594805e-02 -3.6047850866025748e+01
                         3.6848722951987670e-03  1.2811864991886861e+02  9.0749654616668340e-01  4.9073947285614331e+01  2.8226336554594805e-02 -3.6047850866025748e+01  5.3835918271418768e-03  1.3022605701701201e+02
1.600000000000000e-01  5.8276069397580031e-03 -1.7333854743614063e+02  2.9076299721968204e-02  3.0940108245040367e+01  8.7250484626749092e-01 -5.3477423720995041e+01  4.8796569144334426e-03  2.2864973175793679e+01
                         2.9076299721968204e-02  3.0940108245040367e+01  5.8792711951612649e-03 -1.7285949040973580e+02  4.8796569144334426e-03  2.2864973175793679e+01  8.7233855982130282e-01 -5.3436771331501483e+01
                         8.7250472157467363e-01 -5.3477418212461060e+01  4.8796556681328113e-03  2.2865090993527073e+01  5.8277167660576064e-03 -1.7333803351139528e+02  2.9076292797491844e-02  3.0940100408053876e+01
                         4.8796556681328113e-03  2.2865090993527073e+01  8.7233868393741310e-01 -5.3436776858284844e+01  2.9076292797491844e-02  3.0940100408053876e+01  5.8791609365725465e-03 -1.7285999087310395e+02
2.000000000000000e-01  2.9101462288152065e-03  1.0163685115526968e+02  1.5536123995983512e-02 -4.4124540147257356e+01  8.3765187280347886e-01 -1.5532648967380840e+02  5.4857479071668304e-03 -7.9343707823323115e+01
                         1.5536123995983512e-02 -4.4124540147257356e+01  2.9443776762184707e-03  1.0220597536304329e+02  5.4857479071668304e-03 -7.9343707823323115e+01  8.3752412441796464e-01 -1.5527279680079636e+02
                         8.3765187484407966e-01 -1.5532649736390943e+02  5.4857415521860284e-03 -7.9343760435782301e+01  2.9102322644484137e-03  1.0163779438520353e+02  1.5536117211787511e-02 -4.4124548353406261e+01
                         5.4857415521860284e-03 -7.9343760435782301e+01  8.3752412234781459e-01 -1.5527278912540564e+02  1.5536117211787511e-02 -4.4124548353406261e+01  2.9442911696347289e-03  1.0220505971665114e+02
2.400000000000000e-01  6.7061904507047364e-03  1.4800335607176487e+02  3.2832973958907115e-02  1.0595603612691034e+01  8.0438692834329184e-01  1.0327884635321236e+02  6.1221255856573767e-03  1.7629376243505013e+02
                         3.2832973958907115e-02  1.0595603612691034e+01  6.7613745194851265e-03  1.4858810975453682e+02  6.1221255856573767e-03  1.7629376243505013e+02  8.0431498714352168e-01  1.0334412022653662e+02
                         8.0438659064368290e-01  1.0327885748787278e+02  6.1221198640314320e-03  1.7629401723021337e+02  6.7064424604246203e-03  1.4800458947210470e+02  3.2832952414621329e-02  1.0595597872247748e+01
                         6.1221198640314320e-03  1.7629401723021337e+02  8.0431532284605256e-01  1.0334410905711860e+02  3.2832952414621329e-02  1.0595597872247748e+01  6.7611210529500924e-03  1.4858690817913075e+02
2.800000000000000e-01  1.5189700939272780e-03  1.2986999030013337e+02  8.3148084908226672e-03 -6.5444789502191743e+00  7.7504583487168821e-01  2.3001352987813561e+00  6.6459118448559170e-03  7.6049616758075658e+01
                         8.3148084908226672e-03 -6.5444789502191743e+00  1.5344968453296234e-03  1.3017805023070062e+02  6.6459118448559170e-03  7.6049616758075658e+01  7.7503727677701728e-01  2.3751455699175525e+00
                         7.7504594968219476e-01  2.3001322130241233e+00  6.6459139338744741e-03  7.6049538469043526e+01  1.5190539567627175e-03  1.2987162831029451e+02  8.3148012810305375e-03 -6.5444794496505763e+00
                         6.6459139338744741e-03  7.6049538469043526e+01  7.7503716217057861e-01  2.3751486632990693e+00  8.3148012810305375e-03 -6.5444794496505763e+00  1.5344127514187601e-03  1.3017644547350565e+02
3.200000000000000e-01  6.4552394114904404e-03  1.1616140735190068e+02  3.1626311193186103e-02 -5.7560692936569264e+00  7.4831947733159276e-01 -9.8397300310615918e+01  6.9601192884051755e-03 -2.5879466589686189e+01
                         3.1626311193186103e-02 -5.7560692936569264e+00  6.5020454030029033e-03  1.1681602028863777e+02  6.9601192884051755e-03 -2.5879466589686189e+01  7.4836856481769987e-01 -9.8311630515900418e+01
                         7.4831887919925799e-01 -9.8397294944269120e+01  6.9600992262716975e-03 -2.5879111715767387e+01  6.4555933065009756e-03  1.1616383810864853e+02  3.1626275350637834e-02 -5.7560631617693137e+00
                         6.9600992262716975e-03 -2.5879111715767387e+01  7.4836915974184637e-01 -9.8311635947043513e+01  3.1626275350637834e-02 -5.7560631617693137e+00  6.5016884132819983e-03  1.1681364254117551e+02
3.600000000000000e-01  2.8245067349320164e-03  1.5052948851516376e+02  1.3692465237647005e-02  2.8960090013045157e+01  7.2538656555518111e-01  1.6109547891615350e+02  7.4682699668421997e-03 -1.2602831164316490e+02
                         1.3692465237647005e-02  2.8960090013045157e+01  2.8370518761732860e-03  1.5104964739731767e+02  7.4682699668421997e-03 -1.2602831164316490e+02  7.2549006337741917e-01  1.6118784262096833e+02
                         7.2538677599541823e-01  1.6109549850050993e+02  7.4682950393257447e-03 -1.2602835018487839e+02  2.8246932923004634e-03  1.5053225222315618e+02  1.3692447372703129e-02  2.8960103405724816e+01
                         7.4682950393257447e-03 -1.2602835018487839e+02  7.2548985259501064e-01  1.6118782312099859e+02  1.3692447372703129e-02  2.8960103405724816e+01  2.8368640960988573e-03  1.5104692986016988e+02
4.000000000000000e-01  5.4914130374946520e-03  9.0692458931112228e+01  2.7240837417895070e-02 -1.8283234798168888e+01  7.0476723529874230e-01  6.0756492123195997e+01  7.6987948595312302e-03  1.3392913068073574e+02
                         2.7240837417895070e-02 -1.8283234798168888e+01  5.5247920666912911e-03  9.1360672208404964e+01  7.6987948595312302e-03  1.3392913068073574e+02  7.0491310136041163e-01  6.0856067793057271e+01
                         7.0476653008626944e-01  6.0756472881506760e+01  7.6987530153496677e-03  1.3392943758647755e+02  5.4917739082617429e-03  9.0696497182984999e+01  2.7240796257820984e-02 -1.8283213223522740e+01
                         7.6987530153496677e-03  1.3392943758647755e+02  7.0491380367791523e-01  6.0856086897151542e+01  2.7240796257820984e-02 -1.8283213223522740e+01  5.5244267327944864e-03  9.1356701735221264e+01
4.400000000000000e-01  4.3444300056652068e-03  1.3530223228387055e+02  2.0930022512255467e-02  2.7087390188491963e+01  6.8680200061772800e-01 -3.9523986527363945e+01  8.1417963293079869e-03  3.3499972199058561e+01
                         2.0930022512255467e-02  2.7087390188491963e+01  4.3591483104626974e-03  1.3593839743251885e+02  8.1417963293079869e-03  3.3499972199058561e+01  6.8698772635672856e-01 -3.9415997553867186e+01
                         6.8680206991549742e-01 -3.9523927186850628e+01  8.1418502232643453e-03  3.3500108583040657e+01  4.3447597097822834e-03  1.3530681169267535e+02  2.0929985664350469e-02  2.7087419943805813e+01
                         8.1418502232643453e-03  3.3500108583040657e+01  6.8698765466070166e-01 -3.9416056689215196e+01  2.0929985664350469e-02  2.7087419943805813e+01  4.3588147986071239e-03  1.3593388117962718e+02
4.800000000000000e-01  4.1434098899150980e-03  7.2878335829075581e+01  2.1095250864849934e-02 -2.5265282107555301e+01  6.7071564777104387e-01 -1.3970986722214735e+02  8.4221982311078053e-03 -6.5665479585180350e+01
                         2.1095250864849934e-02 -2.5265282107555301e+01  4.1654243190027375e-03  7.3513060433051095e+01  8.4221982311078053e-03 -6.5665479585180350e+01  6.7093136783643137e-01 -1.3959154065440538e+02
                         6.7071513516049441e-01 -1.3970992251154280e+02  8.4221322914868856e-03 -6.5665358488836034e+01  4.1437187320226007e-03  7.2884818127603509e+01  2.1095206403590486e-02 -2.5265242638971831e+01
                         8.4221322914868856e-03 -6.5665358488836034e+01  6.7093187920596453e-01 -1.3959148560082596e+02  2.1095206403590486e-02 -2.5265242638971831e+01  4.1651103544896439e-03  7.3506658874281683e+01
5.200000000000000e-01  5.3857447289052847e-03  1.1541215899050553e+02  2.6030450519128272e-02  1.7293465668176651e+01  6.5617957001488014e-01  1.2010604595485717e+02  8.7645538763504918e-03 -1.6609858559582642e+02
                         2.6030450519128272e-02  1.7293465668176651e+01  5.3993859287934879e-03  1.1607651244740534e+02  8.7645538763504918e-03 -1.6609858559582642e+02  6.5642163255744757e-01  1.2022604059152897e+02
                         6.5617911234621673e-01  1.2010613979076385e+02  8.7646191392042397e-03 -1.6609815959797763e+02  5.3861699349740024e-03  1.1541872261653661e+02  2.6030394616905029e-02  1.7293511005728021e+01
                         8.7646191392042397e-03 -1.6609815959797763e+02  6.5642208466215690e-01  1.2022594701107802e+02  2.6030394616905029e-02  1.7293511005728021e+01  5.3989536669651140e-03  1.1607001710827966e+02
5.600000000000001e-01  2.8004822476349056e-03  6.9027068786331711e+01  1.5093492427786048e-02 -2.0974705125380403e+01  6.4317686183343736e-01  1.9977544840849866e+01  9.1268580425044477e-03  9.4794512915506687e+01
                         1.5093492427786048e-02 -2.0974705125380403e+01  2.8128064602124287e-03  6.9596638320342521e+01  9.1268580425044477e-03  9.4794512915506687e+01  6.4344107013610252e-01  2.0104325780008448e+01
                         6.4317693953795219e-01  1.9977478126506487e+01  9.1268044701156813e-03  9.4794349343446555e+01  2.8006967124834053e-03  6.9036030427360572e+01  1.5093456358110845e-02 -2.0974651654258942e+01
                         9.1268044701156813e-03  9.4794349343446555e+01  6.4344099364876162e-01  2.0104392323423966e+01  1.5093456358110845e-02 -2.0974651654258942e+01  2.8125877191590614e-03  6.9587758424932375e+01
6.000000000000001e-01  5.8499670920698875e-03  9.5753740487285953e+01  2.8326185906668487e-02  5.7947496222529091e+00  6.3093618337463708e-01 -8.0165325951671505e+01  9.3875868118502032e-03 -5.3150477783787888e+00
                         2.8326185906668487e-02  5.7947496222529091e+00  5.8607603589203132e-03  9.6429662611215136e+01  9.3875868118502032e-03 -5.3150477783787888e+00  6.3121583302920226e-01 -8.0031373342673135e+01
                         6.3093490277214004e-01 -8.0165233345602104e+01  9.3876295359997756e-03 -5.3143028735435882e+00  5.8504160671343092e-03  9.5762672522152187e+01  2.8326110533326818e-02  5.7948108307167558e+00
                         9.3876295359997756e-03 -5.3143028735435882e+00  6.3121710487494231e-01 -8.0031465836113767e+01  2.8326110533326818e-02  5.7948108307167558e+00  5.8603007967800635e-03  9.6420798024271207e+01
6.400000000000000e-01  2.2550729559047450e-03  8.8883523141392033e+01  1.2691620628913852e-02  3.8235024318740163e-01  6.1992263293001926e-01  1.7970778386546067e+02  9.7921196622113536e-03 -1.0480212428522601e+02
                         1.2691620628913852e-02  3.8235024318740163e-01  2.2572734381135395e-03  8.9349062140190696e+01  9.7921196622113536e-03 -1.0480212428522601e+02  6.2022025837288908e-01  1.7984572255121699e+02
                         6.1992337670184361e-01  1.7970775588648749e+02  9.7921149895606654e-03 -1.0480248761772718e+02  2.2552780702270432e-03  8.8895011043511417e+01  1.2691584975396178e-02  3.8241701295950425e-01
                         9.7921149895606654e-03 -1.0480248761772718e+02  6.2021951681476128e-01  1.7984575062792561e+02  1.2691584975396178e-02  3.8241701295950425e-01  2.2570647466771320e-03  8.9337626000839961e+01
6.800000000000000e-01  5.7319101857194405e-03  7.7763503738246769e+01  2.7775261231805747e-02 -5.3338528219266941e+00  6.0924331542938404e-01  7.9580677464229709e+01  1.0026584448408529e-02  1.5549539540898203e+02
                         2.7775261231805747e-02 -5.3338528219266941e+00  5.7397746160390509e-03  7.8414677294614805e+01  1.0026584448408529e-02  1.5549539540898203e+02  6.0954803250059530e-01  7.9724868843688441e+01
                         6.0924137601073369e-01  7.9580706711706881e+01  1.0026563884829025e-02  1.5549625311234922e+02  5.7322949281979731e-03  7.7774753935360437e+01  2.7775175847834357e-02 -5.3337780786707416e+00
                         1.0026563884829025e-02  1.5549625311234922e+02  6.0954996280138007e-01  7.9724839341275072e+01  2.7775175847834357e-02 -5.3337780786707416e+00  5.7393773259902057e-03  7.8403485331624097e+01
7.200000000000001e-01  3.0184620900384879e-03  1.0422176639504141e+02  1.5740422598956087e-02  1.7908107176371644e+01  5.9945322410209578e-01 -2.0560253909590898e+01  1.0416313887843342e-02  5.5588558785038479e+01
                         1.5740422598956087e-02  1.7908107176371644e+01  3.0142304707146028e-03  1.0478652321430462e+02  1.0416313887843342e-02  5.5588558785038479e+01  5.9977347023348926e-01 -2.0410156870290233e+01
                         5.9945423111005103e-01 -2.0560183909979205e+01  1.0416389312138379e-02  5.5588237170521133e+01  3.0187350448286315e-03  1.0423480304278139e+02  1.5740370264118092e-02  1.7908187607525683e+01
                         1.0416389312138379e-02  5.5588237170521133e+01  5.9977246309994414e-01 -2.0410226347880471e+01  1.5740370264118092e-02  1.7908187607525683e+01  3.0139509147185579e-03  1.0477351762975127e+02
7.600000000000000e-01  5.0957928420151460e-03  6.2665371642732019e+01  2.4784523649984142e-02 -1.4373372769035239e+01  5.8986383513376661e-01 -1.2068091450642713e+02  1.0671789401347206e-02 -4.3851012582561694e+01
                         2.4784523649984142e-02 -1.4373372769035239e+01  5.1013431028315804e-03  6.3289470588617640e+01  1.0671789401347206e-02 -4.3851012582561694e+01  5.9018611359338358e-01 -1.2052283332563039e+02
                         5.8986184775409234e-01 -1.2068099767605868e+02  1.0671684988358771e-02 -4.3850310899541768e+01  5.0960564404638128e-03  6.2679448186817041e+01  2.4784431888054678e-02 -1.4373283089123337e+01
                         1.0671684988358771e-02 -4.3850310899541768e+01  5.9018809496815061e-01 -1.2052275086244059e+02  2.4784431888054678e-02 -1.4373283089123337e+01  5.1010661886990820e-03  6.3275440923007878e+01
8.000000000000000e-01  4.1864768336805297e-03  1.0036255651077575e+02  2.0663087742674446e-02  1.9395821210728339e+01  5.8079723549360074e-01  1.3916846873211605e+02  1.0998510832807050e-02 -1.4399651768422444e+02
                         2.0663087742674446e-02  1.9395821210728339e+01  4.1801156210872822e-03  1.0097391943533265e+02  1.0998510832807050e-02 -1.4399651768422444e+02  5.8113138428141786e-01  1.3932963184790682e+02
                         5.8079764558840985e-01  1.3916866008575707e+02  1.0998659949962821e-02 -1.4399648058275176e+02  4.1867861616601025e-03  1.0037751882779556e+02  2.0663008703287009e-02  1.9395914843409226e+01
                         1.0998659949962821e-02 -1.4399648058275176e+02  5.8113096799961139e-01  1.3932944132596981e+02  2.0663008703287009e-02  1.9395914843409226e+01  4.1797949294019709e-03  1.0095897815626026e+02
8.400000000000001e-01  4.1021900451882927e-03  5.2951372632873465e+01  2.0300230187216911e-02 -1.8662152361211039e+01  5.7197173729189621e-01  3.9040463676363146e+01  1.1297104334638883e-02  1.1657822978304435e+02
                         2.0300230187216911e-02 -1.8662152361211039e+01  4.1060170361531395e-03  5.3504728290269355e+01  1.1297104334638883e-02  1.1657822978304435e+02  5.7230827587754307e-01  3.9208868118732724e+01
                         5.7197069292368907e-01  3.9040279036505552e+01  1.1296949783234011e-02  1.1657845006659262e+02  4.1023136698229096e-03  5.2968296019446896e+01  2.0300144899265585e-02 -1.8662050090386352e+01
                         1.1296949783234011e-02  1.1657845006659262e+02  5.7230932064538675e-01  3.9209051906586652e+01  2.0300144899265585e-02 -1.8662050090386352e+01  4.1058820719099059e-03  5.3487837027620181e+01
8.800000000000000e-01  5.1335038935799845e-03  8.9026561292423565e+01  2.4593402120884861e-02  1.3082280798856347e+01  5.6333721527465042e-01 -6.1113783655303735e+01  1.1557099031425754e-02  1.6441578577990288e+01
                         2.4593402120884861e-02  1.3082280798856347e+01  5.1259156476665176e-03  8.9654754722568214e+01  1.1557099031425754e-02  1.6441578577990288e+01  5.6367791041999504e-01 -6.0936456843145386e+01
                         5.6333609225613090e-01 -6.1113512323257460e+01  1.1557276149081981e-02  1.6442228638637388e+01  5.1337762149716000e-03  8.9044263967825529e+01  2.4593288054025747e-02  1.3082390405132232e+01
                         1.1557276149081981e-02  1.6442228638637388e+01  5.6367901886789518e-01 -6.0936727456134577e+01  2.4593288054025747e-02  1.3082390405132232e+01  5.1256264412692706e-03  8.9637058295965744e+01
9.200000000000000e-01  3.0913807355505431e-03  5.4059326434926682e+01  1.6068260159422892e-02 -1.3783172435593213e+01  5.5502796795601839e-01 -1.6124732935533240e+02  1.1884005134965164e-02 -8.3168695410720716e+01
                         1.6068260159422892e-02 -1.3783172435593213e+01  3.0917600615254525e-03  5.4503715973547017e+01  1.1884005134965164e-02 -8.3168695410720716e+01  5.5537505640373297e-01 -1.6106626076569276e+02
                         5.5502855474931512e-01 -1.6124752806669184e+02  1.1883873890715312e-02 -8.3169058673884905e+01  3.0914043653064256e-03  5.4080075530682734e+01  1.6068182139502087e-02 -1.3783057352036369e+01
                         1.1883873890715312e-02 -8.3169058673884905e+01  5.5537447586138811e-01 -1.6106606249529997e+02  1.6068182139502087e-02 -1.3783057352036369e+01  3.0917281545187656e-03  5.4482973033194618e+01
