#    GHz    S    RI    R    50    

0.0400000000000000 0.9999999495183042 0.0003177484358810
0.0800000000000000 0.9999998014965304 0.0006300883675058
0.1200000000000000 0.9999995578429365 0.0009403868841515
0.1600000000000000 0.9999992195649049 0.0012493597008907
0.2000000000000000 0.9999987873628455 0.0015573467336348
0.2400000000000000 0.9999982617751602 0.0018645481880375
0.2800000000000000 0.9999976432394446 0.0021710963530213
0.3200000000000000 0.9999969321243617 0.0024770852515329
0.3600000000000000 0.9999961287484143 0.0027825851843342
0.4000000000000000 0.9999952333919524 0.0030876507186715
0.4400000000000000 0.9999942463053225 0.0033923254465199
0.4800000000000000 0.9999931677146547 0.0036966449974205
0.5200000000000000 0.9999919978261192 0.0040006390398438
0.5600000000000001 0.9999907368291553 0.0043043326630672
0.6000000000000000 0.9999893848989668 0.0046077473622286
0.6400000000000000 0.9999879421985061 0.0049109017595548
0.6800000000000000 0.9999864088800632 0.0052138121446023
0.7200000000000000 0.9999847850865695 0.0055164928869598
0.7600000000000000 0.9999830709526717 0.0058189567569709
0.8000000000000000 0.9999812666056319 0.0061212151787600
0.8400000000000000 0.9999793721660921 0.0064232784325342
0.8800000000000000 0.9999773877487177 0.0067251558182706
0.9200000000000000 0.9999753134627603 0.0070268557895851
0.9600000000000000 0.9999731494125366 0.0073283860642787
1.0000000000000000 0.9999708956978534 0.0076297537164311
1.0400000000000000 0.9999685524143719 0.0079309652537369
1.0800000000000001 0.9999661196539381 0.0082320266829280
1.1200000000000001 0.9999635975048667 0.0085329435654919
1.1599999999999999 0.9999609860522017 0.0088337210654210
1.2000000000000000 0.9999582853779443 0.0091343639903684
1.2400000000000000 0.9999554955612565 0.0094348768273114
1.2800000000000000 0.9999526166786527 0.0097352637736083
1.3200000000000001 0.9999496488041620 0.0100355287641695
1.3600000000000001 0.9999465920094839 0.0103356754953336
1.3999999999999999 0.9999434463641255 0.0106357074459309
1.4399999999999999 0.9999402119355294 0.0109356278959389
1.4800000000000000 0.9999368887891870 0.0112354399430629
1.5200000000000000 0.9999334769887483 0.0115351465175232
1.5600000000000001 0.9999299765961168 0.0118347503952850
1.6000000000000001 0.9999263876715397 0.0121342542099302
1.6399999999999999 0.9999227102736938 0.0124336604633413
1.6799999999999999 0.9999189444597588 0.0127329715353427
1.7200000000000000 0.9999150902854909 0.0130321896924234
1.7600000000000000 0.9999111478052893 0.0133313170956472
1.8000000000000000 0.9999071170722565 0.0136303558078446
1.8400000000000001 0.9999029981382577 0.0139293078001639
1.8799999999999999 0.9998987910539726 0.0142281749580529
1.9199999999999999 0.9998944958689480 0.0145269590867320
1.9600000000000000 0.9998901126316407 0.0148256619162097
2.0000000000000000 0.9998856413894688 0.0151242851058895
2.0400000000000000 0.9998810821888445 0.0154228302488079
2.0800000000000001 0.9998764350752205 0.0157212988755393
2.1200000000000001 0.9998717000931224 0.0160196924578018
2.1600000000000001 0.9998668772861847 0.0163180124117888
2.2000000000000002 0.9998619666971835 0.0166162601012556
2.2400000000000002 0.9998569683680659 0.0169144368403804
2.2799999999999998 0.9998518823399835 0.0172125438964211
2.3199999999999998 0.9998467086533140 0.0175105824921858
2.3599999999999999 0.9998414473476913 0.0178085538083323
2.3999999999999999 0.9998360984620305 0.0181064589855127
2.4399999999999999 0.9998306620345485 0.0184042991263737
2.4800000000000000 0.9998251381027893 0.0187020752974270
2.5200000000000000 0.9998195267036446 0.0189997885307977
2.5600000000000001 0.9998138278733731 0.0192974398258628
2.6000000000000001 0.9998080416476198 0.0195950301507866
2.6400000000000001 0.9998021680614364 0.0198925604439616
2.6800000000000002 0.9997962071492973 0.0201900316153624
2.7200000000000002 0.9997901589451154 0.0204874445478188
2.7599999999999998 0.9997840234822608 0.0207848000982132
2.7999999999999998 0.9997778007935740 0.0210820990986096
2.8399999999999999 0.9997714909113800 0.0213793423573172
2.8799999999999999 0.9997650938675057 0.0216765306598950
2.9199999999999999 0.9997586096932896 0.0219736647700996
2.9600000000000000 0.9997520384195964 0.0222707454307815
3.0000000000000000 0.9997453800768293 0.0225677733647332
3.0400000000000000 0.9997386346949418 0.0228647492754916
3.0800000000000001 0.9997318023034489 0.0231616738480985
3.1200000000000001 0.9997248829314389 0.0234585477498212
3.1600000000000001 0.9997178766075806 0.0237553716308365
3.2000000000000002 0.9997107833601391 0.0240521461248803
3.2400000000000002 0.9997036032169799 0.0243488718498634
3.2799999999999998 0.9996963362055823 0.0246455494084589
3.3199999999999998 0.9996889823530453 0.0249421793886593
3.3599999999999999 0.9996815416860996 0.0252387623643073
3.3999999999999999 0.9996740142311121 0.0255352988956015
3.4399999999999999 0.9996664000140975 0.0258317895295781
3.4800000000000000 0.9996586990607241 0.0261282348005702
3.5200000000000000 0.9996509113963220 0.0264246352306461
3.5600000000000001 0.9996430370458893 0.0267209913300272
3.6000000000000001 0.9996350760341011 0.0270173035974882
3.6400000000000001 0.9996270283853150 0.0273135725207380
3.6800000000000002 0.9996188941235766 0.0276097985767851
3.7200000000000002 0.9996106732726280 0.0279059822322868
3.7599999999999998 0.9996023658559139 0.0282021239438827
3.7999999999999998 0.9995939718965843 0.0284982241585151
3.8399999999999999 0.9995854914175043 0.0287942833137350
3.8799999999999999 0.9995769244412567 0.0290903018379959
3.9199999999999999 0.9995682709901497 0.0293862801509351
3.9600000000000000 0.9995595310862205 0.0296822186636437
4.0000000000000000 0.9995507047512399 0.0299781177789261
4.0400000000000000 0.9995417920067203 0.0302739778915482
4.0800000000000001 0.9995327928739156 0.0305697993884760
4.1200000000000001 0.9995237073738305 0.0308655826491065
4.1600000000000001 0.9995145355272221 0.0311613280454863
4.2000000000000002 0.9995052773546060 0.0314570359425255
4.2400000000000002 0.9994959328762590 0.0317527066982002
4.2800000000000002 0.9994865021122239 0.0320483406637503
4.3200000000000003 0.9994769850823131 0.0323439381838671
4.3600000000000003 0.9994673818061138 0.0326394995968761
4.4000000000000004 0.9994576923029902 0.0329350252349120
4.4400000000000004 0.9994479165920876 0.0332305154240877
4.4800000000000004 0.9994380546923372 0.0335259704846572
4.5199999999999996 0.9994281066224574 0.0338213907311723
4.5599999999999996 0.9994180724009584 0.0341167764726344
4.5999999999999996 0.9994079520461457 0.0344121280126404
4.6399999999999997 0.9993977455761239 0.0347074456495239
4.6799999999999997 0.9993874530087968 0.0350027296764913
4.7199999999999998 0.9993770743618748 0.0352979803817535
4.7599999999999998 0.9993666096528734 0.0355931980486525
4.7999999999999998 0.9993560588991203 0.0358883829557849
4.8399999999999999 0.9993454221177555 0.0361835353771198
4.8799999999999999 0.9993346993257332 0.0364786555821143
4.9199999999999999 0.9993238905398287 0.0367737438358241
4.9600000000000000 0.9993129957766367 0.0370688003990111
5.0000000000000000 0.9993020150525759 0.0373638255282470
5.0400000000000000 0.9992909483838900 0.0376588194760144
5.0800000000000001 0.9992797957866535 0.0379537824908039
5.1200000000000001 0.9992685572767688 0.0382487148172084
5.1600000000000001 0.9992572328699744 0.0385436166960147
5.2000000000000002 0.9992458225818421 0.0388384883642919
5.2400000000000002 0.9992343264277822 0.0391333300554773
5.2800000000000002 0.9992227444230444 0.0394281419994596
5.3200000000000003 0.9992110765827205 0.0397229244226597
5.3600000000000003 0.9991993229217463 0.0400176775481086
5.4000000000000004 0.9991874834549032 0.0403124015955239
5.4400000000000004 0.9991755581968201 0.0406070967813830
5.4800000000000004 0.9991635471619773 0.0409017633189946
5.5199999999999996 0.9991514503647052 0.0411964014185686
5.5599999999999996 0.9991392678191885 0.0414910112872830
5.5999999999999996 0.9991269995394667 0.0417855931293495
5.6399999999999997 0.9991146455394364 0.0420801471460773
5.6799999999999997 0.9991022058328541 0.0423746735359346
5.7199999999999998 0.9990896804333361 0.0426691724946089
5.7599999999999998 0.9990770693543591 0.0429636442150650
5.7999999999999998 0.9990643726092668 0.0432580888876024
5.8399999999999999 0.9990515902112660 0.0435525066999097
5.8799999999999999 0.9990387221734308 0.0438468978371189
5.9199999999999999 0.9990257685087035 0.0441412624818571
5.9600000000000000 0.9990127292298975 0.0444356008142977
6.0000000000000000 0.9989996043496956 0.0447299130122096
6.0400000000000000 0.9989863938806555 0.0450241992510056
6.0800000000000001 0.9989730978352070 0.0453184597037886
6.1200000000000001 0.9989597162256560 0.0456126945413980
6.1600000000000001 0.9989462490641868 0.0459069039324535
6.2000000000000002 0.9989326963628598 0.0462010880433987
6.2400000000000002 0.9989190581336158 0.0464952470385431
6.2800000000000002 0.9989053343882769 0.0467893810801031
6.3200000000000003 0.9988915251385451 0.0470834903282422
6.3600000000000003 0.9988776303960085 0.0473775749411100
6.4000000000000004 0.9988636501721376 0.0476716350748797
6.4400000000000004 0.9988495844782884 0.0479656708837860
6.4800000000000004 0.9988354333257050 0.0482596825201607
6.5199999999999996 0.9988211967255178 0.0485536701344679
6.5599999999999996 0.9988068746887462 0.0488476338753388
6.5999999999999996 0.9987924672263018 0.0491415738896047
6.6399999999999997 0.9987779743489844 0.0494354903223304
6.6799999999999997 0.9987633960674874 0.0497293833168455
6.7199999999999998 0.9987487323923977 0.0500232530147761
6.7599999999999998 0.9987339833341955 0.0503170995560748
6.7999999999999998 0.9987191489032567 0.0506109230790504
6.8399999999999999 0.9987042291098523 0.0509047237203976
6.8799999999999999 0.9986892239641522 0.0511985016152245
6.9199999999999999 0.9986741334762229 0.0514922568970809
6.9600000000000000 0.9986589576560305 0.0517859896979848
7.0000000000000000 0.9986436965134405 0.0520797001484492
7.0400000000000000 0.9986283500582198 0.0523733883775077
7.0800000000000001 0.9986129183000362 0.0526670545127401
7.1200000000000001 0.9985974012484606 0.0529606986802965
7.1600000000000001 0.9985817989129666 0.0532543210049216
7.2000000000000002 0.9985661113029333 0.0535479216099786
7.2400000000000002 0.9985503384276424 0.0538415006174717
7.2800000000000002 0.9985344802962841 0.0541350581480688
7.3200000000000003 0.9985185369179531 0.0544285943211242
7.3600000000000003 0.9985025083016524 0.0547221092546988
7.4000000000000004 0.9984863944562935 0.0550156030655826
7.4400000000000004 0.9984701953906959 0.0553090758693140
7.4800000000000004 0.9984539111135889 0.0556025277802012
7.5199999999999996 0.9984375416336131 0.0558959589113411
7.5599999999999996 0.9984210869593187 0.0561893693746391
7.5999999999999996 0.9984045470991690 0.0564827592808275
7.6399999999999997 0.9983879220615386 0.0567761287394849
7.6799999999999997 0.9983712118547158 0.0570694778590532
7.7199999999999998 0.9983544164869032 0.0573628067468561
7.7599999999999998 0.9983375359662175 0.0576561155091167
7.7999999999999998 0.9983205703006903 0.0579494042509736
7.8399999999999999 0.9983035194982686 0.0582426730764985
7.8799999999999999 0.9982863835668171 0.0585359220887119
7.9199999999999999 0.9982691625141168 0.0588291513895995
7.9600000000000000 0.9982518563478661 0.0591223610801277
8.0000000000000000 0.9982344650756818 0.0594155512602591
8.0399999999999991 0.9982169887050998 0.0597087220289672
8.0800000000000001 0.9981994272435754 0.0600018734842518
8.1199999999999992 0.9981817806984832 0.0602950057231527
8.1600000000000001 0.9981640490771194 0.0605881188417642
8.1999999999999993 0.9981462323867012 0.0608812129352496
8.2400000000000002 0.9981283306343666 0.0611742880978538
8.2799999999999994 0.9981103438271772 0.0614673444229172
8.3200000000000003 0.9980922719721157 0.0617603820028890
8.3599999999999994 0.9980741150760889 0.0620534009293394
8.4000000000000004 0.9980558731459284 0.0623464012929731
8.4399999999999995 0.9980375461883880 0.0626393831836407
8.4800000000000004 0.9980191342101485 0.0629323466903518
8.5199999999999996 0.9980006372178145 0.0632252919012860
8.5600000000000005 0.9979820552179169 0.0635182189038050
8.5999999999999996 0.9979633882169131 0.0638111277844644
8.6400000000000006 0.9979446362211876 0.0641040186290244
8.6799999999999997 0.9979257992370510 0.0643968915224607
8.7200000000000006 0.9979068772707425 0.0646897465489765
8.7599999999999998 0.9978878703284291 0.0649825837920111
8.8000000000000007 0.9978687784162067 0.0652754033342529
8.8399999999999999 0.9978496015401004 0.0655682052576471
8.8800000000000008 0.9978303397060639 0.0658609896434079
8.9199999999999999 0.9978109929199818 0.0661537565720266
8.9600000000000009 0.9977915611876685 0.0664465061232828
9.0000000000000000 0.9977720445148701 0.0667392383762532
9.0399999999999991 0.9977524429072623 0.0670319534093204
9.0800000000000001 0.9977327563704537 0.0673246513001837
9.1199999999999992 0.9977129849099844 0.0676173321258663
9.1600000000000001 0.9976931285313271 0.0679099959627256
9.1999999999999993 0.9976731872398868 0.0682026428864614
9.2400000000000002 0.9976531610410027 0.0684952729721237
9.2799999999999994 0.9976330499399465 0.0687878862941228
9.3200000000000003 0.9976128539419247 0.0690804829262361
9.3599999999999994 0.9975925730520774 0.0693730629416168
9.4000000000000004 0.9975722072754798 0.0696656264128021
9.4399999999999995 0.9975517566171421 0.0699581734117202
9.4800000000000004 0.9975312210820099 0.0702507040096994
9.5199999999999996 0.9975106006749648 0.0705432182774743
9.5600000000000005 0.9974898954008238 0.0708357162851943
9.5999999999999996 0.9974691052643411 0.0711281981024305
9.6400000000000006 0.9974482302702077 0.0714206637981825
9.6799999999999997 0.9974272704230508 0.0717131134408864
9.7200000000000006 0.9974062257274366 0.0720055470984211
9.7599999999999998 0.9973850961878680 0.0722979648381153
9.8000000000000007 0.9973638818087860 0.0725903667267549
9.8399999999999999 0.9973425825945706 0.0728827528305882
9.8800000000000008 0.9973211985495398 0.0731751232153339
9.9199999999999999 0.9972997296779527 0.0734674779461868
9.9600000000000009 0.9972781759840040 0.0737598170878241
10.0000000000000000 0.9972565374718322 0.0740521407044119
10.0399999999999991 0.9972348141455126 0.0743444488596113
10.0800000000000001 0.9972130060090635 0.0746367416165842
10.1199999999999992 0.9971911130664416 0.0749290190379991
10.1600000000000001 0.9971691353215452 0.0752212811860376
10.1999999999999993 0.9971470727782140 0.0755135281223997
10.2400000000000002 0.9971249254402291 0.0758057599083090
10.2799999999999994 0.9971026933113133 0.0760979766045192
10.3200000000000003 0.9970803763951310 0.0763901782713188
10.3599999999999994 0.9970579746952896 0.0766823649685373
10.4000000000000004 0.9970354882153378 0.0769745367555493
10.4399999999999995 0.9970129169587686 0.0772666936912808
10.4800000000000004 0.9969902609290175 0.0775588358342143
10.5199999999999996 0.9969675201294623 0.0778509632423929
10.5600000000000005 0.9969446945634267 0.0781430759734264
10.5999999999999996 0.9969217842341759 0.0784351740844955
10.6400000000000006 0.9968987891449205 0.0787272576323570
10.6799999999999997 0.9968757092988152 0.0790193266733483
10.7200000000000006 0.9968525446989583 0.0793113812633925
10.7599999999999998 0.9968292953483953 0.0796034214580027
10.8000000000000007 0.9968059612501141 0.0798954473122864
10.8399999999999999 0.9967825424070502 0.0801874588809505
10.8800000000000008 0.9967590388220826 0.0804794562183050
10.9199999999999999 0.9967354504980376 0.0807714393782685
10.9600000000000009 0.9967117774376871 0.0810634084143711
11.0000000000000000 0.9966880196437485 0.0813553633797598
11.0399999999999991 0.9966641771188871 0.0816473043272018
11.0800000000000001 0.9966402498657135 0.0819392313090891
11.1199999999999992 0.9966162378867859 0.0822311443774427
11.1600000000000001 0.9965921411846095 0.0825230435839155
11.1999999999999993 0.9965679597616369 0.0828149289797985
11.2400000000000002 0.9965436936202683 0.0831068006160218
11.2799999999999994 0.9965193427628515 0.0833986585431605
11.3200000000000003 0.9964949071916822 0.0836905028114376
11.3599999999999994 0.9964703869090048 0.0839823334707284
11.4000000000000004 0.9964457819170111 0.0842741505705629
11.4399999999999995 0.9964210922178427 0.0845659541601310
11.4800000000000004 0.9963963178135887 0.0848577442882845
11.5199999999999996 0.9963714587062880 0.0851495210035418
11.5600000000000005 0.9963465148979290 0.0854412843540910
11.5999999999999996 0.9963214863904493 0.0857330343877932
11.6400000000000006 0.9962963731857343 0.0860247711521851
11.6799999999999997 0.9962711752856217 0.0863164946944843
11.7200000000000006 0.9962458926918977 0.0866082050615906
11.7599999999999998 0.9962205254062989 0.0868999023000902
11.8000000000000007 0.9961950734305122 0.0871915864562589
11.8399999999999999 0.9961695367661755 0.0874832575760644
11.8800000000000008 0.9961439154148759 0.0877749157051709
11.9199999999999999 0.9961182093781539 0.0880665608889405
11.9600000000000009 0.9960924186574978 0.0883581931724375
12.0000000000000000 0.9960665432543495 0.0886498126004306
12.0399999999999991 0.9960405831701014 0.0889414192173959
12.0800000000000001 0.9960145384060980 0.0892330130675206
12.1199999999999992 0.9959884089636344 0.0895245941947047
12.1600000000000001 0.9959621948439578 0.0898161626425646
12.1999999999999993 0.9959358960482693 0.0901077184544356
12.2400000000000002 0.9959095125777192 0.0903992616733748
12.2799999999999994 0.9958830444334122 0.0906907923421629
12.3200000000000003 0.9958564916164054 0.0909823105033093
12.3599999999999994 0.9958298541277082 0.0912738161990516
12.4000000000000004 0.9958031319682824 0.0915653094713603
12.4399999999999995 0.9957763251390428 0.0918567903619405
12.4800000000000004 0.9957494336408588 0.0921482589122353
12.5199999999999996 0.9957224574745516 0.0924397151634273
12.5600000000000005 0.9956953966408957 0.0927311591564411
12.5999999999999996 0.9956682511406204 0.0930225909319471
12.6400000000000006 0.9956410209744078 0.0933140105303621
12.6799999999999997 0.9956137061428950 0.0936054179918527
12.7200000000000006 0.9955863066466714 0.0938968133563378
12.7599999999999998 0.9955588224862814 0.0941881966634901
12.8000000000000007 0.9955312536622249 0.0944795679527391
12.8399999999999999 0.9955036001749549 0.0947709272632735
12.8800000000000008 0.9954758620248781 0.0950622746340422
12.9199999999999999 0.9954480392123586 0.0953536101037583
12.9600000000000009 0.9954201317377138 0.0956449337108995
13.0000000000000000 0.9953921396012152 0.0959362454937116
13.0399999999999991 0.9953640628030913 0.0962275454902099
13.0800000000000001 0.9953359013435251 0.0965188337381818
13.1199999999999992 0.9953076552226545 0.0968101102751883
13.1600000000000001 0.9952793244405738 0.0971013751385662
13.1999999999999993 0.9952509089973324 0.0973926283654309
13.2400000000000002 0.9952224088929358 0.0976838699926768
13.2799999999999994 0.9951938241273451 0.0979751000569808
13.3200000000000003 0.9951651547004783 0.0982663185948036
13.3599999999999994 0.9951364006122076 0.0985575256423919
13.4000000000000004 0.9951075618623639 0.0988487212357794
13.4399999999999995 0.9950786384507336 0.0991399054107900
13.4800000000000004 0.9950496303770588 0.0994310782030387
13.5199999999999996 0.9950205376410393 0.0997222396479339
13.5600000000000005 0.9949913602423314 0.1000133897806791
13.5999999999999996 0.9949620981805477 0.1003045286362743
13.6400000000000006 0.9949327514552588 0.1005956562495188
13.6799999999999997 0.9949033200659920 0.1008867726550116
13.7200000000000006 0.9948738040122319 0.1011778778871537
13.7599999999999998 0.9948442032934196 0.1014689719801510
13.8000000000000007 0.9948145179089554 0.1017600549680136
13.8399999999999999 0.9947847478581958 0.1020511268845595
13.8800000000000008 0.9947548931404553 0.1023421877634152
13.9199999999999999 0.9947249537550061 0.1026332376380178
