#    GHz    S    RI    R    50    

0.0400000000000000 0.9999988804636049 -0.0014963527447898
0.0800000000000000 0.9999955407067137 -0.0029863969407079
0.1200000000000000 0.9999900089291728 -0.0044701277200024
0.1600000000000000 0.9999823132255415 -0.0059475403399212
0.2000000000000000 0.9999724815844840 -0.0074186301814344
0.2400000000000000 0.9999605418881715 -0.0088833927479579
0.2800000000000000 0.9999465219116975 -0.0103418236640798
0.3200000000000000 0.9999304493225039 -0.0117939186742902
0.3600000000000000 0.9999123516798163 -0.0132396736417121
0.4000000000000000 0.9998922564340953 -0.0146790845468362
0.4400000000000000 0.9998701909264929 -0.0161121474862583
0.4800000000000000 0.9998461823883231 -0.0175388586714195
0.5200000000000000 0.9998202579405450 -0.0189592144273492
0.5600000000000001 0.9997924445932516 -0.0203732111914116
0.6000000000000000 0.9997627692451746 -0.0217808455120552
0.6400000000000000 0.9997312586831953 -0.0231821140475655
0.6800000000000000 0.9996979395818693 -0.0245770135648213
0.7200000000000000 0.9996625798590150 -0.0259754967155240
0.7600000000000000 0.9996244329486380 -0.0274042524458108
0.8000000000000000 0.9995842867095026 -0.0288314717531895
0.8400000000000000 0.9995421476061854 -0.0302571505402417
0.8800000000000000 0.9994980221078118 -0.0316812847367647
0.9200000000000000 0.9994519166879304 -0.0331038702997383
0.9600000000000000 0.9994038378243868 -0.0345249032132912
1.0000000000000000 0.9993537919991973 -0.0359443794886673
1.0400000000000000 0.9993017856984264 -0.0373622951641912
1.0800000000000001 0.9992478254120616 -0.0387786463052326
1.1200000000000001 0.9991919176338881 -0.0401934290041708
1.1599999999999999 0.9991340688613680 -0.0416066393803583
1.2000000000000000 0.9990742855955154 -0.0430182735800841
1.2400000000000000 0.9990125743407743 -0.0444283277765365
1.2800000000000000 0.9989489416048973 -0.0458367981697645
1.3200000000000001 0.9988833938988239 -0.0472436809866399
1.3600000000000001 0.9988159377365584 -0.0486489724808182
1.3999999999999999 0.9987463436397811 -0.0500573777396348
1.4399999999999999 0.9986745297416907 -0.0514702209555525
1.4800000000000000 0.9986007655262780 -0.0528820488477078
1.5200000000000000 0.9985250550818612 -0.0542928574838950
1.5600000000000001 0.9984474025047718 -0.0557026429487327
1.6000000000000001 0.9983678118992829 -0.0571114013436726
1.6399999999999999 0.9982862873775287 -0.0585191287870071
1.6799999999999999 0.9982028330594299 -0.0599258214138773
1.7200000000000000 0.9981174530726173 -0.0613314753762802
1.7600000000000000 0.9980301515523557 -0.0627360868430760
1.8000000000000000 0.9979409326414663 -0.0641396519999944
1.8400000000000001 0.9978498004902527 -0.0655421670496409
1.8799999999999999 0.9977567592564233 -0.0669436282115029
1.9199999999999999 0.9976618131050163 -0.0683440317219550
1.9600000000000000 0.9975649662083239 -0.0697433738342641
2.0000000000000000 0.9974662227458158 -0.0711416508185945
2.0400000000000000 0.9973655869040647 -0.0725388589620119
2.0800000000000001 0.9972627354007151 -0.0739394115548884
2.1200000000000001 0.9971578180290160 -0.0753411304906677
2.1600000000000001 0.9970509831794163 -0.0767420154866875
2.2000000000000002 0.9969422340506610 -0.0781420627196207
2.2400000000000002 0.9968315738501957 -0.0795412683790091
2.2799999999999998 0.9967190057941119 -0.0809396286672817
2.3199999999999998 0.9966045331070860 -0.0823371397997734
2.3599999999999999 0.9964881590223243 -0.0837337980047422
2.3999999999999999 0.9963698867815043 -0.0851295995233870
2.4399999999999999 0.9962497196347168 -0.0865245406098652
2.4800000000000000 0.9961276608404083 -0.0879186175313093
2.5200000000000000 0.9960037136653235 -0.0893118265678437
2.5600000000000001 0.9958778813844474 -0.0907041640126014
2.6000000000000001 0.9957501672809476 -0.0920956261717396
2.6400000000000001 0.9956205746461174 -0.0934862093644565
2.6800000000000002 0.9954891067793165 -0.0948759099230060
2.7200000000000002 0.9953557669879152 -0.0962647241927134
2.7599999999999998 0.9952201327452473 -0.0976569883752929
2.7999999999999998 0.9950825667597429 -0.0990489037336702
2.8399999999999999 0.9949431113515820 -0.1004400576166369
2.8799999999999999 0.9948017693026814 -0.1018304462931136
2.9199999999999999 0.9946585434037586 -0.1032200660429604
2.9600000000000000 0.9945134364542852 -0.1046089131569981
3.0000000000000000 0.9943664512624373 -0.1059969839370294
3.0400000000000000 0.9942175906450479 -0.1073842746958609
3.0800000000000001 0.9940668574275578 -0.1087707817573232
3.1200000000000001 0.9939142544439685 -0.1101565014562923
3.1600000000000001 0.9937597845367921 -0.1115414301387097
3.2000000000000002 0.9936034505570034 -0.1129255641616028
3.2400000000000002 0.9934452553639924 -0.1143088998931050
3.2799999999999998 0.9932852018255139 -0.1156914337124751
3.3199999999999998 0.9931232928176406 -0.1170731620101175
3.3599999999999999 0.9929595312247126 -0.1184540811876009
3.3999999999999999 0.9927938563152001 -0.1198347147649380
3.4399999999999999 0.9926259347886436 -0.1212177940113232
3.4800000000000000 0.9924561480556595 -0.1226001394229331
3.5200000000000000 0.9922844986821630 -0.1239817473464899
3.5600000000000001 0.9921109892428055 -0.1253626141385936
3.6000000000000001 0.9919356223209347 -0.1267427361657456
3.6400000000000001 0.9917584005085497 -0.1281221098043706
3.6800000000000002 0.9915793264062575 -0.1295007314408397
3.7200000000000002 0.9913984026232315 -0.1308785974714921
3.7599999999999998 0.9912156317771670 -0.1322557043026573
3.7999999999999998 0.9910310164942377 -0.1336320483506769
3.8399999999999999 0.9908445594090545 -0.1350076260419260
3.8799999999999999 0.9906562631646194 -0.1363824338128349
3.9199999999999999 0.9904661304122839 -0.1377564681099096
3.9600000000000000 0.9902741638117051 -0.1391297253897538
4.0000000000000000 0.9900803660308020 -0.1405022021190886
4.0400000000000000 0.9898847397457123 -0.1418738947747735
4.0800000000000001 0.9896871209169973 -0.1432459517439323
4.1200000000000001 0.9894873820356446 -0.1446192269106916
4.1600000000000001 0.9892858050385758 -0.1459917667170900
4.2000000000000002 0.9890823923944031 -0.1473635675985207
4.2400000000000002 0.9888771465802690 -0.1487346259996817
4.2800000000000002 0.9886700700818035 -0.1501049383745979
4.3200000000000003 0.9884611653930857 -0.1514745011866445
4.3600000000000003 0.9882504350166039 -0.1528433109085687
4.4000000000000004 0.9880378814632140 -0.1542113640225118
4.4400000000000004 0.9878235072521019 -0.1555786570200318
4.4800000000000004 0.9876073149107405 -0.1569451864021242
4.5199999999999996 0.9873893069748515 -0.1583109486792444
4.5599999999999996 0.9871694859883647 -0.1596759403713286
4.5999999999999996 0.9869478545033764 -0.1610401580078149
4.6399999999999997 0.9867244150801114 -0.1624035981276648
4.6799999999999997 0.9864991702868802 -0.1637662572793835
4.7199999999999998 0.9862721227000394 -0.1651281320210406
4.7599999999999998 0.9860430042994834 -0.1664908215850021
4.7999999999999998 0.9858118938884703 -0.1678538348326522
4.8399999999999999 0.9855789733307195 -0.1692160965403849
4.8799999999999999 0.9853442450609201 -0.1705776032347907
4.9199999999999999 0.9851077115220218 -0.1719383514514583
4.9600000000000000 0.9848693751651978 -0.1732983377349964
5.0000000000000000 0.9846292384498061 -0.1746575586390553
5.0400000000000000 0.9843873038433508 -0.1760160107263489
5.0800000000000001 0.9841435738214459 -0.1773736905686760
5.1200000000000001 0.9838980508677739 -0.1787305947469418
5.1600000000000001 0.9836507374740502 -0.1800867198511785
5.2000000000000002 0.9834016361399842 -0.1814420624805673
5.2400000000000002 0.9831507493732393 -0.1827966192434579
5.2800000000000002 0.9828980796893967 -0.1841503867573900
5.3200000000000003 0.9826436296119150 -0.1855033616491133
5.3600000000000003 0.9823874016720925 -0.1868555405546077
5.4000000000000004 0.9821293984090289 -0.1882069201191035
5.4400000000000004 0.9818692466462955 -0.1895594431576433
5.4800000000000004 0.9816072332775516 -0.1909116014735361
5.5199999999999996 0.9813434390195571 -0.1922629831591851
5.5599999999999996 0.9810778663117806 -0.1936135848361977
5.5999999999999996 0.9808105176016446 -0.1949634031350346
5.6399999999999997 0.9805413953444849 -0.1963124346950306
5.6799999999999997 0.9802705020035166 -0.1976606761644156
5.7199999999999998 0.9799978400497954 -0.1990081242003348
5.7599999999999998 0.9797234119621815 -0.2003547754688701
5.7999999999999998 0.9794472202273029 -0.2017006266450593
5.8399999999999999 0.9791692673395154 -0.2030456744129171
5.8799999999999999 0.9788895558008699 -0.2043899154654546
5.9199999999999999 0.9786080881210708 -0.2057333465046993
5.9600000000000000 0.9783248668174411 -0.2070759642417145
6.0000000000000000 0.9780398944148850 -0.2084177653966192
6.0400000000000000 0.9777531734458497 -0.2097587466986067
6.0800000000000001 0.9774646821802908 -0.2110990172648444
6.1200000000000001 0.9771740135700725 -0.2124404556654770
6.1600000000000001 0.9768815923747103 -0.2137810900885528
6.2000000000000002 0.9765874210551182 -0.2151209172463558
6.2400000000000002 0.9762915020798563 -0.2164599338599591
6.2800000000000002 0.9759938379250972 -0.2177981366592450
6.3200000000000003 0.9756944310745874 -0.2191355223829250
6.3600000000000003 0.9753932840196119 -0.2204720877785591
6.4000000000000004 0.9750903992589584 -0.2218078296025754
6.4400000000000004 0.9747857792988798 -0.2231427446202892
6.4800000000000004 0.9744794266530585 -0.2244768296059219
6.5199999999999996 0.9741713438425701 -0.2258100813426205
6.5599999999999996 0.9738615333958461 -0.2271424966224756
6.5999999999999996 0.9735499978486378 -0.2284740722465404
6.6399999999999997 0.9732367397439800 -0.2298048050248492
6.6799999999999997 0.9729217616321534 -0.2311346917764348
6.7199999999999998 0.9726050660706491 -0.2324637293293481
6.7599999999999998 0.9722865271565460 -0.2337924487870879
6.7999999999999998 0.9719659419429478 -0.2351216870111273
6.8399999999999999 0.9716436364806923 -0.2364500870936112
6.8799999999999999 0.9713196132754515 -0.2377776458509663
6.9199999999999999 0.9709938748401757 -0.2391043601084288
6.9600000000000000 0.9706664236950592 -0.2404302267000631
7.0000000000000000 0.9703372623675034 -0.2417552424687805
7.0400000000000000 0.9700063933920813 -0.2430794042663565
7.0800000000000001 0.9696738193105017 -0.2444027089534497
7.1200000000000001 0.9693395426715727 -0.2457251533996188
7.1600000000000001 0.9690035660311668 -0.2470467344833409
7.2000000000000002 0.9686658919521832 -0.2483674490920287
7.2400000000000002 0.9683265230045132 -0.2496872941220477
7.2800000000000002 0.9679854617650034 -0.2510062664787336
7.3200000000000003 0.9676427108174198 -0.2523243630764090
7.3600000000000003 0.9672982727524105 -0.2536415808384008
7.4000000000000004 0.9669521501674719 -0.2549579166970559
7.4400000000000004 0.9666041111407760 -0.2562742521708924
7.4800000000000004 0.9662541603498142 -0.2575905619518607
7.5199999999999996 0.9659025232934554 -0.2589059974109056
7.5599999999999996 0.9655492025314835 -0.2602205554732683
7.5999999999999996 0.9651942006305710 -0.2615342330730583
7.6399999999999997 0.9648375201642441 -0.2628470271532699
7.6799999999999997 0.9644791637128457 -0.2641589346657994
7.7199999999999998 0.9641191338635003 -0.2654699525714608
7.7599999999999998 0.9637574332100798 -0.2667800778400036
7.7999999999999998 0.9633940643531654 -0.2680893074501275
7.8399999999999999 0.9630290299000130 -0.2693976383894998
7.8799999999999999 0.9626623324645178 -0.2707050676547706
7.9199999999999999 0.9622939746671778 -0.2720115922515889
7.9600000000000000 0.9619239591350585 -0.2733172091946179
8.0000000000000000 0.9615522885017556 -0.2746219155075509
8.0399999999999991 0.9611789654073619 -0.2759257082231259
8.0800000000000001 0.9608039924984280 -0.2772285843831416
8.1199999999999992 0.9604270297749600 -0.2785317225697070
8.1600000000000001 0.9600482934566771 -0.2798343692810479
8.1999999999999993 0.9596679065014957 -0.2811361044601642
8.2400000000000002 0.9592858715285374 -0.2824369251456589
8.2799999999999994 0.9589021911634025 -0.2837368283850818
8.3200000000000003 0.9585168680381358 -0.2850358112349449
8.3599999999999994 0.9581299047911891 -0.2863338707607379
8.4000000000000004 0.9577413040673877 -0.2876310040369424
8.4399999999999995 0.9573510685178940 -0.2889272081470470
8.4800000000000004 0.9569592008001709 -0.2902224801835622
8.5199999999999996 0.9565657035779488 -0.2915168172480345
8.5600000000000005 0.9561705795211872 -0.2928102164510605
8.5999999999999996 0.9557738313060413 -0.2941026749123017
8.6400000000000006 0.9553754616148246 -0.2953941897604977
8.6799999999999997 0.9549754731359744 -0.2966847581334806
8.7200000000000006 0.9545738685640158 -0.2979743771781884
8.7599999999999998 0.9541706505995254 -0.2992630440506782
8.8000000000000007 0.9537653689028442 -0.3005521936064038
8.8399999999999999 0.9533584555386352 -0.3018404466816673
8.8800000000000008 0.9529499287769070 -0.3031277506994175
8.9199999999999999 0.9525397912983861 -0.3044141028159290
8.9600000000000009 0.9521280457898527 -0.3056995001965100
9.0000000000000000 0.9517146949441042 -0.3069839400155173
9.0399999999999991 0.9512997414599205 -0.3082674194563682
9.0800000000000001 0.9508831880420288 -0.3095499357115553
9.1199999999999992 0.9504650374010677 -0.3108314859826578
9.1600000000000001 0.9500452922535525 -0.3121120674803559
9.1999999999999993 0.9496239553218391 -0.3133916774244424
9.2400000000000002 0.9492010293340891 -0.3146703130438361
9.2799999999999994 0.9487765170242335 -0.3159479715765938
9.3200000000000003 0.9483504211319386 -0.3172246502699223
9.3599999999999994 0.9479227444025691 -0.3185003463801911
9.4000000000000004 0.9474934895871531 -0.3197750571729438
9.4399999999999995 0.9470625679773899 -0.3210490497355062
9.4800000000000004 0.9466296908355057 -0.3223231738933376
9.5199999999999996 0.9461952363516618 -0.3235963144187873
9.5600000000000005 0.9457592072626309 -0.3248684685806859
9.5999999999999996 0.9453216063108338 -0.3261396336569732
9.6400000000000006 0.9448824362443062 -0.3274098069347107
9.6799999999999997 0.9444416998166613 -0.3286789857100929
9.7200000000000006 0.9439993997870559 -0.3299471672884585
9.7599999999999998 0.9435555389201551 -0.3312143489843026
9.8000000000000007 0.9431101199860965 -0.3324805281212876
9.8399999999999999 0.9426631457604555 -0.3337457020322542
9.8800000000000008 0.9422146190242093 -0.3350098680592324
9.9199999999999999 0.9417645425637022 -0.3362730235534519
9.9600000000000009 0.9413129191706110 -0.3375351658753539
10.0000000000000000 0.9408597516419079 -0.3387962923946001
10.0399999999999991 0.9404050427798266 -0.3400564004900842
10.0800000000000001 0.9399487953918264 -0.3413154875499412
10.1199999999999992 0.9394908112929433 -0.3425741021970681
10.1600000000000001 0.9390310149159936 -0.3438324490588969
10.1999999999999993 0.9385696814064602 -0.3450897754854170
10.2400000000000002 0.9381068135617148 -0.3463460788706667
10.2799999999999994 0.9376424141843269 -0.3476013566178748
10.3200000000000003 0.9371764860820301 -0.3488556061394720
10.3599999999999994 0.9367090320676857 -0.3501088248570999
10.4000000000000004 0.9362400549592481 -0.3513610102016211
10.4399999999999995 0.9357695575797309 -0.3526121596131289
10.4800000000000004 0.9352975427571695 -0.3538622705409563
10.5199999999999996 0.9348240133245876 -0.3551113404436855
10.5600000000000005 0.9343489721199625 -0.3563593667891574
10.5999999999999996 0.9338724219861891 -0.3576063470544800
10.6400000000000006 0.9333943657710444 -0.3588522787260375
10.6799999999999997 0.9329148063271540 -0.3600971592994989
10.7200000000000006 0.9324337465119558 -0.3613409862798264
10.7599999999999998 0.9319511891876652 -0.3625837571812844
10.8000000000000007 0.9314668240597979 -0.3638262712833606
10.8399999999999999 0.9309807938211524 -0.3650681601237463
10.8800000000000008 0.9304932680513920 -0.3663089926701774
10.9199999999999999 0.9300042496057035 -0.3675487664451237
10.9600000000000009 0.9295137413440121 -0.3687874789803156
11.0000000000000000 0.9290217461309478 -0.3700251278167533
11.0399999999999991 0.9285282668358102 -0.3712617105047143
11.0800000000000001 0.9280333063325338 -0.3724972246037618
11.1199999999999992 0.9275368674996533 -0.3737316676827520
11.1600000000000001 0.9270389532202679 -0.3749650373198417
11.1999999999999993 0.9265395663820077 -0.3761973311024961
11.2400000000000002 0.9260387098769985 -0.3774285466274959
11.2799999999999994 0.9255363866018269 -0.3786586815009443
11.3200000000000003 0.9250325994575046 -0.3798877333382739
11.3599999999999994 0.9245273513494355 -0.3811156997642545
11.4000000000000004 0.9240206451873793 -0.3823425784129982
11.4399999999999995 0.9235124838854166 -0.3835683669279673
11.4800000000000004 0.9230024422525606 -0.3847940898660069
11.5199999999999996 0.9224908866319492 -0.3860188649289050
11.5600000000000005 0.9219778783765884 -0.3872425490363950
11.5999999999999996 0.9214634203957344 -0.3884651398421666
11.6400000000000006 0.9209475156029180 -0.3896866350092256
11.6799999999999997 0.9204301669159092 -0.3909070322098995
11.7200000000000006 0.9199113772566841 -0.3921263291258449
11.7599999999999998 0.9193911495513888 -0.3933445234480526
11.8000000000000007 0.9188694867303060 -0.3945616128768537
11.8399999999999999 0.9183463917278192 -0.3957775951219253
11.8800000000000008 0.9178218674823804 -0.3969924679022963
11.9199999999999999 0.9172959169364729 -0.3982062289463529
11.9600000000000009 0.9167685430365792 -0.3994188759918436
12.0000000000000000 0.9162397487331451 -0.4006304067858846
12.0399999999999991 0.9157095369805455 -0.4018408190849649
12.0800000000000001 0.9151779107370502 -0.4030501106549509
12.1199999999999992 0.9146448203372917 -0.4042583983421535
12.1600000000000001 0.9141098806434410 -0.4054665536268485
12.1999999999999993 0.9135735294463084 -0.4066735869158644
12.2400000000000002 0.9130357697008977 -0.4078794959870980
12.2799999999999994 0.9124966043660532 -0.4090842786277940
12.3200000000000003 0.9119560364044241 -0.4102879326345495
12.3599999999999994 0.9114140687824319 -0.4114904558133183
12.4000000000000004 0.9108707044702348 -0.4126918459794159
12.4399999999999995 0.9103259464416948 -0.4138921009575232
12.4800000000000004 0.9097797976743424 -0.4150912185816904
12.5199999999999996 0.9092322611493432 -0.4162891966953415
12.5600000000000005 0.9086833398514634 -0.4174860331512777
12.5999999999999996 0.9081330367690367 -0.4186817258116811
12.6400000000000006 0.9075813548939283 -0.4198762725481177
12.6799999999999997 0.9070282972215031 -0.4210696712415422
12.7200000000000006 0.9064738667505903 -0.4222619197822993
12.7599999999999998 0.9059180664834494 -0.4234530160701283
12.8000000000000007 0.9053607327956822 -0.4246433132779385
12.8399999999999999 0.9048017016588152 -0.4258331606102467
12.8800000000000008 0.9042413041398469 -0.4270218541099141
12.9199999999999999 0.9036795432387926 -0.4282093916902423
12.9600000000000009 0.9031164219590370 -0.4293957712738992
13.0000000000000000 0.9025519433073012 -0.4305809907929219
13.0399999999999991 0.9019861102936080 -0.4317650481887196
13.0800000000000001 0.9014189259312487 -0.4329479414120754
13.1199999999999992 0.9008503932367496 -0.4341296684231494
13.1600000000000001 0.9002805152298374 -0.4353102271914807
13.1999999999999993 0.8997092949334067 -0.4364896156959892
13.2400000000000002 0.8991367353734855 -0.4376678319249780
13.2799999999999994 0.8985628395792020 -0.4388448738761353
13.3200000000000003 0.8979876105827516 -0.4400207395565353
13.3599999999999994 0.8974110514193623 -0.4411954269826410
13.4000000000000004 0.8968331651272612 -0.4423689341803044
13.4399999999999995 0.8962539547476427 -0.4435412591847688
13.4800000000000004 0.8956731396392807 -0.4447129713969601
13.5199999999999996 0.8950907828469267 -0.4458839428174960
13.5600000000000005 0.8945071057644877 -0.4470537302571579
13.5999999999999996 0.8939221114315193 -0.4482223317660716
13.6400000000000006 0.8933358028904778 -0.4493897454037259
13.6799999999999997 0.8927481831866856 -0.4505559692389750
