! Created with skrf (http://scikit-rf.org).
# Hz S MA R 50.0 
!freq magS11 angS11
40000000.0 1.0 -0.04748147124738083
80000000.0 1.0 -0.09415473627573925
120000000.0 1.0 -0.14052293513085248
160000000.0 0.9999999999999999 -0.18669301047308992
200000000.0 1.0 -0.23271574901195854
240000000.0 1.0000000000000002 -0.2786210604843621
280000000.0 1.0 -0.3244287058188136
320000000.0 0.9999999999999999 -0.3701527278679608
360000000.0 1.0000000000000002 -0.4158036246949612
400000000.0 1.0 -0.46138954332319815
440000000.0 0.9999999999999999 -0.5069169907614852
480000000.0 1.0 -0.552391284212184
520000000.0 1.0 -0.597816850134366
560000000.0 0.9999999999999999 -0.643197430736941
600000000.0 1.0 -0.6885362311743844
640000000.0 0.9999999999999999 -0.733836027319143
680000000.0 1.0 -0.7790992464888792
720000000.0 0.9999999999999998 -0.8243280291159463
760000000.0 0.9999999999999999 -0.8695242766722455
800000000.0 1.0 -0.9146896894781914
840000000.0 1.0000000000000002 -0.9598257969321066
880000000.0 0.9999999999999999 -1.0049339819694065
920000000.0 1.0000000000000002 -1.050015501066098
960000000.0 1.0 -1.095071500757281
1000000000.0 1.0 -1.140103031398148
1040000000.0 1.0 -1.185111058719945
1080000000.0 1.0 -1.2300964736056716
1120000000.0 1.0 -1.27506010041568
1160000000.0 1.0 -1.3200027041225033
1200000000.0 1.0 -1.364924996460483
1240000000.0 1.0000000000000002 -1.4098276412546014
1280000000.0 1.0 -1.4547112590610558
1320000000.0 1.0 -1.4995764312272304
1360000000.0 1.0 -1.5444237034591262
1400000000.0 1.0 -1.589253588968754
1440000000.0 1.0 -1.6340665712615483
1480000000.0 1.0 -1.6788631066138318
1520000000.0 1.0000000000000002 -1.7236436262822685
1560000000.0 0.9999999999999999 -1.768408538480585
1600000000.0 1.0 -1.8131582301534124
1640000000.0 0.9999999999999999 -1.857893068572652
1680000000.0 1.0000000000000002 -1.9026134027779866
1720000000.0 1.0 -1.9473195648801354
1760000000.0 0.9999999999999999 -1.9920118712428083
1800000000.0 1.0 -2.036690623557143
1840000000.0 1.0000000000000002 -2.081356109820604
1880000000.0 1.0000000000000002 -2.1260086052307003
1920000000.0 1.0000000000000002 -2.1706483730026167
1960000000.0 0.9999999999999998 -2.2152756651186745
2000000000.0 1.0000000000000002 -2.2598907230165746
2040000000.0 1.0 -2.304493778222584
2080000000.0 1.0 -2.3490850529349934
2120000000.0 0.9999999999999999 -2.393664760562722
2160000000.0 1.0000000000000002 -2.4382331062232203
2200000000.0 1.0 -2.482790287203499
2240000000.0 1.0 -2.5273364933876
2280000000.0 0.9999999999999996 -2.571871907653528
2320000000.0 0.9999999999999998 -2.616396706242322
2360000000.0 0.9999999999999999 -2.660911059101642
2400000000.0 1.0 -2.7054151302060885
2440000000.0 0.9999999999999999 -2.749909077856124
2480000000.0 1.0000000000000002 -2.7943930549574016
2520000000.0 1.0 -2.8388672092820717
2560000000.0 1.0 -2.883331683713484
2600000000.0 1.0 -2.9277866164755797
2640000000.0 1.0 -2.9722321413481927
2680000000.0 1.0000000000000002 -3.016668387869255
2720000000.0 1.0 -3.061095481524967
2760000000.0 0.9999999999999998 -3.105513543928749
2800000000.0 1.0 -3.149922692989834
2840000000.0 1.0 -3.194323043072204
2880000000.0 1.0 -3.238714705144586
2920000000.0 0.9999999999999999 -3.2830977869221067
2960000000.0 1.0000000000000002 -3.3274723930001704
3000000000.0 1.0 -3.371838624981126
3040000000.0 0.9999999999999999 -3.4161965815941406
3080000000.0 1.0 -3.460546358808794
3120000000.0 0.9999999999999999 -3.5048880499427435
3160000000.0 1.0 -3.549221745763889
3200000000.0 1.0000000000000002 -3.5935475345873464
3240000000.0 1.0 -3.637865502367572
3280000000.0 1.0 -3.682175732785954
3320000000.0 1.0 -3.726478307334101
3360000000.0 0.9999999999999998 -3.7707733053931345
3400000000.0 0.9999999999999999 -3.815060804309212
3440000000.0 0.9999999999999999 -3.859340879465463
3480000000.0 0.9999999999999998 -3.9036136043506118
3520000000.0 1.0 -3.947879050624431
3560000000.0 1.0000000000000002 -3.9921372881801998
3600000000.0 1.0000000000000002 -4.036388385204395
3640000000.0 0.9999999999999997 -4.080632408233695
3680000000.0 1.0 -4.124869422209489
3720000000.0 0.9999999999999999 -4.169099490530007
3760000000.0 1.0 -4.2133226751002235
3800000000.0 1.0 -4.257539036379627
3840000000.0 1.0 -4.3017486334279695
3880000000.0 1.0000000000000002 -4.345951523949122
3920000000.0 1.0000000000000002 -4.390147764333122
3960000000.0 1.0 -4.434337409696482
4000000000.0 1.0 -4.478520513920908
4040000000.0 0.9999999999999999 -4.522697129690423
4080000000.0 1.0 -4.566867308527057
4120000000.0 1.0000000000000002 -4.611031100825112
4160000000.0 1.0 -4.655188555884123
4200000000.0 1.0000000000000002 -4.699339721940517
4240000000.0 1.0 -4.743484646198087
4280000000.0 0.9999999999999999 -4.78762337485731
4320000000.0 1.0 -4.83175595314358
4360000000.0 1.0 -4.875882425334377
4400000000.0 1.0000000000000002 -4.9200028347854365
4440000000.0 1.0 -4.964117223955998
4480000000.0 1.0 -5.0082256344330975
4520000000.0 1.0 -5.05232810695505
4560000000.0 1.0 -5.096424681434031
4600000000.0 0.9999999999999998 -5.140515396977919
4640000000.0 1.0 -5.18460029191137
4680000000.0 1.0 -5.228679403796132
4720000000.0 0.9999999999999999 -5.272752769450712
4760000000.0 1.0000000000000002 -5.316820424969341
4800000000.0 0.9999999999999999 -5.3608824057403
4840000000.0 1.0 -5.404938746463684
4880000000.0 1.0 -5.448989481168499
4920000000.0 0.9999999999999998 -5.493034643229278
4960000000.0 1.0 -5.537074265382095
5000000000.0 1.0 -5.581108379740093
5040000000.0 1.0000000000000002 -5.6251370178085285
5080000000.0 0.9999999999999999 -5.669160210499286
5120000000.0 1.0 -5.713177988144995
5160000000.0 1.0 -5.757190380512663
5200000000.0 0.9999999999999999 -5.801197416816914
5240000000.0 0.9999999999999998 -5.84519912573279
5280000000.0 0.9999999999999999 -5.889195535408199
5320000000.0 1.0 -5.933186673475953
5360000000.0 0.9999999999999999 -5.977172567065454
5400000000.0 1.0 -6.0211532428140355
5440000000.0 1.0 -6.065128726877975
5480000000.0 1.0 -6.109099044943153
5520000000.0 1.0 -6.153064222235451
5560000000.0 0.9999999999999999 -6.197024283530774
5600000000.0 1.0 -6.240979253164873
5640000000.0 1.0000000000000002 -6.284929155042814
5680000000.0 0.9999999999999999 -6.328874012648219
5720000000.0 0.9999999999999999 -6.372813849052227
5760000000.0 1.0 -6.416748686922208
5800000000.0 1.0000000000000002 -6.4606785485302565
5840000000.0 1.0 -6.504603455761404
5880000000.0 0.9999999999999999 -6.548523430121656
5920000000.0 0.9999999999999999 -6.59243849274579
5960000000.0 0.9999999999999997 -6.636348664404932
6000000000.0 1.0000000000000002 -6.680253965513927
6040000000.0 1.0 -6.724154416138566
6080000000.0 0.9999999999999999 -6.768050036002529
6120000000.0 0.9999999999999998 -6.811940844494234
6160000000.0 0.9999999999999999 -6.855826860673463
6200000000.0 0.9999999999999999 -6.899708103277815
6240000000.0 0.9999999999999999 -6.943584590728989
6280000000.0 0.9999999999999998 -6.987456341138957
6320000000.0 1.0 -7.031323372315895
6360000000.0 1.0 -7.075185701770026
6400000000.0 0.9999999999999999 -7.1190433467193195
6440000000.0 1.0000000000000002 -7.162896324094989
6480000000.0 1.0 -7.206744650546912
6520000000.0 0.9999999999999998 -7.25058834244891
6560000000.0 1.0 -7.294427415903848
6600000000.0 1.0 -7.33826188674869
6640000000.0 0.9999999999999998 -7.3820917705593425
6680000000.0 1.0 -7.425917082655472
6720000000.0 1.0 -7.469737838105119
6760000000.0 1.0000000000000002 -7.513554051729282
6800000000.0 1.0 -7.55736573810634
6840000000.0 1.0000000000000002 -7.601172911576369
6880000000.0 1.0000000000000002 -7.6449755862454145
6920000000.0 0.9999999999999999 -7.688773775989604
6960000000.0 1.0 -7.73256749445918
7000000000.0 1.0 -7.776356755082459
7040000000.0 0.9999999999999999 -7.820141571069687
7080000000.0 1.0 -7.863921955416793
7120000000.0 1.0 -7.9076979209090945
7160000000.0 0.9999999999999999 -7.951469480124889
7200000000.0 0.9999999999999999 -7.995236645438967
7240000000.0 1.0 -8.038999429026072
7280000000.0 1.0 -8.082757842864236
7320000000.0 0.9999999999999998 -8.1265118987381
7360000000.0 1.0000000000000002 -8.17026160824213
7400000000.0 1.0 -8.214006982783761
7440000000.0 1.0000000000000002 -8.257748033586475
7480000000.0 0.9999999999999999 -8.301484771692817
7520000000.0 1.0000000000000002 -8.345217207967364
7560000000.0 1.0 -8.388945353099597
7600000000.0 1.0000000000000002 -8.43266921760672
7640000000.0 1.0000000000000002 -8.476388811836463
7680000000.0 1.0 -8.520104145969748
7720000000.0 1.0 -8.563815230023382
7760000000.0 0.9999999999999999 -8.607522073852623
7800000000.0 1.0 -8.651224687153753
7840000000.0 1.0 -8.694923079466546
7880000000.0 1.0000000000000002 -8.738617260176731
7920000000.0 1.0000000000000002 -8.782307238518376
7960000000.0 1.0000000000000002 -8.825993023576228
8000000000.0 1.0000000000000002 -8.869674624288026
8040000000.0 1.0 -8.913352049446711
8080000000.0 0.9999999999999998 -8.957025307702693
8120000000.0 1.0 -9.000694407565982
8160000000.0 1.0 -9.04435935740829
8200000000.0 0.9999999999999998 -9.08802016546515
8240000000.0 1.0000000000000002 -9.131676839837908
8280000000.0 1.0 -9.175329388495772
8320000000.0 1.0 -9.218977819277754
8360000000.0 0.9999999999999999 -9.262622139894551
8400000000.0 1.0 -9.306262357930494
8440000000.0 1.0 -9.349898480845367
8480000000.0 0.9999999999999999 -9.393530515976215
8520000000.0 0.9999999999999998 -9.437158470539138
8560000000.0 1.0000000000000002 -9.480782351631051
8600000000.0 0.9999999999999999 -9.524402166231347
8640000000.0 0.9999999999999999 -9.568017921203657
8680000000.0 1.0000000000000002 -9.61162962329742
8720000000.0 0.9999999999999998 -9.655237279149585
8760000000.0 0.9999999999999999 -9.698840895286123
8800000000.0 1.0 -9.742440478123658
8840000000.0 1.0 -9.786036033970953
8880000000.0 0.9999999999999999 -9.829627569030443
8920000000.0 1.0000000000000002 -9.873215089399716
8960000000.0 1.0 -9.916798601072928
9000000000.0 1.0 -9.960378109942297
9040000000.0 1.0000000000000002 -10.003953621799424
9080000000.0 0.9999999999999998 -10.04752514233675
9120000000.0 1.0 -10.091092677148858
9160000000.0 1.0 -10.134656231733798
9200000000.0 1.0 -10.178215811494436
9240000000.0 1.0 -10.221771421739687
9280000000.0 1.0 -10.265323067685825
9320000000.0 0.9999999999999998 -10.30887075445768
9360000000.0 0.9999999999999998 -10.35241448708987
9400000000.0 1.0 -10.395954270528026
9440000000.0 1.0 -10.439490109629912
9480000000.0 1.0 -10.483022009166648
9520000000.0 0.9999999999999998 -10.52654997382379
9560000000.0 1.0000000000000002 -10.570074008202484
9600000000.0 1.0 -10.61359411682055
9640000000.0 1.0000000000000002 -10.657110304113585
9680000000.0 1.0 -10.700622574435979
9720000000.0 1.0000000000000002 -10.74413093206203
9760000000.0 0.9999999999999999 -10.787635381186902
9800000000.0 0.9999999999999999 -10.831135925927706
9840000000.0 0.9999999999999998 -10.874632570324428
9880000000.0 1.0 -10.918125318340948
9920000000.0 1.0 -10.96161417386601
9960000000.0 1.0 -11.00509914071417
10000000000.0 0.9999999999999997 -11.048580222626677
10040000000.0 0.9999999999999999 -11.09205742327245
10080000000.0 0.9999999999999999 -11.135530746248984
10120000000.0 1.0000000000000002 -11.17900019508318
10160000000.0 0.9999999999999999 -11.222465773232285
10200000000.0 1.0 -11.26592748408471
10240000000.0 1.0000000000000002 -11.30938533096092
10280000000.0 1.0 -11.352839317114201
10320000000.0 1.0000000000000002 -11.39628944573157
10360000000.0 0.9999999999999998 -11.43973571993451
10400000000.0 1.0 -11.483178142779815
10440000000.0 1.0 -11.526616717260344
10480000000.0 1.0000000000000002 -11.570051446305804
10520000000.0 1.0 -11.613482332783505
10560000000.0 0.9999999999999999 -11.656909379499162
10600000000.0 0.9999999999999999 -11.700332589197512
10640000000.0 1.0000000000000002 -11.74375196456319
10680000000.0 1.0 -11.787167508221312
10720000000.0 1.0 -11.830579222738299
10760000000.0 1.0 -11.873987110622469
10800000000.0 1.0 -11.917391174324756
10840000000.0 1.0 -11.960791416239465
10880000000.0 1.0000000000000002 -12.004187838704791
10920000000.0 0.9999999999999999 -12.047580444003579
10960000000.0 1.0 -12.090969234363953
11000000000.0 1.0 -12.134354211959913
11040000000.0 1.0000000000000002 -12.177735378912006
11080000000.0 0.9999999999999999 -12.221112737287918
11120000000.0 1.0 -12.264486289103084
11160000000.0 1.0 -12.30785603632131
11200000000.0 1.0 -12.351221980855343
11240000000.0 1.0 -12.394584124567455
11280000000.0 1.0 -12.437942469270038
11320000000.0 1.0000000000000002 -12.481297016726131
11360000000.0 0.9999999999999999 -12.524647768650034
11400000000.0 1.0000000000000002 -12.567994726707798
11440000000.0 1.0 -12.61133789251784
11480000000.0 0.9999999999999997 -12.654677267651405
11520000000.0 1.0 -12.698012853633147
11560000000.0 1.0 -12.741344651941615
11600000000.0 0.9999999999999999 -12.78467266400979
11640000000.0 0.9999999999999999 -12.827996891225613
11680000000.0 0.9999999999999999 -12.87131733493242
11720000000.0 1.0 -12.914633996429478
11760000000.0 1.0 -12.957946876972489
11800000000.0 1.0 -13.001255977774028
11840000000.0 1.0 -13.04456130000405
11880000000.0 1.0000000000000002 -13.087862844790322
11920000000.0 1.0000000000000002 -13.131160613218931
11960000000.0 1.0 -13.174454606334704
12000000000.0 1.0000000000000002 -13.217744825141647
12040000000.0 0.9999999999999998 -13.261031270603425
12080000000.0 1.0000000000000002 -13.304313943643788
12120000000.0 0.9999999999999998 -13.347592845146993
12160000000.0 1.0 -13.390867975958205
12200000000.0 1.0 -13.434139336883952
12240000000.0 0.9999999999999998 -13.47740692869257
12280000000.0 0.9999999999999999 -13.520670752114532
12320000000.0 1.0000000000000002 -13.563930807842908
12360000000.0 1.0000000000000002 -13.607187096533734
12400000000.0 1.0 -13.65043961880645
12440000000.0 1.0 -13.693688375244236
12480000000.0 1.0 -13.736933366394432
12520000000.0 1.0 -13.780174592768876
12560000000.0 1.0 -13.823412054844354
12600000000.0 1.0000000000000002 -13.866645753062878
12640000000.0 1.0000000000000002 -13.909875687832118
12680000000.0 0.9999999999999999 -13.95310185952572
12720000000.0 0.9999999999999999 -13.996324268483697
12760000000.0 1.0 -14.039542915012744
12800000000.0 0.9999999999999998 -14.08275779938662
12840000000.0 1.0 -14.125968921846471
12880000000.0 1.0 -14.16917628260115
12920000000.0 1.0 -14.212379881827605
12960000000.0 1.0 -14.255579719671152
13000000000.0 1.0000000000000002 -14.298775796245806
13040000000.0 0.9999999999999997 -14.3419681116347
13080000000.0 1.0000000000000002 -14.385156665890223
13120000000.0 0.9999999999999999 -14.428341459034517
13160000000.0 1.0 -14.471522491059645
13200000000.0 1.0 -14.51469976192801
13240000000.0 1.0 -14.557873271572587
13280000000.0 1.0 -14.60104301989723
13320000000.0 0.9999999999999998 -14.644209006777006
13360000000.0 1.0000000000000002 -14.687371232058442
13400000000.0 0.9999999999999999 -14.730529695559847
13440000000.0 0.9999999999999999 -14.773684397071566
13480000000.0 1.0000000000000002 -14.816835336356302
13520000000.0 1.0 -14.85998251314938
13560000000.0 0.9999999999999999 -14.90312592715898
13600000000.0 1.0 -14.946265578066457
13640000000.0 0.9999999999999999 -14.989401465526623
13680000000.0 1.0000000000000002 -15.032533589167981
13720000000.0 0.9999999999999999 -15.075661948592982
13760000000.0 1.0 -15.118786543378302
13800000000.0 0.9999999999999999 -15.161907373075103
13840000000.0 0.9999999999999999 -15.205024437209277
13880000000.0 0.9999999999999999 -15.24813773528169
13920000000.0 0.9999999999999997 -15.291247266768455
13960000000.0 1.0 -15.334353031121166
14000000000.0 1.0 -15.377455027767125
14040000000.0 1.0 -15.420553256109597
14080000000.0 0.9999999999999998 -15.46364771552805
14120000000.0 1.0000000000000002 -15.506738405378364
14160000000.0 1.0000000000000002 -15.54982532499312
14200000000.0 1.0 -15.592908473681769
14240000000.0 0.9999999999999999 -15.63598785073089
14280000000.0 0.9999999999999997 -15.679063455404407
14320000000.0 1.0000000000000002 -15.722135286943807
14360000000.0 1.0000000000000002 -15.76520334456838
14400000000.0 0.9999999999999999 -15.808267627475388
14440000000.0 0.9999999999999999 -15.851328134840347
14480000000.0 1.0 -15.894384865817177
14520000000.0 1.0 -15.937437819538458
14560000000.0 1.0 -15.980486995115612
14600000000.0 1.0000000000000002 -16.02353239163911
14640000000.0 1.0000000000000004 -16.066574008178698
14680000000.0 1.0 -16.109611843783565
14720000000.0 1.0000000000000002 -16.152645897482543
14760000000.0 1.0 -16.19567616828436
14800000000.0 1.0000000000000002 -16.238702655177764
14840000000.0 0.9999999999999999 -16.28172535713176
14880000000.0 1.0 -16.324744273095774
14920000000.0 1.0 -16.367759401999855
14960000000.0 1.0 -16.41077074275486
15000000000.0 1.0 -16.453778294252672
15040000000.0 0.9999999999999998 -16.49678205536629
15080000000.0 0.9999999999999998 -16.539782024950114
15120000000.0 1.0 -16.582778201840068
15160000000.0 1.0 -16.625770584853793
15200000000.0 1.0 -16.668759172790796
15240000000.0 1.0 -16.711743964432674
15280000000.0 0.9999999999999998 -16.75472495854326
15320000000.0 1.0000000000000002 -16.797702153868762
15360000000.0 0.9999999999999999 -16.84067554913797
15400000000.0 1.0 -16.883645143062417
15440000000.0 0.9999999999999999 -16.926610934336566
15480000000.0 1.0 -16.969572921637877
15520000000.0 1.0 -17.012531103627104
15560000000.0 1.0000000000000002 -17.055485478948356
15600000000.0 1.0000000000000002 -17.098436046229317
15640000000.0 0.9999999999999998 -17.14138280408131
15680000000.0 1.0000000000000002 -17.18432575109959
15720000000.0 1.0 -17.22726488586337
15760000000.0 1.0000000000000002 -17.270200206936057
15800000000.0 1.0 -17.313131712865363
15840000000.0 1.0000000000000002 -17.35605940218344
15880000000.0 1.0 -17.398983273407087
15920000000.0 1.0000000000000002 -17.44190332503784
15960000000.0 0.9999999999999998 -17.484819555562122
16000000000.0 1.0 -17.527731963451433
16040000000.0 1.0 -17.570640547162448
16080000000.0 0.9999999999999999 -17.613545305137134
16120000000.0 0.9999999999999998 -17.65644623580296
16160000000.0 0.9999999999999999 -17.699343337572998
16200000000.0 1.0 -17.742236608846035
16240000000.0 0.9999999999999999 -17.785126048006752
16280000000.0 1.0 -17.82801165342586
16320000000.0 1.0 -17.870893423460142
16360000000.0 1.0 -17.913771356452738
16400000000.0 0.9999999999999999 -17.95664545073312
16440000000.0 0.9999999999999999 -17.99951570461732
16480000000.0 1.0000000000000002 -18.042382116408053
16520000000.0 0.9999999999999999 -18.085244684394773
16560000000.0 1.0 -18.128103406853857
16600000000.0 1.0 -18.170958282048755
16640000000.0 1.0 -18.213809308230015
16680000000.0 1.0 -18.256656483635506
16720000000.0 1.0000000000000002 -18.29949980649048
16760000000.0 1.0 -18.342339275007706
16800000000.0 1.0 -18.385174887387603
16840000000.0 1.0 -18.42800664181832
16880000000.0 1.0000000000000002 -18.470834536475895
16920000000.0 1.0 -18.513658569524353
16960000000.0 1.0 -18.55647873911581
17000000000.0 0.9999999999999997 -18.59929504339059
17040000000.0 1.0 -18.642107480477346
17080000000.0 1.0 -18.684916048493182
17120000000.0 1.0 -18.727720745543706
17160000000.0 1.0 -18.770521569723222
17200000000.0 1.0 -18.8133185191148
17240000000.0 0.9999999999999999 -18.856111591790327
17280000000.0 1.0 -18.8989007858107
17320000000.0 1.0000000000000002 -18.941686099225898
17360000000.0 1.0 -18.984467530075058
17400000000.0 1.0 -19.02724507638665
17440000000.0 1.0 -19.0700187361785
17480000000.0 0.9999999999999999 -19.112788507457925
17520000000.0 1.0 -19.15555438822183
17560000000.0 1.0 -19.19831637645682
17600000000.0 1.0 -19.241074470139306
17640000000.0 1.0000000000000002 -19.28382866723554
17680000000.0 0.9999999999999999 -19.326578965701795
17720000000.0 1.0 -19.36932536348442
17760000000.0 1.0 -19.412067858519933
17800000000.0 0.9999999999999999 -19.454806448735106
17840000000.0 0.9999999999999998 -19.497541132047115
17880000000.0 1.0 -19.54027190636355
