! Created with skrf (http://scikit-rf.org).
# Hz S MA R 50.0 
!freq magS11 angS11 magS21 angS21 magS12 angS12 magS22 angS22
40000000.0 0.0013473256976941875 73.43029436890998 0.9996176723263734 -0.12151840954895811 0.9996176723263734 -0.12151840954895811 0.0013473256976941875 73.43029436890998
80000000.0 0.0024379357459377877 72.4111901979835 0.999269820670961 -0.2274745756278829 0.999269820670961 -0.2274745756278829 0.0024379357459377877 72.4111901979835
120000000.0 0.0034329965035340615 71.55630065891312 0.998927201586849 -0.3274687912787994 0.998927201586849 -0.3274687912787994 0.0034329965035340615 71.55630065891312
160000000.0 0.0043663099862006486 70.81769936975853 0.9985873195099555 -0.42357602210366163 0.9985873195099555 -0.42357602210366163 0.0043663099862006486 70.81769936975853
200000000.0 0.005253875581297451 70.16006327876069 0.9982492244214951 -0.5167842699380221 0.9982492244214951 -0.5167842699380221 0.005253875581297451 70.16006327876069
240000000.0 0.006105093404617226 69.56195594180429 0.9979124376023761 -0.607676432093457 0.9979124376023761 -0.607676432093457 0.006105093404617226 69.56195594180429
280000000.0 0.006926162293865585 69.00965602337723 0.9975766802401749 -0.6966381667508139 0.9975766802401749 -0.6966381667508139 0.006926162293865585 69.00965602337723
320000000.0 0.007721480512171866 68.49386338265079 0.9972417746928947 -0.7839438740449233 0.9972417746928947 -0.7839438740449233 0.007721480512171866 68.49386338265079
360000000.0 0.008494331735518878 68.00797023413418 0.996907600630732 -0.8697989178964421 0.996907600630732 -0.8697989178964421 0.008494331735518878 68.00797023413418
400000000.0 0.009247261356538411 67.54710039599904 0.9965740728555799 -0.9543628387035349 0.9965740728555799 -0.9543628387035349 0.009247261356538411 67.54710039599904
440000000.0 0.00998230035922207 67.10754326208296 0.9962411290013117 -1.0377631897910695 0.9962411290013117 -1.0377631897910695 0.00998230035922207 67.10754326208296
480000000.0 0.010701106924249974 66.68640293770738 0.9959087222250058 -1.1201043040966863 0.9959087222250058 -1.1201043040966863 0.010701106924249974 66.68640293770738
520000000.0 0.011405060404751859 66.2813711874529 0.9955768166231612 -1.2014731210302874 0.9955768166231612 -1.2014731210302874 0.011405060404751859 66.2813711874529
560000000.0 0.01209532615659141 65.89057505634965 0.9952453842296194 -1.2819432118044722 0.9952453842296194 -1.2819432118044722 0.01209532615659141 65.89057505634965
600000000.0 0.012772901714130683 65.51247138303852 0.9949144029781513 -1.3615776501862291 0.9949144029781513 -1.3615776501862291 0.012772901714130683 65.51247138303852
640000000.0 0.013438650573059947 65.14577180039944 0.9945838552779643 -1.440431115289831 0.9945838552779643 -1.440431115289831 0.013438650573059947 65.14577180039944
680000000.0 0.014093327477428003 64.78938816382022 0.9942537269922535 -1.5185514673161915 0.9942537269922535 -1.5185514673161915 0.014093327477428003 64.78938816382022
720000000.0 0.014737597723957677 64.44239203099748 0.9939240066896889 -1.5959809517534327 0.9939240066896889 -1.5959809517534327 0.014737597723957677 64.44239203099748
760000000.0 0.015372052154283621 64.10398403321422 0.9935946850854822 -1.6727571355244657 0.9935946850854822 -1.6727571355244657 0.015372052154283621 64.10398403321422
800000000.0 0.01599721897543936 63.773470353515414 0.9932657546170583 -1.7489136457842176 0.9932657546170583 -1.7489136457842176 0.01599721897543936 63.773470353515414
840000000.0 0.016613573205179224 63.450244405000035 0.9929372091171963 -1.8244807608002316 0.9929372091171963 -1.8244807608002316 0.016613573205179224 63.450244405000035
880000000.0 0.017221544310107653 63.13377237669842 0.9926090435589613 -1.8994858881928902 0.9926090435589613 -1.8994858881928902 0.017221544310107653 63.13377237669842
920000000.0 0.017821522449034913 62.82358169865317 0.9922812538543473 -1.9739539561709005 0.9922812538543473 -1.9739539561709005 0.017821522449034913 62.82358169865317
960000000.0 0.0184138636259676 62.519251739937125 0.9919538366936521 -2.0479077366980865 0.9919538366936521 -2.0479077366980865 0.0184138636259676 62.519251739937125
1000000000.0 0.018998893980751497 62.22040623555213 0.9916267894161397 -2.1213681147861276 0.9916267894161397 -2.1213681147861276 0.018998893980751497 62.22040623555213
1040000000.0 0.019576913390466997 61.92670706684301 0.9913001099050042 -2.1943543146965676 0.9913001099050042 -2.1943543146965676 0.019576913390466997 61.92670706684301
1080000000.0 0.020148198514592104 61.63784911240936 0.9909737965014023 -2.266884091344043 0.9909737965014023 -2.266884091344043 0.020148198514592104 61.63784911240936
1120000000.0 0.020713005387292163 61.35355595363327 0.9906478479335996 -2.338973893348127 0.9906478479335996 -2.338973893348127 0.020713005387292163 61.35355595363327
1160000000.0 0.02127157163797868 61.0735762683946 0.9903222632581913 -2.410639002798425 0.9903222632581913 -2.410639002798425 0.02127157163797868 61.0735762683946
1200000000.0 0.021824118404435162 60.7976807834344 0.9899970418110459 -2.4818936557489018 0.9899970418110459 -2.4818936557489018 0.021824118404435162 60.7976807834344
1240000000.0 0.02237085198991656 60.52565968356811 0.9896721831661481 -2.552751146653784 0.9896721831661481 -2.552751146653784 0.02237085198991656 60.52565968356811
1280000000.0 0.02291196530564317 60.25732039712287 0.9893476871008887 -2.6232239193351874 0.9893476871008887 -2.6232239193351874 0.02291196530564317 60.25732039712287
1320000000.0 0.023447639132327 59.99248569320205 0.9890235535666557 -2.6933236465869395 0.9890235535666557 -2.6933236465869395 0.023447639132327 59.99248569320205
1360000000.0 0.023978043228232812 59.730992038967244 0.9886997826638159 -2.7630613001361275 0.9886997826638159 -2.7630613001361275 0.023978043228232812 59.730992038967244
1400000000.0 0.024503337306409342 59.472688174985244 0.9883763746203409 -2.8324472123801607 0.9883763746203409 -2.8324472123801607 0.024503337306409342 59.472688174985244
1440000000.0 0.02502367189983803 59.21743387441507 0.9880533297734845 -2.9014911310739837 0.9880533297734845 -2.9014911310739837 0.02502367189983803 59.21743387441507
1480000000.0 0.025539189130110187 58.96509885798027 0.9877306485540215 -2.970202267946268 0.9877306485540215 -2.970202267946268 0.025539189130110187 58.96509885798027
1520000000.0 0.02605002339270865 58.71556184156628 0.9874083314726461 -3.0385893420647196 0.9874083314726461 -3.0385893420647196 0.02605002339270865 58.71556184156628
1560000000.0 0.026556301969897746 58.46870969723785 0.9870863791082028 -3.1066606186411208 0.9870863791082028 -3.1066606186411208 0.026556301969897746 58.46870969723785
1600000000.0 0.027058145580530497 58.224436711662136 0.9867647920974758 -3.1744239438604636 0.9867647920974758 -3.1744239438604636 0.027058145580530497 58.224436711662136
1640000000.0 0.027555668874679345 57.982643928521604 0.9864435711263064 -3.2418867762309396 0.9864435711263064 -3.2418867762309396 0.027555668874679345 57.982643928521604
1680000000.0 0.02804898087984011 57.743238563621475 0.9861227169218518 -3.3090562148788063 0.9861227169218518 -3.3090562148788063 0.02804898087984011 57.743238563621475
1720000000.0 0.028538185404488728 57.50613348314866 0.9858022302458228 -3.3759390251516357 0.9858022302458228 -3.3759390251516357 0.028538185404488728 57.50613348314866
1760000000.0 0.02902338140396555 57.271246736974334 0.9854821118885668 -3.4425416618427374 0.9854821118885668 -3.4425416618427374 0.02902338140396555 57.271246736974334
1800000000.0 0.029504663312978564 57.03850114009577 0.9851623626638835 -3.508870290306842 0.9851623626638835 -3.508870290306842 0.029504663312978564 57.03850114009577
1840000000.0 0.02998212134844648 56.807823896308065 0.9848429834044694 -3.57493080570125 0.9848429834044694 -3.57493080570125 0.02998212134844648 56.807823896308065
1880000000.0 0.030455841785912777 56.579146259034104 0.9845239749579201 -3.640728850555997 0.9845239749579201 -3.640728850555997 0.030455841785912777 56.579146259034104
1920000000.0 0.030925907212352208 56.35240322494211 0.9842053381832069 -3.7062698308506903 0.9842053381832069 -3.7062698308506903 0.030925907212352208 56.35240322494211
1960000000.0 0.031392396757834236 56.12753325657195 0.9838870739475786 -3.7715589307534376 0.9838870739475786 -3.7715589307534376 0.031392396757834236 56.12753325657195
2000000000.0 0.03185538630820773 55.90447803069793 0.9835691831238285 -3.8366011261582553 0.9835691831238285 -3.8366011261582553 0.03185538630820773 55.90447803069793
2040000000.0 0.03231494870070881 55.68318220958018 0.9832516665878822 -3.9014011971410545 0.9832516665878822 -3.9014011971410545 0.03231494870070881 55.68318220958018
2080000000.0 0.03277115390417295 55.46359323261561 0.9829345252166751 -3.965963739440052 0.9829345252166751 -3.965963739440052 0.03277115390417295 55.46359323261561
2120000000.0 0.0332240691853336 55.24566112622378 0.9826177598862732 -4.030293175054446 0.9826177598862732 -4.030293175054446 0.0332240691853336 55.24566112622378
2160000000.0 0.0336737592625242 55.02933833005566 0.9823013714702172 -4.094393762044297 0.9823013714702172 -4.094393762044297 0.0336737592625242 55.02933833005566
2200000000.0 0.03412028644795488 54.81457953785291 0.9819853608380669 -4.15826960360568 0.9819853608380669 -4.15826960360568 0.03412028644795488 54.81457953785291
2240000000.0 0.03456371077960201 54.60134155148468 0.9816697288541069 -4.221924656486796 0.9816697288541069 -4.221924656486796 0.03456371077960201 54.60134155148468
2280000000.0 0.03500409014364408 54.38958314685219 0.9813544763762168 -4.285362738803879 0.9813544763762168 -4.285362738803879 0.03500409014364408 54.38958314685219
2320000000.0 0.035441480388273786 54.17926495050967 0.9810396042548702 -4.348587537309512 0.9810396042548702 -4.348587537309512 0.035441480388273786 54.17926495050967
2360000000.0 0.03587593542963113 53.97034932597934 0.9807251133322595 -4.411602614160449 0.9807251133322595 -4.411602614160449 0.03587593542963113 53.97034932597934
2400000000.0 0.03630750735052895 53.76280026884398 0.980411004441521 -4.47441141322739 0.980411004441521 -4.47441141322739 0.03630750735052895 53.76280026884398
2440000000.0 0.0367362464925725 53.55658330980846 0.9800972784060663 -4.53701726598477 0.9800972784060663 -4.53701726598477 0.0367362464925725 53.55658330980846
2480000000.0 0.037162201542214786 53.35166542500694 0.97978393603899 -4.5994233970149585 0.97978393603899 -4.5994233970149585 0.037162201542214786 53.35166542500694
2520000000.0 0.03758541961124006 53.14801495290435 0.9794709781425579 -4.661632929158018 0.9794709781425579 -4.661632929158018 0.03758541961124006 53.14801495290435
2560000000.0 0.03800594631211785 52.94560151721065 0.979158405507764 -4.72364888833497 0.979158405507764 -4.72364888833497 0.03800594631211785 52.94560151721065
2600000000.0 0.03842382582862924 52.74439595529049 0.9788462189139457 -4.785474208070154 0.9788462189139457 -4.785474208070154 0.03842382582862924 52.74439595529049
2640000000.0 0.03883910098213138 52.54437025159349 0.9785344191284572 -4.847111733735814 0.9785344191284572 -4.847111733735814 0.03883910098213138 52.54437025159349
2680000000.0 0.03925181329378951 52.345497475687374 0.978223006906389 -4.908564226539823 0.978223006906389 -4.908564226539823 0.03925181329378951 52.345497475687374
2720000000.0 0.03966200304308022 52.14775172450939 0.9779119829903309 -4.969834367275779 0.9779119829903309 -4.969834367275779 0.03966200304308022 52.14775172450939
2760000000.0 0.04006970932284015 51.951108068491536 0.9776013481101791 -5.030924759852927 0.9776013481101791 -5.030924759852927 0.04006970932284015 51.951108068491536
2800000000.0 0.040474970091110604 51.75554250125117 0.97729110298297 -5.091837934621799 0.97729110298297 -5.091837934621799 0.040474970091110604 51.75554250125117
2840000000.0 0.04087782222000959 51.56103189255704 0.9769812483127555 -5.152576351510147 0.9769812483127555 -5.152576351510147 0.04087782222000959 51.56103189255704
2880000000.0 0.041278301541837537 51.36755394432352 0.9766717847904977 -5.213142402982539 0.9766717847904977 -5.213142402982539 0.041278301541837537 51.36755394432352
2920000000.0 0.04167644289261414 51.175087149390066 0.9763627130939956 -5.273538416835871 0.9763627130939956 -5.273538416835871 0.04167644289261414 51.175087149390066
2960000000.0 0.042072280153218504 50.98361075288144 0.9760540338878304 -5.333766658841923 0.9760540338878304 -5.333766658841923 0.042072280153218504 50.98361075288144
3000000000.0 0.04246584628829763 50.79310471594939 0.9757457478233341 -5.393829335247395 0.9757457478233341 -5.393829335247395 0.04246584628829763 50.79310471594939
3040000000.0 0.04285717338309136 50.603549681722534 0.9754378555385733 -5.453728595140848 0.9754378555385733 -5.453728595140848 0.04285717338309136 50.603549681722534
3080000000.0 0.04324629267831171 50.41492694330108 0.9751303576583534 -5.513466532695272 0.9751303576583534 -5.513466532695272 0.04324629267831171 50.41492694330108
3120000000.0 0.043633234603202724 50.227218413650704 0.9748232547942339 -5.573045189294457 0.9748232547942339 -5.573045189294457 0.043633234603202724 50.227218413650704
3160000000.0 0.04401802880689894 50.04040659725597 0.9745165475445595 -5.632466555550431 0.9745165475445595 -5.632466555550431 0.04401802880689894 50.04040659725597
3200000000.0 0.04440070418818869 49.85447456341644 0.9742102364945012 -5.691732573219054 0.9742102364945012 -5.691732573219054 0.04440070418818869 49.85447456341644
3240000000.0 0.04478128892378451 49.669405921063635 0.9739043222161068 -5.750845137019943 0.9739043222161068 -5.750845137019943 0.04478128892378451 49.669405921063635
3280000000.0 0.045159810495191056 49.48518479499877 0.973598805268367 -5.809806096366738 0.973598805268367 -5.809806096366738 0.045159810495191056 49.48518479499877
3320000000.0 0.04553629571425689 49.30179580345619 0.9732936861972804 -5.868617257013131 0.9732936861972804 -5.868617257013131 0.04553629571425689 49.30179580345619
3360000000.0 0.04591077074749104 49.11922403689757 0.9729889655359347 -5.9272803826197045 0.9729889655359347 -5.9272803826197045 0.04591077074749104 49.11922403689757
3400000000.0 0.04628326113921561 48.937455037963026 0.9726846438045885 -5.985797196246373 0.9726846438045885 -5.985797196246373 0.04628326113921561 48.937455037963026
3440000000.0 0.04665379183362523 48.75647478249715 0.9723807215107615 -6.044169381774634 0.9723807215107615 -6.044169381774634 0.04665379183362523 48.75647478249715
3480000000.0 0.04702238719581623 48.57626966158332 0.9720771991493304 -6.10239858526392 0.9720771991493304 -6.10239858526392 0.04702238719581623 48.57626966158332
3520000000.0 0.04738907103184437 48.39682646452317 0.9717740772026272 -6.1604864162456385 0.9717740772026272 -6.1604864162456385 0.04738907103184437 48.39682646452317
3560000000.0 0.04775386660786896 48.21813236269543 0.9714713561405443 -6.218434448958527 0.9714713561405443 -6.218434448958527 0.04775386660786896 48.21813236269543
3600000000.0 0.048116796668429426 48.040174894249816 0.9711690364206393 -6.276244223528647 0.9711690364206393 -6.276244223528647 0.048116796668429426 48.040174894249816
3640000000.0 0.048477883453910256 47.86294194957109 0.9708671184882457 -6.3339172470969896 0.9708671184882457 -6.3339172470969896 0.048477883453910256 47.86294194957109
3680000000.0 0.04883714871723295 47.686421757476985 0.9705656027765868 -6.391454994897673 0.9705656027765868 -6.391454994897673 0.04883714871723295 47.686421757476985
3720000000.0 0.04919461373981935 47.51060287210056 0.9702644897068883 -6.44885891128932 0.9702644897068883 -6.44885891128932 0.04919461373981935 47.51060287210056
3760000000.0 0.049550299346865494 47.335474160417256 0.9699637796884957 -6.506130410742195 0.9699637796884957 -6.506130410742195 0.049550299346865494 47.335474160417256
3800000000.0 0.0499042259219637 47.16102479037755 0.9696634731189914 -6.563270878783444 0.9696634731189914 -6.563270878783444 0.0499042259219637 47.16102479037755
3840000000.0 0.0502564134211054 46.98724421961052 0.9693635703843165 -6.620281672902577 0.9693635703843165 -6.620281672902577 0.0502564134211054 46.98724421961052
3880000000.0 0.05060688138609842 46.81412218466611 0.9690640718588877 -6.677164123419346 0.9690640718588877 -6.677164123419346 0.05060688138609842 46.81412218466611
3920000000.0 0.050955648957428615 46.64164869076316 0.96876497790572 -6.7339195343159215 0.96876497790572 -6.7339195343159215 0.050955648957428615 46.64164869076316
3960000000.0 0.051302734886594765 46.469814002014935 0.9684662888765483 -6.790549184035113 0.9684662888765483 -6.790549184035113 0.051302734886594765 46.469814002014935
4000000000.0 0.05164815754794245 46.298608632107246 0.9681680051119503 -6.847054326246527 0.9681680051119503 -6.847054326246527 0.05164815754794245 46.298608632107246
4040000000.0 0.05199193495002267 46.128023335401814 0.9678701269414655 -6.903436190582032 0.9678701269414655 -6.903436190582032 0.05199193495002267 46.128023335401814
4080000000.0 0.052334084746498595 45.95804909844182 0.9675726546837198 -6.959695983342231 0.9675726546837198 -6.959695983342231 0.052334084746498595 45.95804909844182
4120000000.0 0.0526746242466235 45.788677131838604 0.9672755886465475 -7.015834888175303 0.9672755886465475 -7.015834888175303 0.0526746242466235 45.788677131838604
4160000000.0 0.05301357042530905 45.61989886251784 0.9669789291271128 -7.07185406672948 0.9669789291271128 -7.07185406672948 0.05301357042530905 45.61989886251784
4200000000.0 0.05335093993280544 45.45170592630677 0.9666826764120299 -7.127754659280585 0.9666826764120299 -7.127754659280585 0.05335093993280544 45.45170592630677
4240000000.0 0.05368674910401085 45.28409016084386 0.9663868307774854 -7.183537785335618 0.9663868307774854 -7.183537785335618 0.05368674910401085 45.28409016084386
4280000000.0 0.0540210139674285 45.11704359879373 0.9660913924893595 -7.239204544213706 0.9660913924893595 -7.239204544213706 0.0540210139674285 45.11704359879373
4320000000.0 0.05435375025378654 44.950558461353005 0.9657963618033436 -7.294756015605349 0.9657963618033436 -7.294756015605349 0.05435375025378654 44.950558461353005
4360000000.0 0.054684973404338526 44.7846271520296 0.9655017389650614 -7.350193260111006 0.9655017389650614 -7.350193260111006 0.054684973404338526 44.7846271520296
4400000000.0 0.055014698578857026 44.61924225068359 0.9652075242101866 -7.405517319759968 0.9652075242101866 -7.405517319759968 0.055014698578857026 44.61924225068359
4440000000.0 0.05534294066333578 44.45439650781532 0.9649137177645603 -7.460729218510433 0.9649137177645603 -7.460729218510433 0.05534294066333578 44.45439650781532
4480000000.0 0.0556697142774132 44.29008283908912 0.9646203198443078 -7.51582996273159 0.9646203198443078 -7.51582996273159 0.0556697142774132 44.29008283908912
4520000000.0 0.05599503378152841 44.12629432008014 0.9643273306559542 -7.570820541668514 0.9643273306559542 -7.570820541668514 0.05599503378152841 44.12629432008014
4560000000.0 0.05631891328382569 43.96302418123274 0.9640347503965409 -7.625701927890675 0.9640347503965409 -7.625701927890675 0.05631891328382569 43.96302418123274
4600000000.0 0.056641366646812 43.80026580302284 0.9637425792537364 -7.680475077724749 0.9637425792537364 -7.680475077724749 0.056641366646812 43.80026580302284
4640000000.0 0.056962407493784895 43.638012711311234 0.9634508174059522 -7.735140931672414 0.9634508174059522 -7.735140931672414 0.056962407493784895 43.638012711311234
4680000000.0 0.05728204921503609 43.47625857287985 0.9631594650224526 -7.7897004148137485 0.9631594650224526 -7.7897004148137485 0.05728204921503609 43.47625857287985
4720000000.0 0.05760030497384318 43.314997191142915 0.9628685222634664 -7.844154437196939 0.9628685222634664 -7.844154437196939 0.05760030497384318 43.314997191142915
4760000000.0 0.05791718771225619 43.15422250202402 0.9625779892802956 -7.898503894214754 0.9625779892802956 -7.898503894214754 0.05791718771225619 43.15422250202402
