# Hz S ri R 50
0	0.001699617	0	0.9983004	0	1.501718e-05	0	-1.501717e-05	0
	1.501717e-05	0	-1.501717e-05	0	1.501717e-05	0	-1.501717e-05	0
	0.9983004	0	0.001699617	0	-1.501717e-05	0	1.501718e-05	0
	-1.501717e-05	0	1.501717e-05	0	-1.501717e-05	0	1.501717e-05	0
	1.501718e-05	0	-1.501717e-05	0	0.001699617	0	0.9983004	0
	1.501717e-05	0	-1.501717e-05	0	1.501717e-05	0	-1.501717e-05	0
	-1.501717e-05	0	1.501718e-05	0	0.9983004	0	0.001699617	0
	-1.501717e-05	0	1.501717e-05	0	-1.501717e-05	0	1.501717e-05	0
	1.501717e-05	0	-1.501717e-05	0	1.501717e-05	0	-1.501717e-05	0
	0.001699617	0	0.9983004	0	1.501718e-05	0	-1.501717e-05	0
	-1.501717e-05	0	1.501717e-05	0	-1.501717e-05	0	1.501717e-05	0
	0.9983004	0	0.001699617	0	-1.501717e-05	0	1.501718e-05	0
	1.501717e-05	0	-1.501717e-05	0	1.501717e-05	0	-1.501717e-05	0
	1.501718e-05	0	-1.501717e-05	0	0.001699617	0	0.9983004	0
	-1.501717e-05	0	1.501717e-05	0	-1.501717e-05	0	1.501717e-05	0
	-1.501717e-05	0	1.501718e-05	0	0.9983004	0	0.001699617	0
4e+07	0.002492442	-0.01524737	0.989324	-0.09589772	0.001926467	0.01452721	0.0005480208	0.002750452
	0.0001238742	0.0002753788	-0.0001316557	-0.000155212	4.19298e-05	4.342094e-05	-4.309264e-05	-3.770221e-05
	0.989324	-0.09589772	0.002492442	-0.01524737	0.0005480208	0.002750452	0.001926467	0.01452721
	-0.0001316557	-0.000155212	0.0001238742	0.0002753788	-4.309264e-05	-3.770221e-05	4.19298e-05	4.342094e-05
	0.001926467	0.01452721	0.0005480208	0.002750452	0.002981913	-0.01511676	0.9888011	-0.09612357
	0.0004379674	0.002676609	4.67007e-05	0.0003487497	0.000123765	0.0002744847	-0.0001316992	-0.0001553212
	0.0005480208	0.002750452	0.001926467	0.01452721	0.9888011	-0.09612357	0.002981913	-0.01511676
	4.67007e-05	0.0003487497	0.0004379674	0.002676609	-0.0001316992	-0.0001553212	0.000123765	0.0002744847
	0.0001238742	0.0002753788	-0.0001316557	-0.000155212	0.0004379674	0.002676609	4.67007e-05	0.0003487497
	0.002981874	-0.01511679	0.9888011	-0.09612287	0.00192608	0.01452379	0.0005478066	0.002749357
	-0.0001316557	-0.000155212	0.0001238742	0.0002753788	4.67007e-05	0.0003487497	0.0004379674	0.002676609
	0.9888011	-0.09612287	0.002981874	-0.01511679	0.0005478066	0.002749357	0.00192608	0.01452379
	4.19298e-05	4.342094e-05	-4.309264e-05	-3.770221e-05	0.000123765	0.0002744847	-0.0001316992	-0.0001553212
	0.00192608	0.01452379	0.0005478066	0.002749357	0.002492981	-0.01524205	0.9893243	-0.09589604
	-4.309264e-05	-3.770221e-05	4.19298e-05	4.342094e-05	-0.0001316992	-0.0001553212	0.000123765	0.0002744847
	0.0005478066	0.002749357	0.00192608	0.01452379	0.9893243	-0.09589604	0.002492981	-0.01524205
8e+07	-0.004184106	-0.04262811	0.9764185	-0.1772867	0.00574986	0.02663114	0.002610387	0.006887925
	0.0001533237	0.00046947	-0.000193866	-0.0002090043	5.015497e-05	6.752362e-05	-5.567376e-05	-5.557065e-05
	0.9764185	-0.1772867	-0.004184106	-0.04262811	0.002610387	0.006887925	0.00574986	0.02663114
	-0.000193866	-0.0002090043	0.0001533237	0.00046947	-5.567376e-05	-5.557065e-05	5.015497e-05	6.752362e-05
	0.00574986	0.02663114	0.002610387	0.006887925	-0.003710212	-0.04269758	0.9758567	-0.1773949
	0.001134246	0.004830987	0.0003973828	0.001033335	0.0001529929	0.000467858	-0.0001940182	-0.0002093443
	0.002610387	0.006887925	0.00574986	0.02663114	0.9758567	-0.1773949	-0.003710212	-0.04269758
	0.0003973828	0.001033335	0.001134246	0.004830987	-0.0001940182	-0.0002093443	0.0001529929	0.000467858
	0.0001533237	0.00046947	-0.000193866	-0.0002090043	0.001134246	0.004830987	0.0003973828	0.001033335
	-0.003710143	-0.04269758	0.9758571	-0.1773937	0.005748476	0.0266248	0.002609497	0.006885559
	-0.000193866	-0.0002090043	0.0001533237	0.00046947	0.0003973828	0.001033335	0.001134246	0.004830987
	0.9758571	-0.1773937	-0.003710143	-0.04269758	0.002609497	0.006885559	0.005748476	0.0266248
	5.015497e-05	6.752362e-05	-5.567376e-05	-5.557065e-05	0.0001529929	0.000467858	-0.0001940182	-0.0002093443
	0.005748476	0.0266248	0.002609497	0.006885559	-0.004182078	-0.04261827	0.9764197	-0.177283
	-5.567376e-05	-5.557065e-05	5.015497e-05	6.752362e-05	-0.0001940182	-0.0002093443	0.0001529929	0.000467858
	0.002609497	0.006885559	0.005748476	0.0266248	0.9764197	-0.177283	-0.004182078	-0.04261827
1.2e+08	-0.01474462	-0.06759923	0.9555288	-0.2569256	0.01172574	0.03777306	0.005861679	0.01011887
	0.0001915237	0.0006889361	-0.0002721496	-0.0002531225	5.953196e-05	9.383277e-05	-7.28097e-05	-7.425368e-05
	0.9555288	-0.2569256	-0.01474462	-0.06759923	0.005861679	0.01011887	0.01172574	0.03777306
	-0.0002721496	-0.0002531225	0.0001915237	0.0006889361	-7.28097e-05	-7.425368e-05	5.953196e-05	9.383277e-05
	0.01172574	0.03777306	0.005861679	0.01011887	-0.01433692	-0.06784042	0.9549538	-0.2569216
	0.002126523	0.006842656	0.001035585	0.00152774	0.000190847	0.000686652	-0.0002724743	-0.0002536415
	0.005861679	0.01011887	0.01172574	0.03777306	0.9549538	-0.2569216	-0.01433692	-0.06784042
	0.001035585	0.00152774	0.002126523	0.006842656	-0.0002724743	-0.0002536415	0.000190847	0.000686652
	0.0001915237	0.0006889361	-0.0002721496	-0.0002531225	0.002126523	0.006842656	0.001035585	0.00152774
	-0.01433668	-0.06784047	0.9549546	-0.25692	0.0117228	0.03776411	0.00585973	0.01011553
	-0.0002721496	-0.0002531225	0.0001915237	0.0006889361	0.001035585	0.00152774	0.002126523	0.006842656
	0.9549546	-0.25692	-0.01433668	-0.06784047	0.00585973	0.01011553	0.0117228	0.03776411
	5.953196e-05	9.383277e-05	-7.28097e-05	-7.425368e-05	0.000190847	0.000686652	-0.0002724743	-0.0002536415
	0.0117228	0.03776411	0.00585973	0.01011553	-0.01474026	-0.06758531	0.9555317	-0.2569204
	-7.28097e-05	-7.425368e-05	5.953196e-05	9.383277e-05	-0.0002724743	-0.0002536415	0.000190847	0.000686652
	0.00585973	0.01011553	0.0117228	0.03776411	0.9555317	-0.2569204	-0.01474026	-0.06758531
1.6e+08	-0.02807322	-0.08692122	0.9263851	-0.3364765	0.01977651	0.04788397	0.00981887	0.01181928
	0.000267806	0.0009475207	-0.0003753732	-0.0002943709	7.473017e-05	0.0001249655	-9.934528e-05	-9.47911e-05
	0.9263851	-0.3364765	-0.02807322	-0.08692122	0.00981887	0.01181928	0.01977651	0.04788397
	-0.0003753732	-0.0002943709	0.000267806	0.0009475207	-9.934528e-05	-9.47911e-05	7.473017e-05	0.0001249655
	0.01977651	0.04788397	0.00981887	0.01181928	-0.02776913	-0.08726513	0.9258176	-0.3364001
	0.00356776	0.00868926	0.001710021	0.001731843	0.000266657	0.0009446087	-0.0003759064	-0.0002949765
	0.00981887	0.01181928	0.01977651	0.04788397	0.9258176	-0.3364001	-0.02776913	-0.08726513
	0.001710021	0.001731843	0.00356776	0.00868926	-0.0003759064	-0.0002949765	0.000266657	0.0009446087
	0.000267806	0.0009475207	-0.0003753732	-0.0002943709	0.00356776	0.00868926	0.001710021	0.001731843
	-0.02776873	-0.08726536	0.9258188	-0.3363982	0.01977153	0.04787274	0.009815621	0.01181542
	-0.0003753732	-0.0002943709	0.000267806	0.0009475207	0.001710021	0.001731843	0.00356776	0.00868926
	0.9258188	-0.3363982	-0.02776873	-0.08726536	0.009815621	0.01181542	0.01977153	0.04787274
	7.473017e-05	0.0001249655	-9.934528e-05	-9.47911e-05	0.000266657	0.0009446087	-0.0003759064	-0.0002949765
	0.01977153	0.04787274	0.009815621	0.01181542	-0.02806575	-0.0869037	0.9263899	-0.3364704
	-9.934528e-05	-9.47911e-05	7.473017e-05	0.0001249655	-0.0003759064	-0.0002949765	0.000266657	0.0009446087
	0.009815621	0.01181542	0.01977153	0.04787274	0.9263899	-0.3364704	-0.02806575	-0.0869037
2e+08	-0.04444216	-0.1035046	0.8905853	-0.4120697	0.02934342	0.05621986	0.01428872	0.01231712
	0.0003900788	0.001210095	-0.0004921382	-0.0002992919	9.517325e-05	0.0001537695	-0.0001342661	-0.0001081103
	0.8905853	-0.4120697	-0.04444216	-0.1035046	0.01428872	0.01231712	0.02934342	0.05621986
	-0.0004921382	-0.0002992919	0.0003900788	0.001210095	-0.0001342661	-0.0001081103	9.517325e-05	0.0001537695
	0.02934342	0.05621986	0.01428872	0.01231712	-0.04426062	-0.1039393	0.8900403	-0.4119012
	0.00529661	0.01021628	0.002441329	0.001732124	0.0003883626	0.001206654	-0.000492908	-0.0002999231
	0.01428872	0.01231712	0.02934342	0.05621986	0.8900403	-0.4119012	-0.04426062	-0.1039393
	0.002441329	0.001732124	0.00529661	0.01021628	-0.000492908	-0.0002999231	0.0003883626	0.001206654
	0.0003900788	0.001210095	-0.0004921382	-0.0002992919	0.00529661	0.01021628	0.002441329	0.001732124
	-0.04426007	-0.1039398	0.8900421	-0.4118991	0.02933604	0.05620686	0.01428403	0.01231315
	-0.0004921382	-0.0002992919	0.0003900788	0.001210095	0.002441329	0.001732124	0.00529661	0.01021628
	0.8900421	-0.4118991	-0.04426007	-0.1039398	0.01428403	0.01231315	0.02933604	0.05620686
	9.517325e-05	0.0001537695	-0.0001342661	-0.0001081103	0.0003883626	0.001206654	-0.000492908	-0.0002999231
	0.02933604	0.05620686	0.01428403	0.01231315	-0.04443106	-0.1034843	0.8905923	-0.4120633
	-0.0001342661	-0.0001081103	9.517325e-05	0.0001537695	-0.000492908	-0.0002999231	0.0003883626	0.001206654
	0.01428403	0.01231315	0.02933604	0.05620686	0.8905923	-0.4120633	-0.04443106	-0.1034843
2.4e+08	-0.06317603	-0.1168471	0.8486969	-0.4832468	0.04002417	0.0625907	0.0189211	0.01152761
	0.0005512562	0.001453624	-0.0005960975	-0.000254237	0.000116567	0.0001768988	-0.000171868	-0.0001087571
	0.8486969	-0.4832468	-0.06317603	-0.1168471	0.0189211	0.01152761	0.04002417	0.0625907
	-0.0005960975	-0.000254237	0.0005512562	0.001453624	-0.000171868	-0.0001087571	0.000116567	0.0001768988
	0.04002417	0.0625907	0.0189211	0.01152761	-0.06309032	-0.1173076	0.8481506	-0.4830223
	0.007219989	0.01136835	0.003191562	0.001540664	0.0005488987	0.001449766	-0.0005971149	-0.0002548267
	0.0189211	0.01152761	0.04002417	0.0625907	0.8481506	-0.4830223	-0.06309032	-0.1173076
	0.003191562	0.001540664	0.007219989	0.01136835	-0.0005971149	-0.0002548267	0.0005488987	0.001449766
	0.0005512562	0.001453624	-0.0005960975	-0.000254237	0.007219989	0.01136835	0.003191562	0.001540664
	-0.0630897	-0.1173085	0.848153	-0.4830203	0.0400142	0.06257648	0.01891494	0.01152396
	-0.0005960975	-0.000254237	0.0005512562	0.001453624	0.003191562	0.001540664	0.007219989	0.01136835
	0.848153	-0.4830203	-0.0630897	-0.1173085	0.01891494	0.01152396	0.0400142	0.06257648
	0.000116567	0.0001768988	-0.000171868	-0.0001087571	0.0005488987	0.001449766	-0.0005971149	-0.0002548267
	0.0400142	0.06257648	0.01891494	0.01152396	-0.06316094	-0.1168247	0.8487061	-0.4832408
	-0.000171868	-0.0001087571	0.000116567	0.0001768988	-0.0005971149	-0.0002548267	0.0005488987	0.001449766
	0.01891494	0.01152396	0.0400142	0.06257648	0.8487061	-0.4832408	-0.06316094	-0.1168247
2.8e+08	-0.08364381	-0.1267227	0.8014097	-0.5495281	0.0513955	0.06689777	0.02337771	0.009467074
	0.0007636589	0.001677638	-0.0006860269	-0.0001756059	0.0001413762	0.0001972214	-0.0002120873	-9.803131e-05
	0.8014097	-0.5495281	-0.08364381	-0.1267227	0.02337771	0.009467074	0.0513955	0.06689777
	-0.0006860269	-0.0001756059	0.0007636589	0.001677638	-0.0002120873	-9.803131e-05	0.0001413762	0.0001972214
	0.0513955	0.06689777	0.02337771	0.009467074	-0.08365239	-0.1271906	0.8008733	-0.5492398
	0.009284244	0.01214216	0.003881106	0.001150613	0.0007606093	0.001673482	-0.0006872855	-0.0001760863
	0.02337771	0.009467074	0.0513955	0.06689777	0.8008733	-0.5492398	-0.08365239	-0.1271906
	0.003881106	0.001150613	0.009284244	0.01214216	-0.0006872855	-0.0001760863	0.0007606093	0.001673482
	0.0007636589	0.001677638	-0.0006860269	-0.0001756059	0.009284244	0.01214216	0.003881106	0.001150613
	-0.0836518	-0.1271919	0.8008763	-0.549238	0.05138285	0.06688286	0.02337018	0.009464148
	-0.0006860269	-0.0001756059	0.0007636589	0.001677638	0.003881106	0.001150613	0.009284244	0.01214216
	0.8008763	-0.549238	-0.0836518	-0.1271919	0.02337018	0.009464148	0.05138285	0.06688286
	0.0001413762	0.0001972214	-0.0002120873	-9.803131e-05	0.0007606093	0.001673482	-0.0006872855	-0.0001760863
	0.05138285	0.06688286	0.02337018	0.009464148	-0.08362456	-0.1266991	0.801421	-0.549523
	-0.0002120873	-9.803131e-05	0.0001413762	0.0001972214	-0.0006872855	-0.0001760863	0.0007606093	0.001673482
	0.02337018	0.009464148	0.05138285	0.06688286	0.801421	-0.549523	-0.08362456	-0.1266991
3.2e+08	-0.105158	-0.1329523	0.7493691	-0.6106396	0.06305649	0.06913569	0.02734089	0.006235153
	0.00102197	0.001868879	-0.0007492485	-7.142841e-05	0.000169101	0.0002149661	-0.0002510973	-7.544959e-05
	0.7493691	-0.6106396	-0.105158	-0.1329523	0.02734089	0.006235153	0.06305649	0.06913569
	-0.0007492485	-7.142841e-05	0.00102197	0.001868879	-0.0002510973	-7.544959e-05	0.000169101	0.0002149661
	0.06305649	0.06913569	0.02734089	0.006235153	-0.1052506	-0.133411	0.748851	-0.6102834
	0.01143501	0.01252476	0.004439272	0.0005978634	0.0010182	0.001864551	-0.0007507254	-7.173551e-05
	0.02734089	0.006235153	0.06305649	0.06913569	0.748851	-0.6102834	-0.1052506	-0.133411
	0.004439272	0.0005978634	0.01143501	0.01252476	-0.0007507254	-7.173551e-05	0.0010182	0.001864551
	0.00102197	0.001868879	-0.0007492485	-7.142841e-05	0.01143501	0.01252476	0.004439272	0.0005978634
	-0.1052501	-0.1334128	0.7488544	-0.6102819	0.06304119	0.0691206	0.02733217	0.006233309
	-0.0007492485	-7.142841e-05	0.00102197	0.001868879	0.004439272	0.0005978634	0.01143501	0.01252476
	0.7488544	-0.6102819	-0.1052501	-0.1334128	0.02733217	0.006233309	0.06304119	0.0691206
	0.000169101	0.0002149661	-0.0002510973	-7.544959e-05	0.0010182	0.001864551	-0.0007507254	-7.173551e-05
	0.06304119	0.0691206	0.02733217	0.006233309	-0.1051346	-0.1329282	0.7493823	-0.6106361
	-0.0002510973	-7.544959e-05	0.000169101	0.0002149661	-0.0007507254	-7.173551e-05	0.0010182	0.001864551
	0.02733217	0.006233309	0.06304119	0.0691206	0.7493823	-0.6106361	-0.1051346	-0.1329282
3.6e+08	-0.1270654	-0.1355098	0.6932186	-0.6663838	0.07463811	0.06937471	0.03054103	0.002003573
	0.0013235	0.002017154	-0.0007838671	4.78203e-05	0.0002000875	0.0002294408	-0.000285619	-4.123389e-05
	0.6932186	-0.6663838	-0.1270654	-0.1355098	0.03054103	0.002003573	0.07463811	0.06937471
	-0.0007838671	4.78203e-05	0.0013235	0.002017154	-0.000285619	-4.123389e-05	0.0002000875	0.0002294408
	0.07463811	0.06937471	0.03054103	0.002003573	-0.127228	-0.1359455	0.6927271	-0.665959
	0.01353579	0.01256399	0.004900619	-0.0001277302	0.001319005	0.002012777	-0.0007855237	4.774338e-05
	0.03054103	0.002003573	0.07463811	0.06937471	0.6927271	-0.665959	-0.127228	-0.1359455
	0.004900619	-0.0001277302	0.01353579	0.01256399	-0.0007855237	4.774338e-05	0.001319005	0.002012777
	0.0013235	0.002017154	-0.0007838671	4.78203e-05	0.01353579	0.01256399	0.004900619	-0.0001277302
	-0.1272278	-0.1359478	0.692731	-0.6659579	0.07462028	0.06935989	0.0305314	0.002003099
	-0.0007838671	4.78203e-05	0.0013235	0.002017154	0.004900619	-0.0001277302	0.01353579	0.01256399
	0.692731	-0.6659579	-0.1272278	-0.1359478	0.0305314	0.002003099	0.07462028	0.06935989
	0.0002000875	0.0002294408	-0.000285619	-4.123389e-05	0.001319005	0.002012777	-0.0007855237	4.774338e-05
	0.07462028	0.06935989	0.0305314	0.002003099	-0.127038	-0.135486	0.6932333	-0.6663822
	-0.000285619	-4.123389e-05	0.0002000875	0.0002294408	-0.0007855237	4.774338e-05	0.001319005	0.002012777
	0.0305314	0.002003099	0.07462028	0.06935989	0.6932333	-0.6663822	-0.127038	-0.135486
4e+08	-0.1487787	-0.1345083	0.6335978	-0.7166201	0.08581319	0.06774677	0.03277102	-0.003004156
	0.001660393	0.002109627	-0.0007894488	0.0001740535	0.00023478	0.0002397083	-0.0003127506	3.466076e-06
	0.6335978	-0.7166201	-0.1487787	-0.1345083	0.03277102	-0.003004156	0.08581319	0.06774677
	-0.0007894488	0.0001740535	0.001660393	0.002109627	-0.0003127506	3.466076e-06	0.00023478	0.0002397083
	0.08581319	0.06774677	0.03277102	-0.003004156	-0.149001	-0.1349127	0.6331478	-0.7161282
	0.01556712	0.01226611	0.005192438	-0.0009672039	0.001655187	0.002105318	-0.0007912339	0.0001742528
	0.03277102	-0.003004156	0.08581319	0.06774677	0.6331478	-0.7161282	-0.149001	-0.1349127
	0.005192438	-0.0009672039	0.01556712	0.01226611	-0.0007912339	0.0001742528	0.001655187	0.002105318
	0.001660393	0.002109627	-0.0007894488	0.0001740535	0.01556712	0.01226611	0.005192438	-0.0009672039
	-0.1490013	-0.1349154	0.6331519	-0.7161276	0.08579302	0.06773262	0.03276081	-0.003003055
	-0.0007894488	0.0001740535	0.001660393	0.002109627	0.005192438	-0.0009672039	0.01556712	0.01226611
	0.6331519	-0.7161276	-0.1490013	-0.1349154	0.03276081	-0.003003055	0.08579302	0.06773262
	0.00023478	0.0002397083	-0.0003127506	3.466076e-06	0.001655187	0.002105318	-0.0007912339	0.0001742528
	0.08579302	0.06773262	0.03276081	-0.003003055	-0.1487475	-0.1344854	0.6336136	-0.7166209
	-0.0003127506	3.466076e-06	0.00023478	0.0002397083	-0.0007912339	0.0001742528	0.001655187	0.002105318
	0.03276081	-0.003003055	0.08579302	0.06773262	0.6336136	-0.7166209	-0.1487475	-0.1344854
4.4e+08	-0.1697102	-0.1300871	0.5710343	-0.761349	0.09631516	0.06442301	0.0338852	-0.008527856
	0.002016843	0.002140403	-0.0007629121	0.0002955135	0.000272667	0.0002453507	-0.0003293654	5.583726e-05
	0.5710343	-0.761349	-0.1697102	-0.1300871	0.0338852	-0.008527856	0.09631516	0.06442301
	-0.0007629121	0.0002955135	0.002016843	0.002140403	-0.0003293654	5.583726e-05	0.000272667	0.0002453507
	0.09631516	0.06442301	0.0338852	-0.008527856	-0.1699775	-0.1304563	0.5706347	-0.760793
	0.01747499	0.01166661	0.005301205	-0.001883449	0.00201096	0.002136274	-0.000764765	0.0002960213
	0.0338852	-0.008527856	0.09631516	0.06442301	0.5706347	-0.760793	-0.1699775	-0.1304563
	0.005301205	-0.001883449	0.01747499	0.01166661	-0.000764765	0.0002960213	0.00201096	0.002136274
	0.002016843	0.002140403	-0.0007629121	0.0002955135	0.01747499	0.01166661	0.005301205	-0.001883449
	-0.1699782	-0.1304593	0.5706389	-0.7607929	0.09629289	0.06440987	0.03387476	-0.008525063
	-0.0007629121	0.0002955135	0.002016843	0.002140403	0.005301205	-0.001883449	0.01747499	0.01166661
	0.5706389	-0.7607929	-0.1699782	-0.1304593	0.03387476	-0.008525063	0.09629289	0.06440987
	0.000272667	0.0002453507	-0.0003293654	5.583726e-05	0.00201096	0.002136274	-0.000764765	0.0002960213
	0.09629289	0.06440987	0.03387476	-0.008525063	-0.1696756	-0.1300657	0.5710505	-0.7613523
	-0.0003293654	5.583726e-05	0.000272667	0.0002453507	-0.000764765	0.0002960213	0.00201096	0.002136274
	0.03387476	-0.008525063	0.09629289	0.06440987	0.5710505	-0.7613523	-0.1696756	-0.1300657
4.8e+08	-0.1893984	-0.1225283	0.5060799	-0.8005507	0.1059219	0.0596065	0.03381159	-0.01429592
	0.002383747	0.002100593	-0.0007131415	0.0004096969	0.0003132667	0.0002442031	-0.0003337381	0.0001136939
	0.5060799	-0.8005507	-0.1893984	-0.1225283	0.03381159	-0.01429592	0.1059219	0.0596065
	-0.0007131415	0.0004096969	0.002383747	0.002100593	-0.0003337381	0.0001136939	0.0003132667	0.0002442031
	0.1059219	0.0596065	0.03381159	-0.01429592	-0.1897011	-0.1228604	0.5057439	-0.7999383
	0.01922542	0.01079611	0.005211724	-0.002826095	0.002377235	0.002096744	-0.0007149957	0.0004105309
	0.03381159	-0.01429592	0.1059219	0.0596065	0.5057439	-0.7999383	-0.1897011	-0.1228604
	0.005211724	-0.002826095	0.01922542	0.01079611	-0.0007149957	0.0004105309	0.002377235	0.002096744
	0.002383747	0.002100593	-0.0007131415	0.0004096969	0.01922542	0.01079611	0.005211724	-0.002826095
	-0.1897024	-0.1228636	0.5057482	-0.7999386	0.1058978	0.05959462	0.03380127	-0.0142914
	-0.0007131415	0.0004096969	0.002383747	0.002100593	0.005211724	-0.002826095	0.01922542	0.01079611
	0.5057482	-0.7999386	-0.1897024	-0.1228636	0.03380127	-0.0142914	0.1058978	0.05959462
	0.0003132667	0.0002442031	-0.0003337381	0.0001136939	0.002377235	0.002096744	-0.0007149957	0.0004105309
	0.1058978	0.05959462	0.03380127	-0.0142914	-0.1893609	-0.1225088	0.5060961	-0.8005567
	-0.0003337381	0.0001136939	0.0003132667	0.0002442031	-0.0007149957	0.0004105309	0.002377235	0.002096744
	0.03380127	-0.0142914	0.1058978	0.05959462	0.5060961	-0.8005567	-0.1893609	-0.1225088
5.2e+08	-0.2074043	-0.1121233	0.4391782	-0.8342924	0.1144681	0.05350943	0.03253973	-0.02003465
	0.002743542	0.001990244	-0.0006419564	0.0005093075	0.0003552435	0.0002356296	-0.0003245876	0.0001732416
	0.4391782	-0.8342924	-0.2074043	-0.1121233	0.03253973	-0.02003465	0.1144681	0.05350943
	-0.0006419564	0.0005093075	0.002743542	0.001990244	-0.0003245876	0.0001732416	0.0003552435	0.0002356296
	0.1144681	0.05350943	0.03253973	-0.02003465	-0.2077328	-0.1124194	0.4389158	-0.8336326
