# Hz S ri R 50
0	0.001035343	0	0.9989647	0	2.826102e-06	0	-2.826102e-06	0
	2.826102e-06	0	-2.826102e-06	0	2.826102e-06	0	-2.826102e-06	0
	0.9989647	0	0.001035343	0	-2.826102e-06	0	2.826102e-06	0
	-2.826102e-06	0	2.826102e-06	0	-2.826102e-06	0	2.826102e-06	0
	2.826102e-06	0	-2.826102e-06	0	0.001035343	0	0.9989647	0
	2.826102e-06	0	-2.826102e-06	0	2.826102e-06	0	-2.826102e-06	0
	-2.826102e-06	0	2.826102e-06	0	0.9989647	0	0.001035343	0
	-2.826102e-06	0	2.826102e-06	0	-2.826102e-06	0	2.826102e-06	0
	2.826102e-06	0	-2.826102e-06	0	2.826102e-06	0	-2.826102e-06	0
	0.001035343	0	0.9989647	0	2.826102e-06	0	-2.826102e-06	0
	-2.826102e-06	0	2.826102e-06	0	-2.826102e-06	0	2.826102e-06	0
	0.9989647	0	0.001035343	0	-2.826102e-06	0	2.826102e-06	0
	2.826102e-06	0	-2.826102e-06	0	2.826102e-06	0	-2.826102e-06	0
	2.826102e-06	0	-2.826102e-06	0	0.001035343	0	0.9989647	0
	-2.826102e-06	0	2.826102e-06	0	-2.826102e-06	0	2.826102e-06	0
	-2.826102e-06	0	2.826102e-06	0	0.9989647	0	0.001035343	0
4e+07	0.004376607	0.01395089	0.9942734	-0.05222373	0.0002468541	0.002407674	-0.0001691858	-0.0007759454
	5.143503e-06	5.104292e-06	-5.176438e-06	-4.64286e-06	5.321243e-07	3.526046e-07	-5.327629e-07	-3.492777e-07
	0.9942734	-0.05222373	0.004376607	0.01395089	-0.0001691858	-0.0007759454	0.0002468541	0.002407674
	-5.176438e-06	-4.64286e-06	5.143503e-06	5.104292e-06	-5.327629e-07	-3.492777e-07	5.321243e-07	3.526046e-07
	0.0002468541	0.002407674	-0.0001691858	-0.0007759454	0.004427783	0.01402429	0.9942221	-0.05229563
	2.640177e-05	0.0001113271	-2.353942e-05	-4.711157e-05	5.144267e-06	5.114436e-06	-5.177076e-06	-4.649175e-06
	-0.0001691858	-0.0007759454	0.0002468541	0.002407674	0.9942221	-0.05229563	0.004427783	0.01402429
	-2.353942e-05	-4.711157e-05	2.640177e-05	0.0001113271	-5.177076e-06	-4.649175e-06	5.144267e-06	5.114436e-06
	5.143503e-06	5.104292e-06	-5.176438e-06	-4.64286e-06	2.640177e-05	0.0001113271	-2.353942e-05	-4.711157e-05
	0.004427264	0.0140144	0.9942224	-0.05229333	0.0002469653	0.00240956	-0.0001692248	-0.0007764503
	-5.176438e-06	-4.64286e-06	5.143503e-06	5.104292e-06	-2.353942e-05	-4.711157e-05	2.640177e-05	0.0001113271
	0.9942224	-0.05229333	0.004427264	0.0140144	-0.0001692248	-0.0007764503	0.0002469653	0.00240956
	5.321243e-07	3.526046e-07	-5.327629e-07	-3.492777e-07	5.144267e-06	5.114436e-06	-5.177076e-06	-4.649175e-06
	0.0002469653	0.00240956	-0.0001692248	-0.0007764503	0.004376933	0.01395615	0.9942733	-0.05222497
	-5.327629e-07	-3.492777e-07	5.321243e-07	3.526046e-07	-5.177076e-06	-4.649175e-06	5.144267e-06	5.114436e-06
	-0.0001692248	-0.0007764503	0.0002469653	0.00240956	0.9942733	-0.05222497	0.004376933	0.01395615
8e+07	0.005264003	0.01744387	0.9909296	-0.09379534	0.0005380688	0.004239553	-0.0002675136	-0.0009921686
	5.887149e-06	8.008587e-06	-6.02466e-06	-7.072282e-06	5.808e-07	5.38808e-07	-5.834123e-07	-5.322746e-07
	0.9909296	-0.09379534	0.005264003	0.01744387	-0.0002675136	-0.0009921686	0.0005380688	0.004239553
	-6.02466e-06	-7.072282e-06	5.887149e-06	8.008587e-06	-5.834123e-07	-5.322746e-07	5.808e-07	5.38808e-07
	0.0005380688	0.004239553	-0.0002675136	-0.0009921686	0.005314832	0.01746699	0.9908787	-0.09381544
	3.99748e-05	0.0001916017	-2.961719e-05	-6.381324e-05	5.889233e-06	8.025446e-06	-6.026307e-06	-7.081504e-06
	-0.0002675136	-0.0009921686	0.0005380688	0.004239553	0.9908787	-0.09381544	0.005314832	0.01746699
	-2.961719e-05	-6.381324e-05	3.99748e-05	0.0001916017	-6.026307e-06	-7.081504e-06	5.889233e-06	8.025446e-06
	5.887149e-06	8.008587e-06	-6.02466e-06	-7.072282e-06	3.99748e-05	0.0001916017	-2.961719e-05	-6.381324e-05
	0.005313138	0.01744907	0.9908793	-0.09381265	0.0005384036	0.004242927	-0.0002676027	-0.0009927952
	-6.02466e-06	-7.072282e-06	5.887149e-06	8.008587e-06	-2.961719e-05	-6.381324e-05	3.99748e-05	0.0001916017
	0.9908793	-0.09381265	0.005313138	0.01744907	-0.0002676027	-0.0009927952	0.0005384036	0.004242927
	5.808e-07	5.38808e-07	-5.834123e-07	-5.322746e-07	5.889233e-06	8.025446e-06	-6.026307e-06	-7.081504e-06
	0.0005384036	0.004242927	-0.0002676027	-0.0009927952	0.00526498	0.0174534	0.9909293	-0.09379687
	-5.834123e-07	-5.322746e-07	5.808e-07	5.38808e-07	-6.026307e-06	-7.081504e-06	5.889233e-06	8.025446e-06
	-0.0002676027	-0.0009927952	0.0005384036	0.004242927	0.9909293	-0.09379687	0.00526498	0.0174534
1.2e+08	0.006794062	0.02125027	0.98546	-0.1354259	0.001000113	0.006063719	-0.0004142331	-0.001226521
	6.790094e-06	1.043905e-05	-7.097441e-06	-8.999387e-06	6.135186e-07	4.641009e-07	-6.194241e-07	-4.540739e-07
	0.98546	-0.1354259	0.006794062	0.02125027	-0.0004142331	-0.001226521	0.001000113	0.006063719
	-7.097441e-06	-8.999387e-06	6.790094e-06	1.043905e-05	-6.194241e-07	-4.540739e-07	6.135186e-07	4.641009e-07
	0.001000113	0.006063719	-0.0004142331	-0.001226521	0.006839772	0.02123788	0.9854143	-0.135409
	6.094858e-05	0.0002694962	-3.8304e-05	-7.916834e-05	6.794201e-06	1.046277e-05	-7.100603e-06	-9.011693e-06
	-0.0004142331	-0.001226521	0.001000113	0.006063719	0.9854143	-0.135409	0.006839772	0.02123788
	-3.8304e-05	-7.916834e-05	6.094858e-05	0.0002694962	-7.100603e-06	-9.011693e-06	6.794201e-06	1.046277e-05
	6.790094e-06	1.043905e-05	-7.097441e-06	-8.999387e-06	6.094858e-05	0.0002694962	-3.8304e-05	-7.916834e-05
	0.006836213	0.02121198	0.9854154	-0.1354056	0.0010008	0.006068578	-0.0004143913	-0.001227291
	-7.097441e-06	-8.999387e-06	6.790094e-06	1.043905e-05	-3.8304e-05	-7.916834e-05	6.094858e-05	0.0002694962
	0.9854154	-0.1354056	0.006836213	0.02121198	-0.0004143913	-0.001227291	0.0010008	0.006068578
	6.135186e-07	4.641009e-07	-6.194241e-07	-4.540739e-07	6.794201e-06	1.046277e-05	-7.100603e-06	-9.011693e-06
	0.0010008	0.006068578	-0.0004143913	-0.001227291	0.006796061	0.02126403	0.9854594	-0.1354278
	-6.194241e-07	-4.540739e-07	6.135186e-07	4.641009e-07	-7.100603e-06	-9.011693e-06	6.794201e-06	1.046277e-05
	-0.0004143913	-0.001227291	0.0010008	0.006068578	0.9854594	-0.1354278	0.006796061	0.02126403
1.6e+08	0.009365773	0.02737862	0.9774364	-0.1790529	0.001677172	0.007963786	-0.0006556758	-0.001572893
	7.979648e-06	1.254292e-05	-8.514609e-06	-1.055614e-05	6.234721e-07	2.533226e-07	-6.339421e-07	-2.388878e-07
	0.9774364	-0.1790529	0.009365773	0.02737862	-0.0006556758	-0.001572893	0.001677172	0.007963786
	-8.514609e-06	-1.055614e-05	7.979648e-06	1.254292e-05	-6.339421e-07	-2.388878e-07	6.234721e-07	2.533226e-07
	0.001677172	0.007963786	-0.0006556758	-0.001572893	0.009406973	0.02736303	0.9773955	-0.1790312
	9.093484e-05	0.0003486436	-5.131563e-05	-9.721418e-05	7.986759e-06	1.257402e-05	-8.520065e-06	-1.057208e-05
	-0.0006556758	-0.001572893	0.001677172	0.007963786	0.9773955	-0.1790312	0.009406973	0.02736303
	-5.131563e-05	-9.721418e-05	9.093484e-05	0.0003486436	-8.520065e-06	-1.057208e-05	7.986759e-06	1.257402e-05
	7.979648e-06	1.254292e-05	-8.514609e-06	-1.055614e-05	9.093484e-05	0.0003486436	-5.131563e-05	-9.721418e-05
	0.0094007	0.0273289	0.9773973	-0.1790268	0.001678372	0.00797019	-0.0006559563	-0.0015739
	-8.514609e-06	-1.055614e-05	7.979648e-06	1.254292e-05	-5.131563e-05	-9.721418e-05	9.093484e-05	0.0003486436
	0.9773973	-0.1790268	0.0094007	0.0273289	-0.0006559563	-0.0015739	0.001678372	0.00797019
	6.234721e-07	2.533226e-07	-6.339421e-07	-2.388878e-07	7.986759e-06	1.257402e-05	-8.520065e-06	-1.057208e-05
	0.001678372	0.00797019	-0.0006559563	-0.0015739	0.009369257	0.02739675	0.9774355	-0.1790553
	-6.339421e-07	-2.388878e-07	6.234721e-07	2.533226e-07	-8.520065e-06	-1.057208e-05	7.986759e-06	1.257402e-05
	-0.0006559563	-0.0015739	0.001678372	0.00797019	0.9774355	-0.1790553	0.009369257	0.02739675
2e+08	0.01236046	0.03314346	0.9675723	-0.2220417	0.002517904	0.009785355	-0.0009450937	-0.001881292
	9.405848e-06	1.429522e-05	-1.021879e-05	-1.170267e-05	6.387387e-07	9.709661e-08	-6.551244e-07	-7.746019e-08
	0.9675723	-0.2220417	0.01236046	0.03314346	-0.0009450937	-0.001881292	0.002517904	0.009785355
	-1.021879e-05	-1.170267e-05	9.405848e-06	1.429522e-05	-6.551244e-07	-7.746019e-08	6.387387e-07	9.709661e-08
	0.002517904	0.009785355	-0.0009450937	-0.001881292	0.01239639	0.03312529	0.967537	-0.222016
	0.0001273377	0.000423409	-6.621235e-05	-0.0001124931	9.416655e-06	1.433316e-05	-1.022704e-05	-1.172177e-05
	-0.0009450937	-0.001881292	0.002517904	0.009785355	0.967537	-0.222016	0.01239639	0.03312529
	-6.621235e-05	-0.0001124931	0.0001273377	0.000423409	-1.022704e-05	-1.172177e-05	9.416655e-06	1.433316e-05
	9.405848e-06	1.429522e-05	-1.021879e-05	-1.170267e-05	0.0001273377	0.000423409	-6.621235e-05	-0.0001124931
	0.01238669	0.03308323	0.9675397	-0.2220107	0.002519749	0.009793249	-0.0009455272	-0.001882519
	-1.021879e-05	-1.170267e-05	9.405848e-06	1.429522e-05	-6.621235e-05	-0.0001124931	0.0001273377	0.000423409
	0.9675397	-0.2220107	0.01238669	0.03308323	-0.0009455272	-0.001882519	0.002519749	0.009793249
	6.387387e-07	9.709661e-08	-6.551244e-07	-7.746019e-08	9.416655e-06	1.433316e-05	-1.022704e-05	-1.172177e-05
	0.002519749	0.009793249	-0.0009455272	-0.001882519	0.01236581	0.03316579	0.9675709	-0.2220446
	-6.551244e-07	-7.746019e-08	6.387387e-07	9.709661e-08	-1.022704e-05	-1.172177e-05	9.416655e-06	1.433316e-05
	-0.0009455272	-0.001882519	0.002519749	0.009793249	0.9675709	-0.2220446	0.01236581	0.03316579
2.4e+08	0.01585235	0.03867552	0.9558017	-0.2644908	0.003514095	0.01151202	-0.001277543	-0.002143186
	1.124187e-05	1.641001e-05	-1.237392e-05	-1.314528e-05	7.35394e-07	1.944383e-07	-7.594637e-07	-1.702815e-07
	0.9558017	-0.2644908	0.01585235	0.03867552	-0.001277543	-0.002143186	0.003514095	0.01151202
	-1.237392e-05	-1.314528e-05	1.124187e-05	1.641001e-05	-7.594637e-07	-1.702815e-07	7.35394e-07	1.944383e-07
	0.003514095	0.01151202	-0.001277543	-0.002143186	0.01588473	0.03865662	0.9557703	-0.2644627
	0.0001710854	0.0004963542	-8.406408e-05	-0.0001279034	1.125711e-05	1.645441e-05	-1.23855e-05	-1.316719e-05
	-0.001277543	-0.002143186	0.003514095	0.01151202	0.9557703	-0.2644627	0.01588473	0.03865662
	-8.406408e-05	-0.0001279034	0.0001710854	0.0004963542	-1.23855e-05	-1.316719e-05	1.125711e-05	1.645441e-05
	1.124187e-05	1.641001e-05	-1.237392e-05	-1.314528e-05	0.0001710854	0.0004963542	-8.406408e-05	-0.0001279034
	0.01587091	0.03860701	0.9557741	-0.2644568	0.003516716	0.01152133	-0.001278159	-0.002144611
	-1.237392e-05	-1.314528e-05	1.124187e-05	1.641001e-05	-8.406408e-05	-0.0001279034	0.0001710854	0.0004963542
	0.9557741	-0.2644568	0.01587091	0.03860701	-0.001278159	-0.002144611	0.003516716	0.01152133
	7.35394e-07	1.944383e-07	-7.594637e-07	-1.702815e-07	1.125711e-05	1.645441e-05	-1.23855e-05	-1.316719e-05
	0.003516716	0.01152133	-0.001278159	-0.002144611	0.01585993	0.03870184	0.9557996	-0.264494
	-7.594637e-07	-1.702815e-07	7.35394e-07	1.944383e-07	-1.23855e-05	-1.316719e-05	1.125711e-05	1.645441e-05
	-0.001278159	-0.002144611	0.003516716	0.01152133	0.9557996	-0.264494	0.01585993	0.03870184
2.8e+08	0.01975595	0.04382807	0.9422189	-0.3062165	0.004656014	0.01313389	-0.001647132	-0.002356608
	1.33176e-05	1.822817e-05	-1.479827e-05	-1.421209e-05	8.660182e-07	3.137174e-07	-8.997524e-07	-2.852985e-07
	0.9422189	-0.3062165	0.01975595	0.04382807	-0.001647132	-0.002356608	0.004656014	0.01313389
	-1.479827e-05	-1.421209e-05	1.33176e-05	1.822817e-05	-8.997524e-07	-2.852985e-07	8.660182e-07	3.137174e-07
	0.004656014	0.01313389	-0.001647132	-0.002356608	0.01978465	0.04380912	0.9421917	-0.306187
	0.0002208835	0.0005645086	-0.0001037322	-0.0001407808	1.333789e-05	1.827845e-05	-1.48136e-05	-1.42363e-05
	-0.001647132	-0.002356608	0.004656014	0.01313389	0.9421917	-0.306187	0.01978465	0.04380912
	-0.0001037322	-0.0001407808	0.0002208835	0.0005645086	-1.48136e-05	-1.42363e-05	1.333789e-05	1.827845e-05
	1.33176e-05	1.822817e-05	-1.479827e-05	-1.421209e-05	0.0002208835	0.0005645086	-0.0001037322	-0.0001407808
	0.01976607	0.04375236	0.9421967	-0.3061805	0.00465953	0.01314455	-0.001647955	-0.00235821
	-1.479827e-05	-1.421209e-05	1.33176e-05	1.822817e-05	-0.0001037322	-0.0001407808	0.0002208835	0.0005645086
	0.9421967	-0.3061805	0.01976607	0.04375236	-0.001647955	-0.00235821	0.00465953	0.01314455
	8.660182e-07	3.137174e-07	-8.997524e-07	-2.852985e-07	1.333789e-05	1.827845e-05	-1.48136e-05	-1.42363e-05
	0.00465953	0.01314455	-0.001647955	-0.00235821	0.01976611	0.04385815	0.9422162	-0.30622
	-8.997524e-07	-2.852985e-07	8.660182e-07	3.137174e-07	-1.48136e-05	-1.42363e-05	1.333789e-05	1.827845e-05
	-0.001647955	-0.00235821	0.00465953	0.01314455	0.9422162	-0.30622	0.01976611	0.04385815
3.2e+08	0.02406705	0.04860059	0.926837	-0.3471791	0.005933418	0.01463955	-0.002047944	-0.002517877
	1.560334e-05	1.978435e-05	-1.744929e-05	-1.492955e-05	1.00917e-06	3.994235e-07	-1.05465e-06	-3.664533e-07
	0.926837	-0.3471791	0.02406705	0.04860059	-0.002047944	-0.002517877	0.005933418	0.01463955
	-1.744929e-05	-1.492955e-05	1.560334e-05	1.978435e-05	-1.05465e-06	-3.664533e-07	1.00917e-06	3.994235e-07
	0.005933418	0.01463955	-0.002047944	-0.002517877	0.02409242	0.04858208	0.9268138	-0.3471485
	0.0002764636	0.0006276376	-0.0001251297	-0.0001512031	1.562922e-05	1.983992e-05	-1.746872e-05	-1.495551e-05
	-0.002047944	-0.002517877	0.005933418	0.01463955	0.9268138	-0.3471485	0.02409242	0.04858208
	-0.0001251297	-0.0001512031	0.0002764636	0.0006276376	-1.746872e-05	-1.495551e-05	1.562922e-05	1.983992e-05
	1.560334e-05	1.978435e-05	-1.744929e-05	-1.492955e-05	0.0002764636	0.0006276376	-0.0001251297	-0.0001512031
	0.02406849	0.04851866	0.9268201	-0.3471417	0.005937942	0.01465147	-0.002048998	-0.002519627
	-1.744929e-05	-1.492955e-05	1.560334e-05	1.978435e-05	-0.0001251297	-0.0001512031	0.0002764636	0.0006276376
	0.9268201	-0.3471417	0.02406849	0.04851866	-0.002048998	-0.002519627	0.005937942	0.01465147
	1.00917e-06	3.994235e-07	-1.05465e-06	-3.664533e-07	1.562922e-05	1.983992e-05	-1.746872e-05	-1.495551e-05
	0.005937942	0.01465147	-0.002048998	-0.002519627	0.02408009	0.04863418	0.9268335	-0.3471827
	-1.05465e-06	-3.664533e-07	1.00917e-06	3.994235e-07	-1.746872e-05	-1.495551e-05	1.562922e-05	1.983992e-05
	-0.002048998	-0.002519627	0.005937942	0.01465147	0.9268335	-0.3471827	0.02408009	0.04863418
3.6e+08	0.02875945	0.05296896	0.9096915	-0.3873132	0.00733472	0.01601818	-0.002473245	-0.002623709
	1.806507e-05	2.106763e-05	-2.027898e-05	-1.528021e-05	1.146238e-06	4.243275e-07	-1.205495e-06	-3.85676e-07
	0.9096915	-0.3873132	0.02875945	0.05296896	-0.002473245	-0.002623709	0.00733472	0.01601818
	-2.027898e-05	-1.528021e-05	1.806507e-05	2.106763e-05	-1.205495e-06	-3.85676e-07	1.146238e-06	4.243275e-07
	0.00733472	0.01601818	-0.002473245	-0.002623709	0.02878194	0.05295129	0.9096719	-0.387282
	0.000337365	0.0006853241	-0.0001479989	-0.0001590551	1.809701e-05	2.112781e-05	-2.030278e-05	-1.530734e-05
	-0.002473245	-0.002623709	0.00733472	0.01601818	0.9096719	-0.387282	0.02878194	0.05295129
	-0.0001479989	-0.0001590551	0.000337365	0.0006853241	-2.030278e-05	-1.530734e-05	1.809701e-05	2.112781e-05
	1.806507e-05	2.106763e-05	-2.027898e-05	-1.528021e-05	0.000337365	0.0006853241	-0.0001479989	-0.0001590551
	0.0287521	0.05288173	0.9096796	-0.387275	0.007340358	0.01603126	-0.002474549	-0.002625578
	-2.027898e-05	-1.528021e-05	1.806507e-05	2.106763e-05	-0.0001479989	-0.0001590551	0.000337365	0.0006853241
	0.9096796	-0.387275	0.0287521	0.05288173	-0.002474549	-0.002625578	0.007340358	0.01603126
	1.146238e-06	4.243275e-07	-1.205495e-06	-3.85676e-07	1.809701e-05	2.112781e-05	-2.030278e-05	-1.530734e-05
	0.007340358	0.01603126	-0.002474549	-0.002625578	0.02877567	0.05300577	0.9096873	-0.3873169
	-1.205495e-06	-3.85676e-07	1.146238e-06	4.243275e-07	-2.030278e-05	-1.530734e-05	1.809701e-05	2.112781e-05
	-0.002474549	-0.002625578	0.007340358	0.01603126	0.9096873	-0.3873169	0.02877567	0.05300577
4e+08	0.03377678	0.05688391	0.8908492	-0.4265271	0.008846673	0.01726012	-0.002915195	-0.002671714
	2.064069e-05	2.201606e-05	-2.321003e-05	-1.519647e-05	1.29057e-06	4.313224e-07	-1.366055e-06	-3.862962e-07
	0.8908492	-0.4265271	0.03377678	0.05688391	-0.002915195	-0.002671714	0.008846673	0.01726012
	-2.321003e-05	-1.519647e-05	2.064069e-05	2.201606e-05	-1.366055e-06	-3.862962e-07	1.29057e-06	4.313224e-07
	0.008846673	0.01726012	-0.002915195	-0.002671714	0.03379653	0.05686752	0.8908332	-0.4264958
	0.0004028528	0.0007369701	-0.0001718273	-0.000164025	2.067907e-05	2.208017e-05	-2.323837e-05	-1.522415e-05
	-0.002915195	-0.002671714	0.008846673	0.01726012	0.8908332	-0.4264958	0.03379653	0.05686752
	-0.0001718273	-0.000164025	0.0004028528	0.0007369701	-2.323837e-05	-1.522415e-05	2.067907e-05	2.208017e-05
	2.064069e-05	2.201606e-05	-2.321003e-05	-1.519647e-05	0.0004028528	0.0007369701	-0.0001718273	-0.000164025
	0.03376028	0.05679239	0.8908424	-0.4264888	0.00885352	0.01727426	-0.002916763	-0.002673673
	-2.321003e-05	-1.519647e-05	2.064069e-05	2.201606e-05	-0.0001718273	-0.000164025	0.0004028528	0.0007369701
	0.8908424	-0.4264888	0.03376028	0.05679239	-0.002916763	-0.002673673	0.00885352	0.01727426
	1.29057e-06	4.313224e-07	-1.366055e-06	-3.862962e-07	2.067907e-05	2.208017e-05	-2.323837e-05	-1.522415e-05
	0.00885352	0.01727426	-0.002916763	-0.002673673	0.03379644	0.05692363	0.8908441	-0.4265307
	-1.366055e-06	-3.862962e-07	1.29057e-06	4.313224e-07	-2.323837e-05	-1.522415e-05	2.067907e-05	2.208017e-05
	-0.002916763	-0.002673673	0.00885352	0.01727426	0.8908441	-0.4265307	0.03379644	0.05692363
4.4e+08	0.03911351	0.06034772	0.8703258	-0.4647798	0.01045695	0.01835705	-0.003367313	-0.00266053
	2.329739e-05	2.266172e-05	-2.619355e-05	-1.470848e-05	1.420386e-06	3.936023e-07	-1.514265e-06	-3.403472e-07
	0.8703258	-0.4647798	0.03911351	0.06034772	-0.003367313	-0.00266053	0.01045695	0.01835705
	-2.619355e-05	-1.470848e-05	2.329739e-05	2.266172e-05	-1.514265e-06	-3.403472e-07	1.420386e-06	3.936023e-07
	0.01045695	0.01835705	-0.003367313	-0.00266053	0.03913106	0.06033275	0.870313	-0.4647486
	0.0004725729	0.0007823686	-0.0001965081	-0.0001661847	2.33425e-05	2.272902e-05	-2.622653e-05	-1.473608e-05
	-0.003367313	-0.00266053	0.01045695	0.01835705	0.870313	-0.4647486	0.03913106	0.06033275
	-0.0001965081	-0.0001661847	0.0004725729	0.0007823686	-2.622653e-05	-1.473608e-05	2.33425e-05	2.272902e-05
	2.329739e-05	2.266172e-05	-2.619355e-05	-1.470848e-05	0.0004725729	0.0007823686	-0.0001965081	-0.0001661847
	0.03908797	0.06025266	0.8703236	-0.4647419	0.01046509	0.01837214	-0.003369157	-0.002662546
	-2.619355e-05	-1.470848e-05	2.329739e-05	2.266172e-05	-0.0001965081	-0.0001661847	0.0004725729	0.0007823686
	0.8703236	-0.4647419	0.03908797	0.06025266	-0.003369157	-0.002662546	0.01046509	0.01837214
	1.420386e-06	3.936023e-07	-1.514265e-06	-3.403472e-07	2.33425e-05	2.272902e-05	-2.622653e-05	-1.473608e-05
	0.01046509	0.01837214	-0.003369157	-0.002662546	0.03913685	0.06039002	0.8703199	-0.4647832
	-1.514265e-06	-3.403472e-07	1.420386e-06	3.936023e-07	-2.622653e-05	-1.473608e-05	2.33425e-05	2.272902e-05
	-0.003369157	-0.002662546	0.01046509	0.01837214	0.8703199	-0.4647832	0.03913685	0.06039002
4.8e+08	0.04469969	0.06331559	0.8482035	-0.5019821	0.01215061	0.01930189	-0.00382112	-0.002589665
	2.598074e-05	2.297003e-05	-2.915857e-05	-1.378017e-05	1.544727e-06	3.350594e-07	-1.659509e-06	-2.719188e-07
	0.8482035	-0.5019821	0.04469969	0.06331559	-0.00382112	-0.002589665	0.01215061	0.01930189
	-2.915857e-05	-1.378017e-05	2.598074e-05	2.297003e-05	-1.659509e-06	-2.719188e-07	1.544727e-06	3.350594e-07
	0.01215061	0.01930189	-0.00382112	-0.002589665	0.04471525	0.06330237	0.8481937	-0.5019514
	0.0005457059	0.0008211	-0.000221486	-0.0001653713	2.60328e-05	2.303979e-05	-2.919621e-05	-1.380706e-05
	-0.00382112	-0.002589665	0.01215061	0.01930189	0.8481937	-0.5019514	0.04471525	0.06330237
	-0.000221486	-0.0001653713	0.0005457059	0.0008211	-2.919621e-05	-1.380706e-05	2.60328e-05	2.303979e-05
	2.598074e-05	2.297003e-05	-2.915857e-05	-1.378017e-05	0.0005457059	0.0008211	-0.000221486	-0.0001653713
	0.04466493	0.06321794	0.8482058	-0.5019451	0.01216012	0.0193178	-0.003823247	-0.002591704
	-2.915857e-05	-1.378017e-05	2.598074e-05	2.297003e-05	-0.000221486	-0.0001653713	0.0005457059	0.0008211
	0.8482058	-0.5019451	0.04466493	0.06321794	-0.003823247	-0.002591704	0.01216012	0.0193178
