# Hz S ri R 50
0	0.0002710927	0	0.9997289	0	1.958179e-06	0	-1.958179e-06	0
	1.958179e-06	0	-1.958179e-06	0	1.958179e-06	0	-1.958179e-06	0
	0.9997289	0	0.0002710927	0	-1.958179e-06	0	1.958179e-06	0
	-1.958179e-06	0	1.958179e-06	0	-1.958179e-06	0	1.958179e-06	0
	1.958179e-06	0	-1.958179e-06	0	0.0002710927	0	0.9997289	0
	1.958179e-06	0	-1.958179e-06	0	1.958179e-06	0	-1.958179e-06	0
	-1.958179e-06	0	1.958179e-06	0	0.9997289	0	0.0002710927	0
	-1.958179e-06	0	1.958179e-06	0	-1.958179e-06	0	1.958179e-06	0
	1.958179e-06	0	-1.958179e-06	0	1.958179e-06	0	-1.958179e-06	0
	0.0002710927	0	0.9997289	0	1.958179e-06	0	-1.958179e-06	0
	-1.958179e-06	0	1.958179e-06	0	-1.958179e-06	0	1.958179e-06	0
	0.9997289	0	0.0002710927	0	-1.958179e-06	0	1.958179e-06	0
	1.958179e-06	0	-1.958179e-06	0	1.958179e-06	0	-1.958179e-06	0
	1.958179e-06	0	-1.958179e-06	0	0.0002710927	0	0.9997289	0
	-1.958179e-06	0	1.958179e-06	0	-1.958179e-06	0	1.958179e-06	0
	-1.958179e-06	0	1.958179e-06	0	0.9997289	0	0.0002710927	0
4e+07	0.0006858556	-0.002216052	0.9985934	-0.01968786	0.0001222974	0.001961458	5.433782e-07	0.00020631
	4.115889e-07	7.48245e-06	-3.169356e-07	-5.676445e-06	1.033612e-07	1.003577e-06	-1.025131e-07	-9.592067e-07
	0.9985934	-0.01968786	0.0006858556	-0.002216052	5.433782e-07	0.00020631	0.0001222974	0.001961458
	-3.169356e-07	-5.676445e-06	4.115889e-07	7.48245e-06	-1.025131e-07	-9.592067e-07	1.033612e-07	1.003577e-06
	0.0001222974	0.001961458	5.433782e-07	0.00020631	0.0006674902	-0.002195528	0.9986119	-0.01970697
	7.546607e-06	7.551428e-05	-8.927925e-07	1.702463e-08	4.122209e-07	7.493844e-06	-3.16507e-07	-5.675218e-06
	5.433782e-07	0.00020631	0.0001222974	0.001961458	0.9986119	-0.01970697	0.0006674902	-0.002195528
	-8.927925e-07	1.702463e-08	7.546607e-06	7.551428e-05	-3.16507e-07	-5.675218e-06	4.122209e-07	7.493844e-06
	4.115889e-07	7.48245e-06	-3.169356e-07	-5.676445e-06	7.546607e-06	7.551428e-05	-8.927925e-07	1.702462e-08
	0.0006675593	-0.002192915	0.9986119	-0.0197065	0.0001222936	0.001961199	5.303477e-07	0.0002058684
	-3.169356e-07	-5.676445e-06	4.115889e-07	7.48245e-06	-8.927925e-07	1.702462e-08	7.546607e-06	7.551428e-05
	0.9986119	-0.0197065	0.0006675593	-0.002192915	5.303477e-07	0.0002058684	0.0001222936	0.001961199
	1.033612e-07	1.003577e-06	-1.025131e-07	-9.592067e-07	4.122209e-07	7.493844e-06	-3.16507e-07	-5.675218e-06
	0.0001222936	0.001961199	5.303477e-07	0.0002058684	0.0006860452	-0.00221008	0.9985935	-0.01968662
	-1.025131e-07	-9.592067e-07	1.033612e-07	1.003577e-06	-3.16507e-07	-5.675218e-06	4.122209e-07	7.493844e-06
	5.303477e-07	0.0002058684	0.0001222936	0.001961199	0.9985935	-0.01968662	0.0006860452	-0.00221008
8e+07	0.0003836511	-0.007219033	0.9979699	-0.03646877	0.0002392768	0.00362957	5.707873e-05	0.0006896334
	6.087263e-07	1.197384e-05	-5.814218e-07	-8.354425e-06	1.408031e-07	1.540008e-06	-1.47165e-07	-1.45104e-06
	0.9979699	-0.03646877	0.0003836511	-0.007219033	5.707873e-05	0.0006896334	0.0002392768	0.00362957
	-5.814218e-07	-8.354425e-06	6.087263e-07	1.197384e-05	-1.47165e-07	-1.45104e-06	1.408031e-07	1.540008e-06
	0.0002392768	0.00362957	5.707873e-05	0.0006896334	0.0003643096	-0.007215815	0.9979895	-0.03646917
	1.221018e-05	0.000134905	1.486366e-06	1.554376e-05	6.101302e-07	1.19944e-05	-5.805506e-07	-8.349847e-06
	5.707873e-05	0.0006896334	0.0002392768	0.00362957	0.9979895	-0.03646917	0.0003643096	-0.007215815
	1.486366e-06	1.554376e-05	1.221018e-05	0.000134905	-5.805506e-07	-8.349847e-06	6.101302e-07	1.19944e-05
	6.087263e-07	1.197384e-05	-5.814218e-07	-8.354425e-06	1.221018e-05	0.000134905	1.486366e-06	1.554376e-05
	0.0003645232	-0.007210924	0.9979896	-0.03646792	0.0002392441	0.003629027	5.701975e-05	0.0006887812
	-5.814218e-07	-8.354425e-06	6.087263e-07	1.197384e-05	1.486366e-06	1.554376e-05	1.221018e-05	0.000134905
	0.9979896	-0.03646792	0.0003645232	-0.007210924	5.701975e-05	0.0006887812	0.0002392441	0.003629027
	1.408031e-07	1.540008e-06	-1.47165e-07	-1.45104e-06	6.101302e-07	1.19944e-05	-5.805506e-07	-8.349847e-06
	0.0002392441	0.003629027	5.701975e-05	0.0006887812	0.0003841841	-0.00720782	0.9979702	-0.03646562
	-1.47165e-07	-1.45104e-06	1.408031e-07	1.540008e-06	-5.805506e-07	-8.349847e-06	6.101302e-07	1.19944e-05
	5.701975e-05	0.0006887812	0.0002392441	0.003629027	0.9979702	-0.03646562	0.0003841841	-0.00720782
1.2e+08	-1.543102e-05	-0.0120345	0.9969395	-0.05329559	0.0004237215	0.005300969	0.0001432837	0.001147911
	9.102763e-07	1.55843e-05	-1.020714e-06	-1.013177e-05	1.958342e-07	1.891015e-06	-2.149747e-07	-1.757006e-06
	0.9969395	-0.05329559	-1.543102e-05	-0.0120345	0.0001432837	0.001147911	0.0004237215	0.005300969
	-1.020714e-06	-1.013177e-05	9.102763e-07	1.55843e-05	-2.149747e-07	-1.757006e-06	1.958342e-07	1.891015e-06
	0.0004237215	0.005300969	0.0001432837	0.001147911	-3.480153e-05	-0.01204021	0.9969593	-0.05328565
	1.96251e-05	0.0001930515	4.644718e-06	3.150276e-05	9.128576e-07	1.561425e-05	-1.019176e-06	-1.012422e-05
	0.0001432837	0.001147911	0.0004237215	0.005300969	0.9969593	-0.05328565	-3.480153e-05	-0.01204021
	4.644718e-06	3.150276e-05	1.96251e-05	0.0001930515	-1.019176e-06	-1.012422e-05	9.128576e-07	1.561425e-05
	9.102763e-07	1.55843e-05	-1.020714e-06	-1.013177e-05	1.96251e-05	0.0001930515	4.644718e-06	3.150276e-05
	-3.435632e-05	-0.01203304	0.9969595	-0.05328366	0.0004236394	0.005300149	0.0001431487	0.001146652
	-1.020714e-06	-1.013177e-05	9.102763e-07	1.55843e-05	4.644718e-06	3.150276e-05	1.96251e-05	0.0001930515
	0.9969595	-0.05328366	-3.435632e-05	-0.01203304	0.0001431487	0.001146652	0.0004236394	0.005300149
	1.958342e-07	1.891015e-06	-2.149747e-07	-1.757006e-06	9.128576e-07	1.561425e-05	-1.019176e-06	-1.012422e-05
	0.0004236394	0.005300149	0.0001431487	0.001146652	-1.435258e-05	-0.01201803	0.9969401	-0.0532906
	-2.149747e-07	-1.757006e-06	1.958342e-07	1.891015e-06	-1.019176e-06	-1.012422e-05	9.128576e-07	1.561425e-05
	0.0001431487	0.001146652	0.0004236394	0.005300149	0.9969401	-0.0532906	-1.435258e-05	-0.01201803
1.6e+08	-0.0005037166	-0.01607319	0.995466	-0.07072434	0.0006845802	0.007030287	0.0002538544	0.001519554
	1.344661e-06	1.858834e-05	-1.646627e-06	-1.127003e-05	2.642323e-07	2.102363e-06	-3.013692e-07	-1.922553e-06
	0.995466	-0.07072434	-0.0005037166	-0.01607319	0.0002538544	0.001519554	0.0006845802	0.007030287
	-1.646627e-06	-1.127003e-05	1.344661e-06	1.858834e-05	-3.013692e-07	-1.922553e-06	2.642323e-07	2.102363e-06
	0.0006845802	0.007030287	0.0002538544	0.001519554	-0.0005213991	-0.01607275	0.9954843	-0.07071918
	3.011848e-05	0.0002519455	8.569721e-06	4.56357e-05	1.348891e-06	1.862809e-05	-1.644219e-06	-1.126011e-05
	0.0002538544	0.001519554	0.0006845802	0.007030287	0.9954843	-0.07071918	-0.0005213991	-0.01607275
	8.569721e-06	4.56357e-05	3.011848e-05	0.0002519455	-1.644219e-06	-1.126011e-05	1.348891e-06	1.862809e-05
	1.344661e-06	1.858834e-05	-1.646627e-06	-1.127003e-05	3.011848e-05	0.0002519455	8.569721e-06	4.56357e-05
	-0.0005206261	-0.01606323	0.9954847	-0.07071655	0.0006844316	0.007029205	0.0002536124	0.00151789
	-1.646627e-06	-1.127003e-05	1.344661e-06	1.858834e-05	8.569721e-06	4.56357e-05	3.011848e-05	0.0002519455
	0.9954847	-0.07071655	-0.0005206261	-0.01606323	0.0002536124	0.00151789	0.0006844316	0.007029205
	2.642323e-07	2.102363e-06	-3.013692e-07	-1.922553e-06	1.348891e-06	1.862809e-05	-1.644219e-06	-1.126011e-05
	0.0006844316	0.007029205	0.0002536124	0.00151789	-0.0005018693	-0.01605133	0.995467	-0.07071775
	-3.013692e-07	-1.922553e-06	2.642323e-07	2.102363e-06	-1.644219e-06	-1.126011e-05	1.348891e-06	1.862809e-05
	0.0002536124	0.00151789	0.0006844316	0.007029205	0.995467	-0.07071775	-0.0005018693	-0.01605133
2e+08	-0.001153544	-0.020099	0.993694	-0.08805455	0.001006674	0.008742779	0.000391991	0.001883248
	1.820949e-06	2.135784e-05	-2.383984e-06	-1.212513e-05	3.350172e-07	2.281091e-06	-3.960246e-07	-2.054491e-06
	0.993694	-0.08805455	-0.001153544	-0.020099	0.000391991	0.001883248	0.001006674	0.008742779
	-2.383984e-06	-1.212513e-05	1.820949e-06	2.135784e-05	-3.960246e-07	-2.054491e-06	3.350172e-07	2.281091e-06
	0.001006674	0.008742779	0.000391991	0.001883248	-0.001168964	-0.02009079	0.9937104	-0.08805582
	4.262568e-05	0.0003094757	1.355651e-05	6.0209e-05	1.827192e-06	2.140707e-05	-2.38052e-06	-1.211271e-05
	0.000391991	0.001883248	0.001006674	0.008742779	0.9937104	-0.08805582	-0.001168964	-0.02009079
	1.355651e-05	6.0209e-05	4.262568e-05	0.0003094757	-2.38052e-06	-1.211271e-05	1.827192e-06	2.140707e-05
	1.820949e-06	2.135784e-05	-2.383984e-06	-1.212513e-05	4.262568e-05	0.0003094757	1.355651e-05	6.0209e-05
	-0.001167775	-0.02007893	0.9937109	-0.08805257	0.00100644	0.008741442	0.0003916122	0.001881188
	-2.383984e-06	-1.212513e-05	1.820949e-06	2.135784e-05	1.355651e-05	6.0209e-05	4.262568e-05	0.0003094757
	0.9937109	-0.08805257	-0.001167775	-0.02007893	0.0003916122	0.001881188	0.00100644	0.008741442
	3.350172e-07	2.281091e-06	-3.960246e-07	-2.054491e-06	1.827192e-06	2.140707e-05	-2.38052e-06	-1.211271e-05
	0.00100644	0.008741442	0.0003916122	0.001881188	-0.001150728	-0.02007178	0.9936955	-0.08804641
	-3.960246e-07	-2.054491e-06	3.350172e-07	2.281091e-06	-2.38052e-06	-1.211271e-05	1.827192e-06	2.140707e-05
	0.0003916122	0.001881188	0.00100644	0.008741442	0.9936955	-0.08804641	-0.001150728	-0.02007178
2.4e+08	-0.001950277	-0.02407713	0.9916132	-0.1053182	0.00138958	0.01043831	0.0005566149	0.002236112
	2.392787e-06	2.507271e-05	-3.280721e-06	-1.386782e-05	4.327212e-07	2.628583e-06	-5.235541e-07	-2.353971e-06
	0.9916132	-0.1053182	-0.001950277	-0.02407713	0.0005566149	0.002236112	0.00138958	0.01043831
	-3.280721e-06	-1.386782e-05	2.392787e-06	2.507271e-05	-5.235541e-07	-2.353971e-06	4.327212e-07	2.628583e-06
	0.00138958	0.01043831	0.0005566149	0.002236112	-0.00196429	-0.02406641	0.9916285	-0.1053207
	5.726452e-05	0.0003681488	1.943174e-05	7.260807e-05	2.401435e-06	2.513149e-05	-3.276051e-06	-1.385314e-05
	0.0005566149	0.002236112	0.00138958	0.01043831	0.9916285	-0.1053207	-0.00196429	-0.02406641
	1.943174e-05	7.260807e-05	5.726452e-05	0.0003681488	-3.276051e-06	-1.385314e-05	2.401435e-06	2.513149e-05
	2.392787e-06	2.507271e-05	-3.280721e-06	-1.386782e-05	5.726452e-05	0.0003681488	1.943174e-05	7.260807e-05
	-0.0019626	-0.02405224	0.9916294	-0.1053168	0.001389243	0.01043673	0.00055607	0.002233667
	-3.280721e-06	-1.386782e-05	2.392787e-06	2.507271e-05	1.943174e-05	7.260807e-05	5.726452e-05	0.0003681488
	0.9916294	-0.1053168	-0.0019626	-0.02405224	0.00055607	0.002233667	0.001389243	0.01043673
	4.327212e-07	2.628583e-06	-5.235541e-07	-2.353971e-06	2.401435e-06	2.513149e-05	-3.276051e-06	-1.385314e-05
	0.001389243	0.01043673	0.00055607	0.002233667	-0.001946295	-0.02404462	0.9916153	-0.1053086
	-5.235541e-07	-2.353971e-06	4.327212e-07	2.628583e-06	-3.276051e-06	-1.385314e-05	2.401435e-06	2.513149e-05
	0.00055607	0.002233667	0.001389243	0.01043673	0.9916153	-0.1053086	-0.001946295	-0.02404462
2.8e+08	-0.002895508	-0.02802385	0.9892295	-0.1224949	0.001832404	0.01211411	0.0007470373	0.002577848
	3.030795e-06	2.872309e-05	-4.30072e-06	-1.547667e-05	5.405799e-07	2.959905e-06	-6.673056e-07	-2.63579e-06
	0.9892295	-0.1224949	-0.002895508	-0.02802385	0.0007470373	0.002577848	0.001832404	0.01211411
	-4.30072e-06	-1.547667e-05	3.030795e-06	2.872309e-05	-6.673056e-07	-2.63579e-06	5.405799e-07	2.959905e-06
	0.001832404	0.01211411	0.0007470373	0.002577848	-0.00290791	-0.02801053	0.9892436	-0.1224986
	7.394023e-05	0.0004259156	2.623253e-05	8.477885e-05	3.042216e-06	2.879127e-05	-4.294681e-06	-1.545982e-05
	0.0007470373	0.002577848	0.001832404	0.01211411	0.9892436	-0.1224986	-0.00290791	-0.02801053
	2.623253e-05	8.477885e-05	7.394023e-05	0.0004259156	-4.294681e-06	-1.545982e-05	3.042216e-06	2.879127e-05
	3.030795e-06	2.872309e-05	-4.30072e-06	-1.547667e-05	7.394023e-05	0.0004259156	2.623253e-05	8.477885e-05
	-0.002905633	-0.02799407	0.9892447	-0.1224942	0.001831946	0.01211229	0.000746298	0.002575031
	-4.30072e-06	-1.547667e-05	3.030795e-06	2.872309e-05	2.623253e-05	8.477885e-05	7.394023e-05	0.0004259156
	0.9892447	-0.1224942	-0.002905633	-0.02799407	0.000746298	0.002575031	0.001831946	0.01211229
	5.405799e-07	2.959905e-06	-6.673056e-07	-2.63579e-06	3.042216e-06	2.879127e-05	-4.294681e-06	-1.545982e-05
	0.001831946	0.01211229	0.000746298	0.002575031	-0.002890166	-0.0279861	0.9892323	-0.1224837
	-6.673056e-07	-2.63579e-06	5.405799e-07	2.959905e-06	-4.294681e-06	-1.545982e-05	3.042216e-06	2.879127e-05
	0.000746298	0.002575031	0.001831946	0.01211229	0.9892323	-0.1224837	-0.002890166	-0.0279861
3.2e+08	-0.003982829	-0.03192566	0.9865409	-0.139591	0.002334385	0.01376873	0.0009622821	0.002906607
	3.743429e-06	3.242779e-05	-5.444998e-06	-1.706125e-05	6.613809e-07	3.295738e-06	-8.301901e-07	-2.920338e-06
	0.9865409	-0.139591	-0.003982829	-0.03192566	0.0009622821	0.002906607	0.002334385	0.01376873
	-5.444998e-06	-1.706125e-05	3.743429e-06	3.242779e-05	-8.301901e-07	-2.920338e-06	6.613809e-07	3.295738e-06
	0.002334385	0.01376873	0.0009622821	0.002906607	-0.003993668	-0.0319101	0.9865539	-0.1395957
	9.263888e-05	0.0004829583	3.390963e-05	9.642585e-05	3.757983e-06	3.250522e-05	-5.437439e-06	-1.704233e-05
	0.0009622821	0.002906607	0.002334385	0.01376873	0.9865539	-0.1395957	-0.003993668	-0.0319101
	3.390963e-05	9.642585e-05	9.263888e-05	0.0004829583	-5.437439e-06	-1.704233e-05	3.757983e-06	3.250522e-05
	3.743429e-06	3.242779e-05	-5.444998e-06	-1.706125e-05	9.263888e-05	0.0004829583	3.390963e-05	9.642585e-05
	-0.003990721	-0.03189138	0.9865553	-0.1395907	0.00233379	0.01376668	0.000961321	0.002903431
	-5.444998e-06	-1.706125e-05	3.743429e-06	3.242779e-05	3.390963e-05	9.642585e-05	9.263888e-05	0.0004829583
	0.9865553	-0.1395907	-0.003990721	-0.03189138	0.000961321	0.002903431	0.00233379	0.01376668
	6.613809e-07	3.295738e-06	-8.301901e-07	-2.920338e-06	3.757983e-06	3.250522e-05	-5.437439e-06	-1.704233e-05
	0.00233379	0.01376668	0.000961321	0.002903431	-0.003975935	-0.03188273	0.9865445	-0.1395784
	-8.301901e-07	-2.920338e-06	6.613809e-07	3.295738e-06	-5.437439e-06	-1.704233e-05	3.757983e-06	3.250522e-05
	0.000961321	0.002903431	0.00233379	0.01376668	0.9865445	-0.1395784	-0.003975935	-0.03188273
3.6e+08	-0.00520833	-0.03577595	0.983548	-0.1566054	0.002894591	0.01540034	0.001201411	0.003220959
	4.538036e-06	3.621007e-05	-6.712742e-06	-1.863633e-05	7.962051e-07	3.63916e-06	-1.013418e-06	-3.210365e-06
	0.983548	-0.1566054	-0.00520833	-0.03577595	0.001201411	0.003220959	0.002894591	0.01540034
	-6.712742e-06	-1.863633e-05	4.538036e-06	3.621007e-05	-1.013418e-06	-3.210365e-06	7.962051e-07	3.63916e-06
	0.002894591	0.01540034	0.001201411	0.003220959	-0.005217702	-0.03575859	0.98356	-0.1566106
	0.0001133377	0.0005392655	4.241805e-05	0.0001074478	4.556077e-06	3.62966e-05	-6.703517e-06	-1.861544e-05
	0.001201411	0.003220959	0.002894591	0.01540034	0.98356	-0.1566106	-0.005217702	-0.03575859
	4.241805e-05	0.0001074478	0.0001133377	0.0005392655	-6.703517e-06	-1.861544e-05	4.556077e-06	3.62966e-05
	4.538036e-06	3.621007e-05	-6.712742e-06	-1.863633e-05	0.0001133377	0.0005392655	4.241805e-05	0.0001074478
	-0.005214003	-0.03573765	0.9835618	-0.1566051	0.002893843	0.01539807	0.001200202	0.00321744
	-6.712742e-06	-1.863633e-05	4.538036e-06	3.621007e-05	4.241805e-05	0.0001074478	0.0001133377	0.0005392655
	0.9835618	-0.1566051	-0.005214003	-0.03573765	0.001200202	0.00321744	0.002893843	0.01539807
	7.962051e-07	3.63916e-06	-1.013418e-06	-3.210365e-06	4.556077e-06	3.62966e-05	-6.703517e-06	-1.861544e-05
	0.002893843	0.01539807	0.001200202	0.00321744	-0.005199698	-0.03572791	0.9835525	-0.1565915
	-1.013418e-06	-3.210365e-06	7.962051e-07	3.63916e-06	-6.703517e-06	-1.861544e-05	4.556077e-06	3.62966e-05
	0.001200202	0.00321744	0.002893843	0.01539807	0.9835525	-0.1565915	-0.005199698	-0.03572791
4e+08	-0.006571138	-0.03957721	0.9802549	-0.1735276	0.003511812	0.01700659	0.001463633	0.003520012
	5.411198e-06	3.997423e-05	-8.091605e-06	-2.009784e-05	9.417191e-07	3.972081e-06	-1.213791e-06	-3.487408e-06
	0.9802549	-0.1735276	-0.006571138	-0.03957721	0.001463633	0.003520012	0.003511812	0.01700659
	-8.091605e-06	-2.009784e-05	5.411198e-06	3.997423e-05	-1.213791e-06	-3.487408e-06	9.417191e-07	3.972081e-06
	0.003511812	0.01700659	0.001463633	0.003520012	-0.006578942	-0.03955812	0.9802659	-0.1735332
	0.0001359822	0.0005945751	5.174009e-05	0.0001179972	5.433066e-06	4.006968e-05	-8.080575e-06	-2.00751e-05
	0.001463633	0.003520012	0.003511812	0.01700659	0.9802659	-0.1735332	-0.006578942	-0.03955812
	5.174009e-05	0.0001179972	0.0001359822	0.0005945751	-8.080575e-06	-2.00751e-05	5.433066e-06	4.006968e-05
	5.411198e-06	3.997423e-05	-8.091605e-06	-2.009784e-05	0.0001359822	0.0005945751	5.174009e-05	0.0001179972
	-0.00657441	-0.03953499	0.9802681	-0.1735271	0.003510896	0.01700412	0.00146215	0.003516168
	-8.091605e-06	-2.009784e-05	5.411198e-06	3.997423e-05	5.174009e-05	0.0001179972	0.0001359822	0.0005945751
	0.9802681	-0.1735271	-0.00657441	-0.03953499	0.00146215	0.003516168	0.003510896	0.01700412
	9.417191e-07	3.972081e-06	-1.213791e-06	-3.487408e-06	5.433066e-06	4.006968e-05	-8.080575e-06	-2.00751e-05
	0.003510896	0.01700412	0.00146215	0.003516168	-0.006560583	-0.03952415	0.9802603	-0.1735123
	-1.213791e-06	-3.487408e-06	9.417191e-07	3.972081e-06	-8.080575e-06	-2.00751e-05	5.433066e-06	4.006968e-05
	0.00146215	0.003516168	0.003510896	0.01700412	0.9802603	-0.1735123	-0.006560583	-0.03952415
4.4e+08	-0.008064311	-0.04331443	0.9766596	-0.1903634	0.004185153	0.0185861	0.001747683	0.003801955
	6.375595e-06	4.380866e-05	-9.584825e-06	-2.152764e-05	1.101218e-06	4.309828e-06	-1.434729e-06	-3.766388e-06
	0.9766596	-0.1903634	-0.008064311	-0.04331443	0.001747683	0.003801955	0.004185153	0.0185861
	-9.584825e-06	-2.152764e-05	6.375595e-06	4.380866e-05	-1.434729e-06	-3.766388e-06	1.101218e-06	4.309828e-06
	0.004185153	0.0185861	0.001747683	0.003801955	-0.008070694	-0.04329393	0.9766698	-0.1903692
	0.0001605587	0.0006490173	6.181177e-05	0.0001278329	6.401626e-06	4.391284e-05	-9.571861e-06	-2.150318e-05
	0.001747683	0.003801955	0.004185153	0.0185861	0.9766698	-0.1903692	-0.008070694	-0.04329393
	6.181177e-05	0.0001278329	0.0001605587	0.0006490173	-9.571861e-06	-2.150318e-05	6.401626e-06	4.391284e-05
	6.375595e-06	4.380866e-05	-9.584825e-06	-2.152764e-05	0.0001605587	0.0006490173	6.181177e-05	0.0001278329
	-0.00806525	-0.04326865	0.9766724	-0.1903626	0.004184055	0.01858344	0.001745903	0.003797805
	-9.584825e-06	-2.152764e-05	6.375595e-06	4.380866e-05	6.181177e-05	0.0001278329	0.0001605587	0.0006490173
	0.9766724	-0.1903626	-0.00806525	-0.04326865	0.001745903	0.003797805	0.004184055	0.01858344
	1.101218e-06	4.309828e-06	-1.434729e-06	-3.766388e-06	6.401626e-06	4.391284e-05	-9.571861e-06	-2.150318e-05
	0.004184055	0.01858344	0.001745903	0.003797805	-0.008051652	-0.04325644	0.9766661	-0.1903468
	-1.434729e-06	-3.766388e-06	1.101218e-06	4.309828e-06	-9.571861e-06	-2.150318e-05	6.401626e-06	4.391284e-05
	0.001745903	0.003797805	0.004184055	0.01858344	0.9766661	-0.1903468	-0.008051652	-0.04325644
4.8e+08	-0.009688246	-0.04699249	0.9727679	-0.2070995	0.004913143	0.02013647	0.00205276	0.004066105
	7.427712e-06	4.763651e-05	-1.117875e-05	-2.28422e-05	1.271299e-06	4.638111e-06	-1.672946e-06	-4.032557e-06
	0.9727679	-0.2070995	-0.009688246	-0.04699249	0.00205276	0.004066105	0.004913143	0.02013647
	-1.117875e-05	-2.28422e-05	7.427712e-06	4.763651e-05	-1.672946e-06	-4.032557e-06	1.271299e-06	4.638111e-06
	0.004913143	0.02013647	0.00205276	0.004066105	-0.00969314	-0.04697064	0.9727772	-0.2071054
	0.0001870018	0.0007023596	7.261723e-05	0.0001370834	7.458226e-06	4.774922e-05	-1.116373e-05	-2.281613e-05
	0.00205276	0.004066105	0.004913143	0.02013647	0.9727772	-0.2071054	-0.00969314	-0.04697064
	7.261723e-05	0.0001370834	0.0001870018	0.0007023596	-1.116373e-05	-2.281613e-05	7.458226e-06	4.774922e-05
	7.427712e-06	4.763651e-05	-1.117875e-05	-2.28422e-05	0.0001870018	0.0007023596	7.261723e-05	0.0001370834
	-0.009686707	-0.04694325	0.9727803	-0.2070984	0.00491185	0.02013363	0.002050659	0.004061668
