# Hz S ri R 50
0	0.003316485	0	0.9966835	0	1.405637e-05	0	-1.405637e-05	0
	1.405637e-05	0	-1.405637e-05	0	1.405637e-05	0	-1.405637e-05	0
	0.9966835	0	0.003316485	0	-1.405637e-05	0	1.405637e-05	0
	-1.405637e-05	0	1.405637e-05	0	-1.405637e-05	0	1.405637e-05	0
	1.405637e-05	0	-1.405637e-05	0	0.003316485	0	0.9966835	0
	1.405637e-05	0	-1.405637e-05	0	1.405637e-05	0	-1.405637e-05	0
	-1.405637e-05	0	1.405637e-05	0	0.9966835	0	0.003316485	0
	-1.405637e-05	0	1.405637e-05	0	-1.405637e-05	0	1.405637e-05	0
	1.405637e-05	0	-1.405637e-05	0	1.405637e-05	0	-1.405637e-05	0
	0.003316485	0	0.9966835	0	1.405637e-05	0	-1.405637e-05	0
	-1.405637e-05	0	1.405637e-05	0	-1.405637e-05	0	1.405637e-05	0
	0.9966835	0	0.003316485	0	-1.405637e-05	0	1.405637e-05	0
	1.405637e-05	0	-1.405637e-05	0	1.405637e-05	0	-1.405637e-05	0
	1.405637e-05	0	-1.405637e-05	0	0.003316485	0	0.9966835	0
	-1.405637e-05	0	1.405637e-05	0	-1.405637e-05	0	1.405637e-05	0
	-1.405637e-05	0	1.405637e-05	0	0.9966835	0	0.003316485	0
4e+07	0.008044951	0.01022433	0.9873396	-0.07729389	0.001197084	0.007291538	-0.0005815845	-0.001263216
	2.488111e-06	9.743109e-07	-2.490473e-06	-9.530385e-07	2.038404e-06	4.827825e-07	-2.039721e-06	-4.824951e-07
	0.9873396	-0.07729389	0.008044951	0.01022433	-0.0005815845	-0.001263216	0.001197084	0.007291538
	-2.490473e-06	-9.530385e-07	2.488111e-06	9.743109e-07	-2.039721e-06	-4.824951e-07	2.038404e-06	4.827825e-07
	0.001197084	0.007291538	-0.0005815845	-0.001263216	0.008834045	0.01008562	0.9865505	-0.07714892
	1.63851e-06	2.753346e-06	-1.547619e-06	-1.832473e-06	2.488108e-06	9.74382e-07	-2.490469e-06	-9.531213e-07
	-0.0005815845	-0.001263216	0.001197084	0.007291538	0.9865505	-0.07714892	0.008834045	0.01008562
	-1.547619e-06	-1.832473e-06	1.63851e-06	2.753346e-06	-2.490469e-06	-9.531213e-07	2.488108e-06	9.74382e-07
	2.488111e-06	9.743109e-07	-2.490473e-06	-9.530385e-07	1.63851e-06	2.753346e-06	-1.547619e-06	-1.832473e-06
	0.008834022	0.01008539	0.9865506	-0.07714852	0.001196668	0.0072872	-0.0005815857	-0.00126293
	-2.490473e-06	-9.530385e-07	2.488111e-06	9.743109e-07	-1.547619e-06	-1.832473e-06	1.63851e-06	2.753346e-06
	0.9865506	-0.07714852	0.008834022	0.01008539	-0.0005815857	-0.00126293	0.001196668	0.0072872
	2.038404e-06	4.827825e-07	-2.039721e-06	-4.824951e-07	2.488108e-06	9.74382e-07	-2.490469e-06	-9.531213e-07
	0.001196668	0.0072872	-0.0005815857	-0.00126293	0.008044927	0.01022414	0.9873396	-0.07729343
	-2.039721e-06	-4.824951e-07	2.038404e-06	4.827825e-07	-2.490469e-06	-9.531213e-07	2.488108e-06	9.74382e-07
	-0.0005815857	-0.00126293	0.001196668	0.0072872	0.9873396	-0.07729343	0.008044927	0.01022414
8e+07	0.007829196	0.006390976	0.9798059	-0.1396272	0.002534224	0.01289809	-0.0006315944	-0.001015376
	2.570471e-06	1.428571e-06	-2.581447e-06	-1.386846e-06	2.054646e-06	6.811204e-07	-2.059899e-06	-6.814895e-07
	0.9798059	-0.1396272	0.007829196	0.006390976	-0.0006315944	-0.001015376	0.002534224	0.01289809
	-2.581447e-06	-1.386846e-06	2.570471e-06	1.428571e-06	-2.059899e-06	-6.814895e-07	2.054646e-06	6.811204e-07
	0.002534224	0.01289809	-0.0006315944	-0.001015376	0.008660018	0.006379337	0.9789745	-0.1396034
	2.029819e-06	4.457044e-06	-1.746422e-06	-2.646406e-06	2.570473e-06	1.428678e-06	-2.581445e-06	-1.386977e-06
	-0.0006315944	-0.001015376	0.002534224	0.01289809	0.9789745	-0.1396034	0.008660018	0.006379337
	-1.746422e-06	-2.646406e-06	2.029819e-06	4.457044e-06	-2.581445e-06	-1.386977e-06	2.570473e-06	1.428678e-06
	2.570471e-06	1.428571e-06	-2.581447e-06	-1.386846e-06	2.029819e-06	4.457044e-06	-1.746422e-06	-2.646406e-06
	0.008659965	0.006378978	0.9789747	-0.1396027	0.002533003	0.01289027	-0.0006316607	-0.001015542
	-2.581447e-06	-1.386846e-06	2.570471e-06	1.428571e-06	-1.746422e-06	-2.646406e-06	2.029819e-06	4.457044e-06
	0.9789747	-0.1396027	0.008659965	0.006378978	-0.0006316607	-0.001015542	0.002533003	0.01289027
	2.054646e-06	6.811204e-07	-2.059899e-06	-6.814895e-07	2.570473e-06	1.428678e-06	-2.581445e-06	-1.386977e-06
	0.002533003	0.01289027	-0.0006316607	-0.001015542	0.007829149	0.006390695	0.9798061	-0.1396264
	-2.059899e-06	-6.814895e-07	2.054646e-06	6.811204e-07	-2.581445e-06	-1.386977e-06	2.570473e-06	1.428678e-06
	-0.0006316607	-0.001015542	0.002533003	0.01289027	0.9798061	-0.1396264	0.007829149	0.006390695
1.2e+08	0.007933898	0.003137829	0.9674731	-0.2012495	0.004612194	0.01830813	-0.000662804	-0.0008573235
	2.392013e-06	8.078747e-07	-2.415399e-06	-7.407045e-07	1.90159e-06	2.555999e-07	-1.912577e-06	-2.551278e-07
	0.9674731	-0.2012495	0.007933898	0.003137829	-0.000662804	-0.0008573235	0.004612194	0.01830813
	-2.415399e-06	-7.407045e-07	2.392013e-06	8.078747e-07	-1.912577e-06	-2.551278e-07	1.90159e-06	2.555999e-07
	0.004612194	0.01830813	-0.000662804	-0.0008573235	0.008758701	0.003132632	0.9666468	-0.2012262
	2.15971e-06	4.610831e-06	-1.568677e-06	-1.953091e-06	2.391954e-06	8.076633e-07	-2.415331e-06	-7.405312e-07
	-0.000662804	-0.0008573235	0.004612194	0.01830813	0.9666468	-0.2012262	0.008758701	0.003132632
	-1.568677e-06	-1.953091e-06	2.15971e-06	4.610831e-06	-2.415331e-06	-7.405312e-07	2.391954e-06	8.076633e-07
	2.392013e-06	8.078747e-07	-2.415399e-06	-7.407045e-07	2.15971e-06	4.610831e-06	-1.568677e-06	-1.953091e-06
	0.008758607	0.003132137	0.9666472	-0.2012253	0.004609719	0.01829694	-0.0006630012	-0.0008578612
	-2.415399e-06	-7.407045e-07	2.392013e-06	8.078747e-07	-1.568677e-06	-1.953091e-06	2.15971e-06	4.610831e-06
	0.9666472	-0.2012253	0.008758607	0.003132137	-0.0006630012	-0.0008578612	0.004609719	0.01829694
	1.90159e-06	2.555999e-07	-1.912577e-06	-2.551278e-07	2.391954e-06	8.076633e-07	-2.415331e-06	-7.405312e-07
	0.004609719	0.01829694	-0.0006630012	-0.0008578612	0.007933821	0.003137452	0.9674736	-0.2012484
	-1.912577e-06	-2.551278e-07	1.90159e-06	2.555999e-07	-2.415331e-06	-7.405312e-07	2.391954e-06	8.076633e-07
	-0.0006630012	-0.0008578612	0.004609719	0.01829694	0.9674736	-0.2012484	0.007933821	0.003137452
1.6e+08	0.008990683	0.003116444	0.9497154	-0.264401	0.007544022	0.02366387	-0.000835784	-0.001042109
	2.054223e-06	6.719083e-08	-2.090822e-06	3.388863e-08	1.653104e-06	-2.025596e-07	-1.67053e-06	2.066546e-07
	0.9497154	-0.264401	0.008990683	0.003116444	-0.000835784	-0.001042109	0.007544022	0.02366387
	-2.090822e-06	3.388863e-08	2.054223e-06	6.719083e-08	-1.67053e-06	2.066546e-07	1.653104e-06	-2.025596e-07
	0.007544022	0.02366387	-0.000835784	-0.001042109	0.009717773	0.002939915	0.9489865	-0.2641987
	2.08001e-06	4.010124e-06	-1.069258e-06	-5.546428e-07	2.054123e-06	6.686783e-08	-2.090706e-06	3.415845e-08
	-0.000835784	-0.001042109	0.007544022	0.02366387	0.9489865	-0.2641987	0.009717773	0.002939915
	-1.069258e-06	-5.546428e-07	2.08001e-06	4.010124e-06	-2.090706e-06	3.415845e-08	2.054123e-06	6.686783e-08
	2.054223e-06	6.719083e-08	-2.090822e-06	3.388863e-08	2.08001e-06	4.010124e-06	-1.069258e-06	-5.546428e-07
	0.009717606	0.00293927	0.9489872	-0.2641976	0.007539781	0.02364935	-0.0008360826	-0.001042791
	-2.090822e-06	3.388863e-08	2.054223e-06	6.719083e-08	-1.069258e-06	-5.546428e-07	2.08001e-06	4.010124e-06
	0.9489872	-0.2641976	0.009717606	0.00293927	-0.0008360826	-0.001042791	0.007539781	0.02364935
	1.653104e-06	-2.025596e-07	-1.67053e-06	2.066546e-07	2.054123e-06	6.686783e-08	-2.090706e-06	3.415845e-08
	0.007539781	0.02364935	-0.0008360826	-0.001042791	0.008990548	0.003115952	0.9497161	-0.2643996
	-1.67053e-06	2.066546e-07	1.653104e-06	-2.025596e-07	-2.090706e-06	3.415845e-08	2.054123e-06	6.686783e-08
	-0.0008360826	-0.001042791	0.007539781	0.02364935	0.9497161	-0.2643996	0.008990548	0.003115952
2e+08	0.009835827	0.002861629	0.9281284	-0.3257408	0.01111196	0.02854745	-0.001014805	-0.001197905
	1.813526e-06	-2.595198e-07	-1.864043e-06	3.997536e-07	1.472836e-06	-4.127972e-07	-1.497811e-06	4.214561e-07
	0.9281284	-0.3257408	0.009835827	0.002861629	-0.001014805	-0.001197905	0.01111196	0.02854745
	-1.864043e-06	3.997536e-07	1.813526e-06	-2.595198e-07	-1.497811e-06	4.214561e-07	1.472836e-06	-4.127972e-07
	0.01111196	0.02854745	-0.001014805	-0.001197905	0.01042477	0.002497433	0.9275391	-0.3253411
	2.140495e-06	3.770719e-06	-6.095995e-07	4.228174e-07	1.813423e-06	-2.598064e-07	-1.863919e-06	3.999678e-07
	-0.001014805	-0.001197905	0.01111196	0.02854745	0.9275391	-0.3253411	0.01042477	0.002497433
	-6.095995e-07	4.228174e-07	2.140495e-06	3.770719e-06	-1.863919e-06	3.999678e-07	1.813423e-06	-2.598064e-07
	1.813526e-06	-2.595198e-07	-1.864043e-06	3.997536e-07	2.140495e-06	3.770719e-06	-6.095995e-07	4.228174e-07
	0.01042452	0.002496649	0.9275402	-0.3253398	0.01110554	0.02852988	-0.001015224	-0.001198716
	-1.864043e-06	3.997536e-07	1.813526e-06	-2.595198e-07	-6.095995e-07	4.228174e-07	2.140495e-06	3.770719e-06
	0.9275402	-0.3253398	0.01042452	0.002496649	-0.001015224	-0.001198716	0.01110554	0.02852988
	1.472836e-06	-4.127972e-07	-1.497811e-06	4.214561e-07	1.813423e-06	-2.598064e-07	-1.863919e-06	3.999678e-07
	0.01110554	0.02852988	-0.001015224	-0.001198716	0.00983562	0.002861029	0.9281295	-0.3257393
	-1.497811e-06	4.214561e-07	1.472836e-06	-4.127972e-07	-1.863919e-06	3.999678e-07	1.813423e-06	-2.598064e-07
	-0.001015224	-0.001198716	0.01110554	0.02852988	0.9281295	-0.3257393	0.00983562	0.002861029
2.4e+08	0.01061056	0.002517793	0.9027065	-0.3851983	0.0152626	0.03289645	-0.001213962	-0.001334418
	1.73798e-06	-7.943186e-08	-1.802625e-06	2.58057e-07	1.370508e-06	-3.550459e-07	-1.404367e-06	3.658739e-07
	0.9027065	-0.3851983	0.01061056	0.002517793	-0.001213962	-0.001334418	0.0152626	0.03289645
	-1.802625e-06	2.58057e-07	1.73798e-06	-7.943186e-08	-1.404367e-06	3.658739e-07	1.370508e-06	-3.550459e-07
	0.0152626	0.03289645	-0.001213962	-0.001334418	0.01111639	0.002099092	0.9022022	-0.3847349
	2.709476e-06	4.983742e-06	-5.775951e-07	-1.553597e-07	1.737822e-06	-7.978605e-08	-1.802439e-06	2.583173e-07
	-0.001213962	-0.001334418	0.0152626	0.03289645	0.9022022	-0.3847349	0.01111639	0.002099092
	-5.775951e-07	-1.553597e-07	2.709476e-06	4.983742e-06	-1.802439e-06	2.583173e-07	1.737822e-06	-7.978605e-08
	1.73798e-06	-7.943186e-08	-1.802625e-06	2.58057e-07	2.709476e-06	4.983742e-06	-5.775951e-07	-1.553597e-07
	0.01111602	0.002098182	0.9022036	-0.3847336	0.01525365	0.03287615	-0.001214519	-0.001335344
	-1.802625e-06	2.58057e-07	1.73798e-06	-7.943186e-08	-5.775951e-07	-1.553597e-07	2.709476e-06	4.983742e-06
	0.9022036	-0.3847336	0.01111602	0.002098182	-0.001214519	-0.001335344	0.01525365	0.03287615
	1.370508e-06	-3.550459e-07	-1.404367e-06	3.658739e-07	1.737822e-06	-7.978605e-08	-1.802439e-06	2.583173e-07
	0.01525365	0.03287615	-0.001214519	-0.001335344	0.01061027	0.002517098	0.9027081	-0.3851967
	-1.404367e-06	3.658739e-07	1.370508e-06	-3.550459e-07	-1.802439e-06	2.583173e-07	1.737822e-06	-7.978605e-08
	-0.001214519	-0.001335344	0.01525365	0.03287615	0.9027081	-0.3851967	0.01061027	0.002517098
2.8e+08	0.01123287	0.002040696	0.8736784	-0.4425204	0.01990774	0.03664368	-0.001420538	-0.001447475
	1.77566e-06	1.64438e-07	-1.854505e-06	5.340161e-08	1.331923e-06	-2.61219e-07	-1.37671e-06	2.729268e-07
	0.8736784	-0.4425204	0.01123287	0.002040696	-0.001420538	-0.001447475	0.01990774	0.03664368
	-1.854505e-06	5.340161e-08	1.77566e-06	1.64438e-07	-1.37671e-06	2.729268e-07	1.331923e-06	-2.61219e-07
	0.01990774	0.03664368	-0.001420538	-0.001447475	0.01164694	0.001578903	0.8732693	-0.4420039
	3.61569e-06	6.232345e-06	-8.172486e-07	-8.712278e-07	1.775451e-06	1.640535e-07	-1.854263e-06	5.366645e-08
	-0.001420538	-0.001447475	0.01990774	0.03664368	0.8732693	-0.4420039	0.01164694	0.001578903
	-8.172486e-07	-8.712278e-07	3.61569e-06	6.232345e-06	-1.854263e-06	5.366645e-08	1.775451e-06	1.640535e-07
	1.77566e-06	1.64438e-07	-1.854505e-06	5.340161e-08	3.61569e-06	6.232345e-06	-8.172486e-07	-8.712278e-07
	0.01164645	0.001577882	0.8732711	-0.4420026	0.01989593	0.03662104	-0.001421249	-0.001448499
	-1.854505e-06	5.340161e-08	1.77566e-06	1.64438e-07	-8.172486e-07	-8.712278e-07	3.61569e-06	6.232345e-06
	0.8732711	-0.4420026	0.01164645	0.001577882	-0.001421249	-0.001448499	0.01989593	0.03662104
	1.331923e-06	-2.61219e-07	-1.37671e-06	2.729268e-07	1.775451e-06	1.640535e-07	-1.854263e-06	5.366645e-08
	0.01989593	0.03662104	-0.001421249	-0.001448499	0.01123248	0.002039918	0.8736805	-0.4425188
	-1.37671e-06	2.729268e-07	1.331923e-06	-2.61219e-07	-1.854263e-06	5.366645e-08	1.775451e-06	1.640535e-07
	-0.001421249	-0.001448499	0.01989593	0.03662104	0.8736805	-0.4425188	0.01123248	0.002039918
3.2e+08	0.01175506	0.001494614	0.8411503	-0.4975593	0.0249682	0.03973772	-0.00163779	-0.00153908
	1.834793e-06	3.666941e-07	-1.925605e-06	-1.077905e-07	1.301548e-06	-1.860421e-07	-1.35858e-06	1.981814e-07
	0.8411503	-0.4975593	0.01175506	0.001494614	-0.00163779	-0.00153908	0.0249682	0.03973772
	-1.925605e-06	-1.077905e-07	1.834793e-06	3.666941e-07	-1.35858e-06	1.981814e-07	1.301548e-06	-1.860421e-07
	0.0249682	0.03973772	-0.00163779	-0.00153908	0.01208272	0.001007188	0.8408326	-0.497007
	4.643104e-06	7.260265e-06	-1.124045e-06	-1.472049e-06	1.834536e-06	3.663006e-07	-1.925314e-06	-1.075461e-07
	-0.00163779	-0.00153908	0.0249682	0.03973772	0.8408326	-0.497007	0.01208272	0.001007188
	-1.124045e-06	-1.472049e-06	4.643104e-06	7.260265e-06	-1.925314e-06	-1.075461e-07	1.834536e-06	3.663006e-07
	1.834793e-06	3.666941e-07	-1.925605e-06	-1.077905e-07	4.643104e-06	7.260265e-06	-1.124045e-06	-1.472049e-06
	0.0120821	0.001006072	0.8408349	-0.4970058	0.02495328	0.03971313	-0.001638671	-0.001540185
	-1.925605e-06	-1.077905e-07	1.834793e-06	3.666941e-07	-1.124045e-06	-1.472049e-06	4.643104e-06	7.260265e-06
	0.8408349	-0.4970058	0.0120821	0.001006072	-0.001638671	-0.001540185	0.02495328	0.03971313
	1.301548e-06	-1.860421e-07	-1.35858e-06	1.981814e-07	1.834536e-06	3.663006e-07	-1.925314e-06	-1.075461e-07
	0.02495328	0.03971313	-0.001638671	-0.001540185	0.01175456	0.001493765	0.8411528	-0.4975578
	-1.35858e-06	1.981814e-07	1.301548e-06	-1.860421e-07	-1.925314e-06	-1.075461e-07	1.834536e-06	3.663006e-07
	-0.001638671	-0.001540185	0.02495328	0.03971313	0.8411528	-0.4975578	0.01175456	0.001493765
3.6e+08	0.01219186	0.0009024145	0.8052772	-0.5501351	0.03035586	0.04213635	-0.001865538	-0.001609402
	1.86388e-06	4.678636e-07	-1.96131e-06	-1.635766e-07	1.250754e-06	-1.592815e-07	-1.320354e-06	1.731154e-07
	0.8052772	-0.5501351	0.01219186	0.0009024145	-0.001865538	-0.001609402	0.03035586	0.04213635
	-1.96131e-06	-1.635766e-07	1.86388e-06	4.678636e-07	-1.320354e-06	1.731154e-07	1.250754e-06	-1.592815e-07
	0.03035586	0.04213635	-0.001865538	-0.001609402	0.0124422	0.0004062165	0.8050435	-0.5495639
	5.694434e-06	7.948315e-06	-1.412618e-06	-1.837238e-06	1.863564e-06	4.674508e-07	-1.960961e-06	-1.633442e-07
	-0.001865538	-0.001609402	0.03035586	0.04213635	0.8050435	-0.5495639	0.0124422	0.0004062165
	-1.412618e-06	-1.837238e-06	5.694434e-06	7.948315e-06	-1.960961e-06	-1.633442e-07	1.863564e-06	4.674508e-07
	1.86388e-06	4.678636e-07	-1.96131e-06	-1.635766e-07	5.694434e-06	7.948315e-06	-1.412618e-06	-1.837238e-06
	0.01244143	0.0004050243	0.8050462	-0.549563	0.03033761	0.04211025	-0.001866604	-0.001610569
	-1.96131e-06	-1.635766e-07	1.86388e-06	4.678636e-07	-1.412618e-06	-1.837238e-06	5.694434e-06	7.948315e-06
	0.8050462	-0.549563	0.01244143	0.0004050243	-0.001866604	-0.001610569	0.03033761	0.04211025
	1.250754e-06	-1.592815e-07	-1.320354e-06	1.731154e-07	1.863564e-06	4.674508e-07	-1.960961e-06	-1.633442e-07
	0.03033761	0.04211025	-0.001866604	-0.001610569	0.01219125	0.0009015084	0.8052802	-0.5501338
	-1.320354e-06	1.731154e-07	1.250754e-06	-1.592815e-07	-1.960961e-06	-1.633442e-07	1.863564e-06	4.674508e-07
	-0.001866604	-0.001610569	0.03033761	0.04211025	0.8052802	-0.5501338	0.01219125	0.0009015084
4e+08	0.01250555	0.0002499925	0.7662799	-0.6000406	0.03597368	0.0438102	-0.002099042	-0.001659682
	1.932467e-06	5.465778e-07	-2.033024e-06	-1.962421e-07	1.220897e-06	-1.40168e-07	-1.304802e-06	1.557457e-07
	0.7662799	-0.6000406	0.01250555	0.0002499925	-0.002099042	-0.001659682	0.03597368	0.0438102
	-2.033024e-06	-1.962421e-07	1.932467e-06	5.465778e-07	-1.304802e-06	1.557457e-07	1.220897e-06	-1.40168e-07
	0.03597368	0.0438102	-0.002099042	-0.001659682	0.01267918	-0.0002444827	0.7661317	-0.5994615
	6.869964e-06	8.484987e-06	-1.805933e-06	-2.166889e-06	1.93209e-06	5.461559e-07	-2.03262e-06	-1.960338e-07
	-0.002099042	-0.001659682	0.03597368	0.0438102	0.7661317	-0.5994615	0.01267918	-0.0002444827
	-1.805933e-06	-2.166889e-06	6.869964e-06	8.484987e-06	-2.03262e-06	-1.960338e-07	1.93209e-06	5.461559e-07
	1.932467e-06	5.465778e-07	-2.033024e-06	-1.962421e-07	6.869964e-06	8.484987e-06	-1.805933e-06	-2.166889e-06
	0.01267825	-0.0002457325	0.7661347	-0.5994609	0.03595196	0.04378304	-0.002100305	-0.001660886
	-2.033024e-06	-1.962421e-07	1.932467e-06	5.465778e-07	-1.805933e-06	-2.166889e-06	6.869964e-06	8.484987e-06
	0.7661347	-0.5994609	0.01267825	-0.0002457325	-0.002100305	-0.001660886	0.03595196	0.04378304
	1.220897e-06	-1.40168e-07	-1.304802e-06	1.557457e-07	1.93209e-06	5.461559e-07	-2.03262e-06	-1.960338e-07
	0.03595196	0.04378304	-0.002100305	-0.001660886	0.01250483	0.0002490441	0.7662832	-0.6000396
	-1.304802e-06	1.557457e-07	1.220897e-06	-1.40168e-07	-2.03262e-06	-1.960338e-07	1.93209e-06	5.461559e-07
	-0.002100305	-0.001660886	0.03595196	0.04378304	0.7662832	-0.6000396	0.01250483	0.0002490441
4.4e+08	0.01276589	-0.0004136928	0.7242772	-0.6471428	0.04173161	0.04473854	-0.002342581	-0.001687888
	1.956609e-06	5.86622e-07	-2.051231e-06	-1.906673e-07	1.165978e-06	-1.309641e-07	-1.263294e-06	1.491179e-07
	0.7242772	-0.6471428	0.01276589	-0.0004136928	-0.002342581	-0.001687888	0.04173161	0.04473854
	-2.051231e-06	-1.906673e-07	1.956609e-06	5.86622e-07	-1.263294e-06	1.491179e-07	1.165978e-06	-1.309641e-07
	0.04173161	0.04473854	-0.002342581	-0.001687888	0.01287475	-0.0008963554	0.7242041	-0.6465666
	8.109001e-06	8.68819e-06	-2.259349e-06	-2.264319e-06	1.956174e-06	5.861999e-07	-2.050779e-06	-1.904924e-07
	-0.002342581	-0.001687888	0.04173161	0.04473854	0.7242041	-0.6465666	0.01287475	-0.0008963554
	-2.259349e-06	-2.264319e-06	8.109001e-06	8.68819e-06	-2.050779e-06	-1.904924e-07	1.956174e-06	5.861999e-07
	1.956609e-06	5.86622e-07	-2.051231e-06	-1.906673e-07	8.109001e-06	8.68819e-06	-2.259349e-06	-2.264319e-06
	0.01287366	-0.0008976415	0.7242074	-0.6465663	0.04170635	0.04471078	-0.002344052	-0.001689109
	-2.051231e-06	-1.906673e-07	1.956609e-06	5.86622e-07	-2.259349e-06	-2.264319e-06	8.109001e-06	8.68819e-06
	0.7242074	-0.6465663	0.01287366	-0.0008976415	-0.002344052	-0.001689109	0.04170635	0.04471078
	1.165978e-06	-1.309641e-07	-1.263294e-06	1.491179e-07	1.956174e-06	5.861999e-07	-2.050779e-06	-1.904924e-07
	0.04170635	0.04471078	-0.002344052	-0.001689109	0.01276504	-0.000414668	0.7242809	-0.6471421
	-1.263294e-06	1.491179e-07	1.165978e-06	-1.309641e-07	-2.050779e-06	-1.904924e-07	1.956174e-06	5.861999e-07
	-0.002344052	-0.001689109	0.04170635	0.04471078	0.7242809	-0.6471421	0.01276504	-0.000414668
4.8e+08	0.01291556	-0.001108543	0.6795302	-0.691253	0.04752844	0.04491775	-0.002590866	-0.00169649
	2.002335e-06	5.985927e-07	-2.086031e-06	-1.588569e-07	1.12486e-06	-1.304594e-07	-1.236845e-06	1.518203e-07
	0.6795302	-0.691253	0.01291556	-0.001108543	-0.002590866	-0.00169649	0.04752844	0.04491775
	-2.086031e-06	-1.588569e-07	2.002335e-06	5.985927e-07	-1.236845e-06	1.518203e-07	1.12486e-06	-1.304594e-07
	0.04752844	0.04491775	-0.002590866	-0.00169649	0.01296316	-0.001571238	0.6795306	-0.690689
	9.402301e-06	8.691037e-06	-2.782865e-06	-2.268375e-06	2.001843e-06	5.981798e-07	-2.085538e-06	-1.587244e-07
	-0.002590866	-0.00169649	0.04752844	0.04491775	0.6795306	-0.690689	0.01296316	-0.001571238
	-2.782865e-06	-2.268375e-06	9.402301e-06	8.691037e-06	-2.085538e-06	-1.587244e-07	2.001843e-06	5.981798e-07
	2.002335e-06	5.985927e-07	-2.086031e-06	-1.588569e-07	9.402301e-06	8.691037e-06	-2.782865e-06	-2.268375e-06
	0.01296191	-0.00157254	0.6795342	-0.6906892	0.04749959	0.04488985	-0.002592553	-0.001697702
	-2.086031e-06	-1.588569e-07	2.002335e-06	5.985927e-07	-2.782865e-06	-2.268375e-06	9.402301e-06	8.691037e-06
