# Hz S ri R 50
0	0.001816687	0	0.9981833	0	1.923854e-05	0	-1.923854e-05	0
	1.923854e-05	0	-1.923854e-05	0	1.923854e-05	0	-1.923854e-05	0
	0.9981833	0	0.001816687	0	-1.923854e-05	0	1.923854e-05	0
	-1.923854e-05	0	1.923854e-05	0	-1.923854e-05	0	1.923854e-05	0
	1.923854e-05	0	-1.923854e-05	0	0.001816687	0	0.9981833	0
	1.923854e-05	0	-1.923854e-05	0	1.923854e-05	0	-1.923854e-05	0
	-1.923854e-05	0	1.923854e-05	0	0.9981833	0	0.001816687	0
	-1.923854e-05	0	1.923854e-05	0	-1.923854e-05	0	1.923854e-05	0
	1.923854e-05	0	-1.923854e-05	0	1.923854e-05	0	-1.923854e-05	0
	0.001816687	0	0.9981833	0	1.923854e-05	0	-1.923854e-05	0
	-1.923854e-05	0	1.923854e-05	0	-1.923854e-05	0	1.923854e-05	0
	0.9981833	0	0.001816687	0	-1.923854e-05	0	1.923854e-05	0
	1.923854e-05	0	-1.923854e-05	0	1.923854e-05	0	-1.923854e-05	0
	1.923854e-05	0	-1.923854e-05	0	0.001816687	0	0.9981833	0
	-1.923854e-05	0	1.923854e-05	0	-1.923854e-05	0	1.923854e-05	0
	-1.923854e-05	0	1.923854e-05	0	0.9981833	0	0.001816687	0
4e+07	0.002275807	-0.01793311	0.9920437	-0.06711039	0.0002081577	0.001466823	-1.892346e-05	0.0004177256
	9.338792e-07	1.145441e-05	-1.070993e-07	-1.244084e-06	2.072409e-07	3.307606e-07	-1.821967e-07	8.36507e-08
	0.9920437	-0.06711039	0.002275807	-0.01793311	-1.892346e-05	0.0004177256	0.0002081577	0.001466823
	-1.070993e-07	-1.244084e-06	9.338792e-07	1.145441e-05	-1.821967e-07	8.36507e-08	2.072409e-07	3.307606e-07
	0.0002081577	0.001466823	-1.892346e-05	0.0004177256	0.002421619	-0.01785031	0.9918965	-0.06720291
	7.740252e-05	0.0002509248	-5.002744e-05	1.506099e-05	9.436955e-07	1.156893e-05	-1.01016e-07	-1.209702e-06
	-1.892346e-05	0.0004177256	0.0002081577	0.001466823	0.9918965	-0.06720291	0.002421619	-0.01785031
	-5.002744e-05	1.506099e-05	7.740252e-05	0.0002509248	-1.01016e-07	-1.209702e-06	9.436955e-07	1.156893e-05
	9.338792e-07	1.145441e-05	-1.070993e-07	-1.244084e-06	7.740252e-05	0.0002509248	-5.002744e-05	1.506099e-05
	0.002422952	-0.0178357	0.9918974	-0.06719821	0.0002080142	0.00146511	-1.901614e-05	0.0004170762
	-1.070993e-07	-1.244084e-06	9.338792e-07	1.145441e-05	-5.002744e-05	1.506099e-05	7.740252e-05	0.0002509248
	0.9918974	-0.06719821	0.002422952	-0.0178357	-1.901614e-05	0.0004170762	0.0002080142	0.00146511
	2.072409e-07	3.307606e-07	-1.821967e-07	8.36507e-08	9.436955e-07	1.156893e-05	-1.01016e-07	-1.209702e-06
	0.0002080142	0.00146511	-1.901614e-05	0.0004170762	0.00227483	-0.01794274	0.992043	-0.06711358
	-1.821967e-07	8.36507e-08	2.072409e-07	3.307606e-07	-1.01016e-07	-1.209702e-06	9.436955e-07	1.156893e-05
	-1.901614e-05	0.0004170762	0.0002080142	0.00146511	0.992043	-0.06711358	0.00227483	-0.01794274
8e+07	-0.002397401	-0.04362727	0.9850866	-0.1251153	0.0005038277	0.002778267	0.0001708346	0.0009183932
	2.480804e-06	1.977407e-05	2.803067e-07	4.446399e-07	2.393185e-07	5.880581e-07	-1.627401e-07	2.397794e-07
	0.9850866	-0.1251153	-0.002397401	-0.04362727	0.0001708346	0.0009183932	0.0005038277	0.002778267
	2.803067e-07	4.446399e-07	2.480804e-06	1.977407e-05	-1.627401e-07	2.397794e-07	2.393185e-07	5.880581e-07
	0.0005038277	0.002778267	0.0001708346	0.0009183932	-0.002252998	-0.04364406	0.9849378	-0.1251172
	0.0001220734	0.0004429304	-2.612679e-05	7.865906e-05	2.513527e-06	1.998214e-05	3.034432e-07	5.282814e-07
	0.0001708346	0.0009183932	0.0005038277	0.002778267	0.9849378	-0.1251172	-0.002252998	-0.04364406
	-2.612679e-05	7.865906e-05	0.0001220734	0.0004429304	3.034432e-07	5.282814e-07	2.513527e-06	1.998214e-05
	2.480804e-06	1.977407e-05	2.803067e-07	4.446399e-07	0.0001220734	0.0004429304	-2.612679e-05	7.865906e-05
	-0.002248686	-0.04361683	0.9849407	-0.1251066	0.0005033217	0.002774992	0.0001704806	0.0009170368
	2.803067e-07	4.446399e-07	2.480804e-06	1.977407e-05	-2.612679e-05	7.865906e-05	0.0001220734	0.0004429304
	0.9849407	-0.1251066	-0.002248686	-0.04361683	0.0001704806	0.0009170368	0.0005033217	0.002774992
	2.393185e-07	5.880581e-07	-1.627401e-07	2.397794e-07	2.513527e-06	1.998214e-05	3.034432e-07	5.282814e-07
	0.0005033217	0.002774992	0.0001704806	0.0009170368	-0.002400384	-0.04364525	0.9850846	-0.1251224
	-1.627401e-07	2.397794e-07	2.393185e-07	5.880581e-07	3.034432e-07	5.282814e-07	2.513527e-06	1.998214e-05
	0.0001704806	0.0009170368	0.0005033217	0.002774992	0.9850846	-0.1251224	-0.002400384	-0.04364525
1.2e+08	-0.009570339	-0.06800025	0.9736708	-0.1822826	0.0009823766	0.004015523	0.0004677783	0.001365461
	5.010238e-06	2.787553e-05	8.921677e-07	2.012642e-06	2.62913e-07	9.211773e-07	-1.000338e-07	3.187929e-07
	0.9736708	-0.1822826	-0.009570339	-0.06800025	0.0004677783	0.001365461	0.0009823766	0.004015523
	8.921677e-07	2.012642e-06	5.010238e-06	2.787553e-05	-1.000338e-07	3.187929e-07	2.62913e-07	9.211773e-07
	0.0009823766	0.004015523	0.0004677783	0.001365461	-0.009437961	-0.0680874	0.9735291	-0.1822219
	0.0001824472	0.0006192159	2.294931e-05	0.0001398014	5.079303e-06	2.817317e-05	9.426233e-07	2.138758e-06
	0.0004677783	0.001365461	0.0009823766	0.004015523	0.9735291	-0.1822219	-0.009437961	-0.0680874
	2.294931e-05	0.0001398014	0.0001824472	0.0006192159	9.426233e-07	2.138758e-06	5.079303e-06	2.817317e-05
	5.010238e-06	2.787553e-05	8.921677e-07	2.012642e-06	0.0001824472	0.0006192159	2.294931e-05	0.0001398014
	-0.009428937	-0.06804815	0.9735355	-0.182206	0.0009812935	0.004010771	0.0004670046	0.001363481
	8.921677e-07	2.012642e-06	5.010238e-06	2.787553e-05	2.294931e-05	0.0001398014	0.0001824472	0.0006192159
	0.9735355	-0.182206	-0.009428937	-0.06804815	0.0004670046	0.001363481	0.0009812935	0.004010771
	2.62913e-07	9.211773e-07	-1.000338e-07	3.187929e-07	5.079303e-06	2.817317e-05	9.426233e-07	2.138758e-06
	0.0009812935	0.004010771	0.0004670046	0.001363481	-0.009576477	-0.06802617	0.9736664	-0.1822932
	-1.000338e-07	3.187929e-07	2.62913e-07	9.211773e-07	9.426233e-07	2.138758e-06	5.079303e-06	2.817317e-05
	0.0004670046	0.001363481	0.0009812935	0.004010771	0.9736664	-0.1822932	-0.009576477	-0.06802617
1.6e+08	-0.01891	-0.08907413	0.957723	-0.2397899	0.001635664	0.005173183	0.0008472352	0.001715117
	8.766888e-06	3.601314e-05	1.448967e-06	3.054305e-06	3.532654e-07	1.407371e-06	-6.653802e-08	2.394091e-07
	0.957723	-0.2397899	-0.01891	-0.08907413	0.0008472352	0.001715117	0.001635664	0.005173183
	1.448967e-06	3.054305e-06	8.766888e-06	3.601314e-05	-6.653802e-08	2.394091e-07	3.532654e-07	1.407371e-06
	0.001635664	0.005173183	0.0008472352	0.001715117	-0.0187952	-0.08917688	0.9575928	-0.2397201
	0.00026315	0.0007816303	8.811194e-05	0.0001896932	8.885323e-06	3.639717e-05	1.534603e-06	3.211136e-06
	0.0008472352	0.001715117	0.001635664	0.005173183	0.9575928	-0.2397201	-0.0187952	-0.08917688
	8.811194e-05	0.0001896932	0.00026315	0.0007816303	1.534603e-06	3.211136e-06	8.885323e-06	3.639717e-05
	8.766888e-06	3.601314e-05	1.448967e-06	3.054305e-06	0.00026315	0.0007816303	8.811194e-05	0.0001896932
	-0.01877978	-0.08912615	0.9576035	-0.2397004	0.001633801	0.005167048	0.000845916	0.001712653
	1.448967e-06	3.054305e-06	8.766888e-06	3.601314e-05	8.811194e-05	0.0001896932	0.00026315	0.0007816303
	0.9576035	-0.2397004	-0.01877978	-0.08912615	0.000845916	0.001712653	0.001633801	0.005167048
	3.532654e-07	1.407371e-06	-6.653802e-08	2.394091e-07	8.885323e-06	3.639717e-05	1.534603e-06	3.211136e-06
	0.001633801	0.005167048	0.000845916	0.001712653	-0.01892042	-0.08910763	0.9577157	-0.2398032
	-6.653802e-08	2.394091e-07	3.532654e-07	1.407371e-06	1.534603e-06	3.211136e-06	8.885323e-06	3.639717e-05
	0.000845916	0.001712653	0.001633801	0.005167048	0.9577157	-0.2398032	-0.01892042	-0.08910763
2e+08	-0.03069271	-0.1087581	0.9381862	-0.2954607	0.002424653	0.006212443	0.001308141	0.001975888
	1.359621e-05	4.356881e-05	2.036396e-06	4.099935e-06	5.361157e-07	1.983459e-06	-8.81247e-08	6.155706e-08
	0.9381862	-0.2954607	-0.03069271	-0.1087581	0.001308141	0.001975888	0.002424653	0.006212443
	2.036396e-06	4.099935e-06	1.359621e-05	4.356881e-05	-8.81247e-08	6.155706e-08	5.361157e-07	1.983459e-06
	0.002424653	0.006212443	0.001308141	0.001975888	-0.03059853	-0.1088723	0.9380695	-0.2953846
	0.0003662487	0.000924552	0.0001614989	0.0002297923	1.377463e-05	4.402987e-05	2.163967e-06	4.279381e-06
	0.001308141	0.001975888	0.002424653	0.006212443	0.9380695	-0.2953846	-0.03059853	-0.1088723
	0.0001614989	0.0002297923	0.0003662487	0.000924552	2.163967e-06	4.279381e-06	1.377463e-05	4.402987e-05
	1.359621e-05	4.356881e-05	2.036396e-06	4.099935e-06	0.0003662487	0.000924552	0.0001614989	0.0002297923
	-0.03057532	-0.1088112	0.9380854	-0.295362	0.002421841	0.006205069	0.00130617	0.001973067
	2.036396e-06	4.099935e-06	1.359621e-05	4.356881e-05	0.0001614989	0.0002297923	0.0003662487	0.000924552
	0.9380854	-0.295362	-0.03057532	-0.1088112	0.00130617	0.001973067	0.002421841	0.006205069
	5.361157e-07	1.983459e-06	-8.81247e-08	6.155706e-08	1.377463e-05	4.402987e-05	2.163967e-06	4.279381e-06
	0.002421841	0.006205069	0.00130617	0.001973067	-0.03070832	-0.1087984	0.9381754	-0.2954759
	-8.81247e-08	6.155706e-08	5.361157e-07	1.983459e-06	2.163967e-06	4.279381e-06	1.377463e-05	4.402987e-05
	0.00130617	0.001973067	0.002421841	0.006205069	0.9381754	-0.2954759	-0.03070832	-0.1087984
2.4e+08	-0.04465126	-0.1267758	0.9152624	-0.3490662	0.003325825	0.007120268	0.001830815	0.002132112
	1.899192e-05	5.072845e-05	3.112047e-06	4.826602e-06	7.795054e-07	2.430003e-06	-1.296007e-07	6.390743e-09
	0.9152624	-0.3490662	-0.04465126	-0.1267758	0.001830815	0.002132112	0.003325825	0.007120268
	3.112047e-06	4.826602e-06	1.899192e-05	5.072845e-05	-1.296007e-07	6.390743e-09	7.795054e-07	2.430003e-06
	0.003325825	0.007120268	0.001830815	0.002132112	-0.04457334	-0.1269	0.9151542	-0.3489837
	0.000483116	0.001056473	0.000245714	0.000247207	1.923901e-05	5.125611e-05	3.286477e-06	5.019328e-06
	0.001830815	0.002132112	0.003325825	0.007120268	0.9151542	-0.3489837	-0.04457334	-0.1269
	0.000245714	0.000247207	0.000483116	0.001056473	3.286477e-06	5.019328e-06	1.923901e-05	5.125611e-05
	1.899192e-05	5.072845e-05	3.112047e-06	4.826602e-06	0.000483116	0.001056473	0.000245714	0.000247207
	-0.04454119	-0.1268299	0.915176	-0.3489592	0.003321924	0.007111821	0.001828115	0.002129077
	3.112047e-06	4.826602e-06	1.899192e-05	5.072845e-05	0.000245714	0.000247207	0.000483116	0.001056473
	0.915176	-0.3489592	-0.04454119	-0.1268299	0.001828115	0.002129077	0.003321924	0.007111821
	7.795054e-07	2.430003e-06	-1.296007e-07	6.390743e-09	1.923901e-05	5.125611e-05	3.286477e-06	5.019328e-06
	0.003321924	0.007111821	0.001828115	0.002129077	-0.04467282	-0.1268221	0.9152477	-0.3490827
	-1.296007e-07	6.390743e-09	7.795054e-07	2.430003e-06	3.286477e-06	5.019328e-06	1.923901e-05	5.125611e-05
	0.001828115	0.002129077	0.003321924	0.007111821	0.9152477	-0.3490827	-0.04467282	-0.1268221
2.8e+08	-0.06052181	-0.1429	0.8892034	-0.4004014	0.004316901	0.007884451	0.002391233	0.002176684
	2.515184e-05	5.722248e-05	4.396451e-06	5.364597e-06	1.072151e-06	2.873038e-06	-1.783646e-07	-6.015486e-08
	0.8892034	-0.4004014	-0.06052181	-0.1429	0.002391233	0.002176684	0.004316901	0.007884451
	4.396451e-06	5.364597e-06	2.515184e-05	5.722248e-05	-1.783646e-07	-6.015486e-08	1.072151e-06	2.873038e-06
	0.004316901	0.007884451	0.002391233	0.002176684	-0.0604613	-0.1430312	0.8891046	-0.4003137
	0.0006166903	0.001166845	0.000331119	0.0002500112	2.547427e-05	5.780533e-05	4.620696e-06	5.560736e-06
	0.002391233	0.002176684	0.004316901	0.007884451	0.8891046	-0.4003137	-0.0604613	-0.1430312
	0.000331119	0.0002500112	0.0006166903	0.001166845	4.620696e-06	5.560736e-06	2.547427e-05	5.780533e-05
	2.515184e-05	5.722248e-05	4.396451e-06	5.364597e-06	0.0006166903	0.001166845	0.000331119	0.0002500112
	-0.06041929	-0.1429536	0.8891325	-0.4002887	0.004311803	0.00787511	0.002387757	0.002173589
	4.396451e-06	5.364597e-06	2.515184e-05	5.722248e-05	0.000331119	0.0002500112	0.0006166903	0.001166845
	0.8891325	-0.4002887	-0.06041929	-0.1429536	0.002387757	0.002173589	0.004311803	0.00787511
	1.072151e-06	2.873038e-06	-1.783646e-07	-6.015486e-08	2.547427e-05	5.780533e-05	4.620696e-06	5.560736e-06
	0.004311803	0.00787511	0.002387757	0.002173589	-0.06054993	-0.1429512	0.8891845	-0.4004182
	-1.783646e-07	-6.015486e-08	1.072151e-06	2.873038e-06	4.620696e-06	5.560736e-06	2.547427e-05	5.780533e-05
	0.002387757	0.002173589	0.004311803	0.00787511	0.8891845	-0.4004182	-0.06054993	-0.1429512
3.2e+08	-0.07800402	-0.1569183	0.8602604	-0.4493176	0.005373715	0.008499592	0.002966174	0.002104883
	3.1997e-05	6.303793e-05	5.857175e-06	5.604066e-06	1.412586e-06	3.270737e-06	-2.313793e-07	-1.006968e-07
	0.8602604	-0.4493176	-0.07800402	-0.1569183	0.002966174	0.002104883	0.005373715	0.008499592
	5.857175e-06	5.604066e-06	3.1997e-05	6.303793e-05	-2.313793e-07	-1.006968e-07	1.412586e-06	3.270737e-06
	0.005373715	0.008499592	0.002966174	0.002104883	-0.07796036	-0.1570546	0.8601705	-0.4492252
	0.0007519596	0.001258944	0.0004265817	0.0002330138	3.239941e-05	6.366412e-05	6.132211e-06	5.793531e-06
	0.002966174	0.002104883	0.005373715	0.008499592	0.8601705	-0.4492252	-0.07796036	-0.1570546
	0.0004265817	0.0002330138	0.0007519596	0.001258944	6.132211e-06	5.793531e-06	3.239941e-05	6.366412e-05
	3.1997e-05	6.303793e-05	5.857175e-06	5.604066e-06	0.0007519596	0.001258944	0.0004265817	0.0002330138
	-0.07790782	-0.1569709	0.8602048	-0.4492008	0.005367345	0.008489545	0.002961905	0.002101886
	5.857175e-06	5.604066e-06	3.1997e-05	6.303793e-05	0.0004265817	0.0002330138	0.0007519596	0.001258944
	0.8602048	-0.4492008	-0.07790782	-0.1569709	0.002961905	0.002101886	0.005367345	0.008489545
	1.412586e-06	3.270737e-06	-2.313793e-07	-1.006968e-07	3.239941e-05	6.366412e-05	6.132211e-06	5.793531e-06
	0.005367345	0.008489545	0.002961905	0.002101886	-0.07803914	-0.1569734	0.8602373	-0.449334
	-2.313793e-07	-1.006968e-07	1.412586e-06	3.270737e-06	6.132211e-06	5.793531e-06	3.239941e-05	6.366412e-05
	0.002961905	0.002101886	0.005367345	0.008489545	0.8602373	-0.449334	-0.07803914	-0.1569734
3.6e+08	-0.0967957	-0.1686872	0.8287042	-0.4956773	0.006472494	0.008963821	0.003532914	0.001917437
	3.941888e-05	6.803299e-05	7.489682e-06	5.539357e-06	1.798641e-06	3.606888e-06	-2.860159e-07	-1.034053e-07
	0.8287042	-0.4956773	-0.0967957	-0.1686872	0.003532914	0.001917437	0.006472494	0.008963821
	7.489682e-06	5.539357e-06	3.941888e-05	6.803299e-05	-2.860159e-07	-1.034053e-07	1.798641e-06	3.606888e-06
	0.006472494	0.008963821	0.003532914	0.001917437	-0.09676802	-0.168827	0.8286226	-0.4955805
	0.0009043475	0.001327327	0.0005090434	0.0002022615	3.990392e-05	6.869067e-05	7.814516e-06	5.71217e-06
	0.003532914	0.001917437	0.006472494	0.008963821	0.8286226	-0.4955805	-0.09676802	-0.168827
	0.0005090434	0.0002022615	0.0009043475	0.001327327	7.814516e-06	5.71217e-06	3.990392e-05	6.869067e-05
	3.941888e-05	6.803299e-05	7.489682e-06	5.539357e-06	0.0009043475	0.001327327	0.0005090434	0.0002022615
	-0.09670454	-0.1687388	0.8286632	-0.495558	0.006464806	0.008953254	0.003527867	0.001914693
	7.489682e-06	5.539357e-06	3.941888e-05	6.803299e-05	0.0005090434	0.0002022615	0.0009043475	0.001327327
	0.8286632	-0.495558	-0.09670454	-0.1687388	0.003527867	0.001914693	0.006464806	0.008953254
	1.798641e-06	3.606888e-06	-2.860159e-07	-1.034053e-07	3.990392e-05	6.869067e-05	7.814516e-06	5.71217e-06
	0.006464806	0.008953254	0.003527867	0.001914693	-0.09683809	-0.1687453	0.8286768	-0.4956926
	-2.860159e-07	-1.034053e-07	1.798641e-06	3.606888e-06	7.814516e-06	5.71217e-06	3.990392e-05	6.869067e-05
	0.003527867	0.001914693	0.006464806	0.008953254	0.8286768	-0.4956926	-0.09683809	-0.1687453
4e+08	-0.1166055	-0.1781368	0.7948253	-0.5393486	0.007590324	0.009278305	0.004070416	0.00162026
	4.734726e-05	7.213656e-05	9.200933e-06	5.141297e-06	2.230226e-06	3.90589e-06	-3.445189e-07	-1.014863e-07
	0.7948253	-0.5393486	-0.1166055	-0.1781368	0.004070416	0.00162026	0.007590324	0.009278305
	9.200933e-06	5.141297e-06	4.734726e-05	7.213656e-05	-3.445189e-07	-1.014863e-07	2.230226e-06	3.90589e-06
	0.007590324	0.009278305	0.004070416	0.00162026	-0.1165938	-0.178278	0.7947527	-0.5392481
	0.001062395	0.001373241	0.0005840752	0.0001574411	4.791569e-05	7.281415e-05	9.572801e-06	5.28804e-06
	0.004070416	0.00162026	0.007590324	0.009278305	0.7947527	-0.5392481	-0.1165938	-0.178278
	0.0005840752	0.0001574411	0.001062395	0.001373241	9.572801e-06	5.28804e-06	4.791569e-05	7.281415e-05
	4.734726e-05	7.213656e-05	9.200933e-06	5.141297e-06	0.001062395	0.001373241	0.0005840752	0.0001574411
	-0.1165192	-0.1781868	0.7947992	-0.5392287	0.007581303	0.009267403	0.004064633	0.001617916
	9.200933e-06	5.141297e-06	4.734726e-05	7.213656e-05	0.0005840752	0.0001574411	0.001062395	0.001373241
	0.7947992	-0.5392287	-0.1165192	-0.1781868	0.004064633	0.001617916	0.007581303	0.009267403
	2.230226e-06	3.90589e-06	-3.445189e-07	-1.014863e-07	4.791569e-05	7.281415e-05	9.572801e-06	5.28804e-06
	0.007581303	0.009267403	0.004064633	0.001617916	-0.1166552	-0.1781969	0.7947939	-0.5393619
	-3.445189e-07	-1.014863e-07	2.230226e-06	3.90589e-06	9.572801e-06	5.28804e-06	4.791569e-05	7.281415e-05
	0.004064633	0.001617916	0.007581303	0.009267403	0.7947939	-0.5393619	-0.1166552	-0.1781969
4.4e+08	-0.1371112	-0.1851743	0.7588757	-0.5803006	0.008706976	0.009449518	0.004559015	0.001220898
	5.56678e-05	7.532956e-05	1.092981e-05	4.347612e-06	2.67943e-06	4.148002e-06	-3.785031e-07	-8.222897e-08
	0.7588757	-0.5803006	-0.1371112	-0.1851743	0.004559015	0.001220898	0.008706976	0.009449518
	1.092981e-05	4.347612e-06	5.56678e-05	7.532956e-05	-3.785031e-07	-8.222897e-08	2.67943e-06	4.148002e-06
	0.008706976	0.009449518	0.004559015	0.001220898	-0.1371141	-0.185316	0.7588114	-0.5801962
	0.001221039	0.001399027	0.0006511752	9.807237e-05	5.631877e-05	7.601605e-05	1.134435e-05	4.459678e-06
	0.004559015	0.001220898	0.008706976	0.009449518	0.7588114	-0.5801962	-0.1371141	-0.185316
	0.0006511752	9.807237e-05	0.001221039	0.001399027	1.134435e-05	4.459678e-06	5.631877e-05	7.601605e-05
	5.56678e-05	7.532956e-05	1.092981e-05	4.347612e-06	0.001221039	0.001399027	0.0006511752	9.807237e-05
	-0.1370284	-0.1852232	0.7588634	-0.5801809	0.008696633	0.009438456	0.004552561	0.001219088
	1.092981e-05	4.347612e-06	5.56678e-05	7.532956e-05	0.0006511752	9.807237e-05	0.001221039	0.001399027
	0.7588634	-0.5801809	-0.1370284	-0.1852232	0.004552561	0.001219088	0.008696633	0.009438456
	2.67943e-06	4.148002e-06	-3.785031e-07	-8.222897e-08	5.631877e-05	7.601605e-05	1.134435e-05	4.459678e-06
	0.008696633	0.009438456	0.004552561	0.001219088	-0.1371683	-0.1852354	0.7588407	-0.5803111
	-3.785031e-07	-8.222897e-08	2.67943e-06	4.148002e-06	1.134435e-05	4.459678e-06	5.631877e-05	7.601605e-05
	0.004552561	0.001219088	0.008696633	0.009438456	0.7588407	-0.5803111	-0.1371683	-0.1852354
4.8e+08	-0.1580384	-0.1898209	0.7211443	-0.6184577	0.009803468	0.009484683	0.004982668	0.0007320502
	6.426469e-05	7.75266e-05	1.259896e-05	3.185694e-06	3.16002e-06	4.342734e-06	-4.084698e-07	-6.27591e-08
	0.7211443	-0.6184577	-0.1580384	-0.1898209	0.004982668	0.0007320502	0.009803468	0.009484683
	1.259896e-05	3.185694e-06	6.426469e-05	7.75266e-05	-4.084698e-07	-6.27591e-08	3.16002e-06	4.342734e-06
	0.009803468	0.009484683	0.004982668	0.0007320502	-0.1580556	-0.1899614	0.7210888	-0.6183505
	0.001380072	0.001403854	0.0007054044	2.828863e-05	6.499585e-05	7.82118e-05	1.305045e-05	3.255539e-06
	0.004982668	0.0007320502	0.009803468	0.009484683	0.7210888	-0.6183505	-0.1580556	-0.1899614
	0.0007054044	2.828863e-05	0.001380072	0.001403854	1.305045e-05	3.255539e-06	6.499585e-05	7.82118e-05
	6.426469e-05	7.75266e-05	1.259896e-05	3.185694e-06	0.001380072	0.001403854	0.0007054044	2.828863e-05
	-0.157959	-0.1898684	0.7211457	-0.6183402	0.009791837	0.009473624	0.004975633	0.0007308934
	1.259896e-05	3.185694e-06	6.426469e-05	7.75266e-05	0.0007054044	2.828863e-05	0.001380072	0.001403854
	0.7211457	-0.6183402	-0.157959	-0.1898684	0.004975633	0.0007308934	0.009791837	0.009473624
	3.16002e-06	4.342734e-06	-4.084698e-07	-6.27591e-08	6.499585e-05	7.82118e-05	1.305045e-05	3.255539e-06
	0.009791837	0.009473624	0.004975633	0.0007308934	-0.1581028	-0.189882	0.721106	-0.6184649
	-4.084698e-07	-6.27591e-08	3.16002e-06	4.342734e-06	1.305045e-05	3.255539e-06	6.499585e-05	7.82118e-05
