! Created with skrf (http://scikit-rf.org).
# Hz S MA R 50.0 
!freq magS11 angS11 magS12 angS12 magS13 angS13
! magS14 angS14 magS15 angS15 magS16 angS16 magS17 angS17
! magS18 angS18
! magS21 angS21 magS22 angS22 magS23 angS23
! magS24 angS24 magS25 angS25 magS26 angS26 magS27 angS27
! magS28 angS28
! magS31 angS31 magS32 angS32 magS33 angS33
! magS34 angS34 magS35 angS35 magS36 angS36 magS37 angS37
! magS38 angS38
! magS41 angS41 magS42 angS42 magS43 angS43
! magS44 angS44 magS45 angS45 magS46 angS46 magS47 angS47
! magS48 angS48
! magS51 angS51 magS52 angS52 magS53 angS53
! magS54 angS54 magS55 angS55 magS56 angS56 magS57 angS57
! magS58 angS58
! magS61 angS61 magS62 angS62 magS63 angS63
! magS64 angS64 magS65 angS65 magS66 angS66 magS67 angS67
! magS68 angS68
! magS71 angS71 magS72 angS72 magS73 angS73
! magS74 angS74 magS75 angS75 magS76 angS76 magS77 angS77
! magS78 angS78
! magS81 angS81 magS82 angS82 magS83 angS83
! magS84 angS84 magS85 angS85 magS86 angS86 magS87 angS87
! magS88 angS88
!
100000000.0 0.044860287539141126 -99.01947066326657 0.04159224549674148 77.65434076611902 0.00024650592947578404 87.33942152902817 5.2916950094464074e-05 69.19090902162297
 0.993405529565787 -11.660842468164432 0.010425589693081851 64.9075336749714 0.00021987240582213636 -110.86282225600185 5.469309853911905e-05 -111.96582376393579
 0.04159224549674148 77.65434076611902 0.04489715724590479 -99.00009417428363 0.002507750658820725 77.02989125216946 0.00024653167104248463 87.33904144181527
 0.010425589693081851 64.9075336749714 0.9933806682232829 -11.661768427392962 0.00040405742530428824 62.28428336198082 0.0002198631755223307 -110.86357757294121
 0.00024650592947578404 87.33942152902817 0.002507750658820725 77.02989125216946 0.04488893019044234 -98.99955499220222 0.04159468513935383 77.65429807216236
 0.00021987240582213636 -110.86282225600185 0.00040405742530428824 62.28428336198082 0.9933809755853931 -11.661660031762253 0.01042712491791971 64.9096011367728
 5.2916950094464074e-05 69.19090902162297 0.00024653167104248463 87.33904144181527 0.04159468513935383 77.65429807216236 0.04486431756540192 -99.01999197202734
 5.469309853911905e-05 -111.96582376393579 0.0002198631755223307 -110.86357757294121 0.01042712491791971 64.9096011367728 0.993405300936426 -11.661107371151862
 0.9934055011758881 -11.660842387120724 0.010425586151702877 64.90755195610544 0.00021987082166030834 -110.8628388818811 5.484670223604951e-05 -111.90766903146262
 0.044860295883482025 -99.01945968197055 0.04159224689355214 77.65433988931325 0.00024650573504504073 87.33940103733222 5.298403831963759e-05 69.17245553389431
 0.010425586151702877 64.90755195610544 0.993380696555507 -11.661768510090074 0.00040420467967050236 62.294317204065926 0.00021986148278249203 -110.86355164855505
 0.04159224689355214 77.65433988931325 0.04489714894233435 -99.0001051713889 0.002507686539753227 77.03048685070662 0.0002465314457534179 87.33902462846537
 0.00021987082166030834 -110.8628388818811 0.00040420467967050236 62.294317204065926 0.9933810053079531 -11.661660306278495 0.010427121333119542 64.90961948891405
 0.00024650573504504073 87.33940103733222 0.002507686539753227 77.03048685070662 0.04488892039647937 -98.99956554396964 0.041594686535409764 77.65429718844962
 5.484670223604951e-05 -111.90766903146262 0.00021986148278249203 -110.86355164855505 0.010427121333119542 64.90961948891405 0.9934052711505303 -11.661107098534565
 5.298403831963759e-05 69.17245553389431 0.0002465314457534179 87.33902462846537 0.041594686535409764 77.65429718844962 0.044864327400045444 -99.01998143760194
200000000.0 0.08722476556606647 -112.15772712696668 0.08049845695626641 65.65829830846863 0.0005029121049398928 79.86444742049007 8.345458159336558e-05 56.61629559637054
 0.9854412719175059 -23.093483135613187 0.019932024484074655 42.91044607339963 0.0003978248577022948 -135.44282397202966 9.590493625152335e-05 -128.61977442992605
 0.08049845695626641 65.65829830846863 0.08728880216871049 -112.15283488241285 0.004817030444699935 65.08962737967276 0.0005029653209478206 79.86407922751607
 0.019932024484074655 42.91044607339963 0.9854059841512737 -23.095296036826163 0.0008013409643006587 36.993329543111834 0.0003978070979962741 -135.44461396167728
 0.0005029121049398928 79.86444742049007 0.004817030444699935 65.08962737967276 0.08727282253126349 -112.15262973903717 0.08050316925971468 65.6581401218047
 0.0003978248577022948 -135.44282397202966 0.0008013409643006587 36.993329543111834 0.985407067101943 -23.09509200407098 0.019934854416589872 42.91393460980355
 8.345458159336558e-05 56.61629559637054 0.0005029653209478206 79.86407922751607 0.08050316925971468 65.6581401218047 0.08723241036561104 -112.1584469238229
 9.590493625152335e-05 -128.61977442992605 0.0003978070979962741 -135.44461396167728 0.019934854416589872 42.91393460980355 0.9854402887839421 -23.093996121424045
 0.9854412285369714 -23.093481257432266 0.019932009405777464 42.910487022003565 0.0003978216430051618 -135.44282826502888 9.653761882247354e-05 -128.60878564042906
 0.08722480509739938 -112.15771604828419 0.08049846510407026 65.65829343845293 0.0005029111757235051 79.86446959168026 8.387705413806565e-05 56.47117964928363
 0.019932009405777464 42.910487022003565 0.9854060268076058 -23.095297914881474 0.0008019493641188922 37.005843064447035 0.00039780332569053705 -135.4445322970755
 0.08049846510407026 65.65829343845293 0.08728876286054263 -112.15284610032228 0.0048166442189661604 65.09286706359168 0.0005029642105589228 79.8641234464112
 0.0003978216430051618 -135.44282826502888 0.0008019493641188922 37.005843064447035 0.9854071101891825 -23.095094783351485 0.019934839250065468 42.91397566306211
 0.0005029111757235051 79.86446959168026 0.0048166442189661604 65.09286706359168 0.08727277251668662 -112.15263804058138 0.08050317740630336 65.6581352381059
 9.653761882247354e-05 -128.60878564042906 0.00039780332569053705 -135.4445322970755 0.019934839250065468 42.91397566306211 0.9854402449520827 -23.093993342752775
 8.387705413806565e-05 56.47117964928363 0.0005029642105589228 79.8641234464112 0.08050317740630336 65.6581352381059 0.08723246060315115 -112.1584387622009
300000000.0 0.12492262903278821 -124.15375636924884 0.11475840830782742 54.10978976123888 0.0007982667151263089 69.93846043893876 0.00010971295926389237 44.73315279486603
 0.9754475955863662 -34.309876083451435 0.02832449348585672 21.090441241473467 0.0005498483174864725 -158.22057823569477 0.00014382602775936943 -148.47019165074354
 0.11475840830782742 54.10978976123888 0.1250071491487036 -124.15365605720639 0.006843775092252221 53.66957541197946 0.000798348966983946 69.9381639387098
 0.02832449348585672 21.090441241473467 0.9753964794631408 -34.31219977640196 0.001167060945961042 11.88966826971264 0.0005498231483387097 -158.22329959464497
 0.0007982667151263089 69.93846043893876 0.006843775092252221 53.66957541197946 0.1249842202330281 -124.15362484932615 0.11476511034215134 54.10950092903988
 0.0005498483174864725 -158.22057823569477 0.001167060945961042 11.88966826971264 0.9753986910754515 -34.311920544045975 0.02832822826105611 21.095375980503007
 0.00010971295926389237 44.73315279486603 0.000798348966983946 69.9381639387098 0.11476511034215134 54.10950092903988 0.12493321773946306 -124.15472072940834
 0.00014382602775936943 -148.47019165074354 0.0005498231483387097 -158.22329959464497 0.02832822826105611 21.095375980503007 0.9754455270872571 -34.3106100868699
 0.9754475591811075 -34.30987163384162 0.028324455662664283 21.090502549755843 0.0005498431992314073 -158.22058092256353 0.00014520833730564324 -148.52367980868863
 0.12492271912904208 -124.15375493696668 0.11475842692017245 54.10977718370058 0.000798264804617814 69.9385640368553 0.00011079751293533118 44.30891452434376
 0.028324455662664283 21.090502549755843 0.9753965130546487 -34.31220419716138 0.0011684087893368516 11.90618969538666 0.0005498165107359784 -158.22317564908212
 0.11475842692017245 54.10977718370058 0.12500705951193966 -124.15365782561726 0.006842834334416181 53.67776766148628 0.0007983466780387125 69.93832225170486
 0.0005498431992314073 -158.22058092256353 0.0011684087893368516 11.90618969538666 0.9753987157524479 -34.311927065523406 0.028328190293559073 21.095437419806945
 0.000798264804617814 69.9385640368553 0.006842834334416181 53.67776766148628 0.12498410021422562 -124.1536177323097 0.11476512895315027 54.109488328594956
 0.00014520833730564324 -148.52367980868863 0.0005498165107359784 -158.22317564908212 0.028328190293559073 21.095437419806945 0.9754454995459233 -34.310603537989564
 0.00011079751293533118 44.30891452434376 0.0007983466780387125 69.93832225170486 0.11476512895315027 54.109488328594956 0.1249333382183142 -124.15472818007217
400000000.0 0.15647158631359345 -135.49193210845684 0.1432163090479194 43.03528447328146 0.001103020923884683 58.02328697565078 0.00012881649110031403 34.853274712347584
 0.9647144404413368 -45.303475485403176 0.03532476453839637 -0.34156816033088444 0.000665508954471094 -179.82552387104377 0.00019026822705768057 -170.07800207586666
 0.1432163090479194 43.03528447328146 0.1565695793171626 -135.4936672125203 0.008527277652014 42.74389214877841 0.0011031313827012273 58.02311250947482
 0.03532476453839637 -0.34156816033088444 0.9646460130018835 -45.30587343753806 0.001493952830143149 -12.450309943398096 0.0006654777813521859 -179.8291156912788
 0.001103020923884683 58.02328697565078 0.008527277652014 42.74389214877841 0.15654073839975788 -135.49374677438956 0.1432246269238659 43.034846742115626
 0.000665508954471094 -179.82552387104377 0.001493952830143149 -12.450309943398096 0.9646495407376431 -45.3055452021204 0.035328911487527336 -0.335174800300136
 0.00012881649110031403 34.853274712347584 0.0011031313827012273 58.02311250947482 0.1432246269238659 43.034846742115626 0.15648429927322582 -135.49313372412928
 0.00019026822705768057 -170.07800207586666 0.0006654777813521859 -179.8291156912788 0.035328911487527336 -0.335174800300136 0.9647112077962122 -45.304397817451985
 0.9647144323193071 -45.30346906786769 0.0353246961835237 -0.34149034161945585 0.0006655019747223884 -179.8255145603169 0.00019247574318841896 -170.15943474733137
 0.1564717290136592 -135.4919479392761 0.1432163349216987 43.03526073134296 0.0011030183404236802 58.02348028836242 0.00013063270666368812 33.95398387205255
 0.0353246961835237 -0.34149034161945585 0.9646460140779545 -45.30587974315834 0.0014960990807130552 -12.427822634056106 0.0006654678967178453 -179.82894504554127
 0.1432163349216987 43.03526073134296 0.15656943720561914 -135.49365196412194 0.00852577652276135 42.7592002224504 0.0011031283784672806 58.023401375107
 0.0006655019747223884 -179.8255145603169 0.0014960990807130552 -12.427822634056106 0.9646495142914311 -45.30555483482411 0.035328842922689375 -0.33509683578559674
 0.0011030183404236802 58.02348028836242 0.00852577652276135 42.7592002224504 0.15654054001349968 -135.49371252398578 0.1432246527917129 43.03482296461404
 0.00019247574318841896 -170.15943474733137 0.0006654678967178453 -179.82894504554127 0.035328842922689375 -0.33509683578559674 0.964711227099908 -45.3043880749788
 0.00013063270666368812 33.95398387205255 0.0011031283784672806 58.023401375107 0.1432246527917129 43.03482296461404 0.15648449825281105 -135.49316854868727
500000000.0 0.1812436579885714 -146.30518253833947 0.16538002965604928 32.42790329638207 0.0013839570575304731 44.881344240061054 0.00014419913426106046 26.381837468336133
 0.9545221365202252 -56.086820221105036 0.040810292638372124 -21.33297671481192 0.000745366028632247 159.60977307759424 0.00023078768620860666 167.3514211157406
 0.16538002965604928 32.42790329638207 0.18134931895908102 -146.30710603681072 0.009844671157856298 32.28483427105532 0.0013840919615492756 44.88133840398083
 0.040810292638372124 -21.33297671481192 0.9544379153910114 -56.08888920884976 0.0017809998869360891 -35.94902413138169 0.0007453303850292747 159.605367818541
 0.0013839570575304731 44.881344240061054 0.009844671157856298 32.28483427105532 0.1813157345090691 -146.3072591451627 0.16538952517571046 32.427294349231325
 0.000745366028632247 159.60977307759424 0.0017809998869360891 -35.94902413138169 0.9544427721694813 -56.08854035085579 0.04081430739229104 -21.325113128523892
 0.00014419913426106046 26.381837468336133 0.0013840919615492756 44.88133840398083 0.16538952517571046 32.427294349231325 0.1812576457725601 -146.3066031045377
 0.00023078768620860666 167.3514211157406 0.0007453303850292747 159.605367818541 0.04081430739229104 -21.325113128523892 0.9545179000064391 -56.08789968326581
 0.9545221600107905 -56.086813436715424 0.04081019426985159 -21.332890637092987 0.0007453577950537969 159.6097985213095 0.0002335758966676575 167.29526157923482
 0.18124383507794745 -146.30521996423107 0.16538005053118415 32.42786609728186 0.0013839545056123772 44.88162117193458 0.0001464119973675468 24.853828712300746
 0.04081019426985159 -21.332890637092987 0.9544378782025149 -56.08889572224636 0.0017836528126724937 -35.92035068757068 0.0007453177508411531 159.60557528577317
 0.16538005053118415 32.42786609728186 0.18134914231840296 -146.30706945463768 0.009842924397613913 32.3087322897381 0.0013840892982126833 44.881755671741026
 0.0007453577950537969 159.6097985213095 0.0017836528126724937 -35.92035068757068 0.954442687100694 -56.088550851222806 0.04081420874900945 -21.325026907515813
 0.0013839545056123772 44.88162117193458 0.009842924397613913 32.3087322897381 0.1813154790498794 -146.30718966641098 0.16538954602754516 32.42725709870209
 0.0002335758966676575 167.29526157923482 0.0007453177508411531 159.60557528577317 0.04081420874900945 -21.325026907515813 0.9545179712243516 -56.08788891444751
 0.0001464119973675468 24.853828712300746 0.0013840892982126833 44.881755671741026 0.16538954602754516 32.42725709870209 0.18125790169854156 -146.3066734104912
600000000.0 0.19910766309005326 -156.6922921512675 0.1812222885443194 22.232804767522325 0.0016114105750650058 31.077443308403424 0.00015769783019867073 17.960449508899263
 0.9458745149134772 -66.69459005298715 0.044765479157535155 -41.90318675868545 0.0007936670448011087 139.93215333325702 0.0002621043591468488 144.2956480392545
 0.1812222885443194 22.232804767522325 0.199217098236681 -156.69329159645082 0.010796877181924562 22.219155315854636 0.0016115638561366456 31.077654494371057
 0.044765479157535155 -41.90318675868545 0.9457779338812162 -66.69601142953212 0.002030171272605779 -58.64606894605108 0.0007936284763778945 139.9269857297368
 0.0016114105750650058 31.077443308403424 0.010796877181924562 22.219155315854636 0.1991800075785429 -156.69349462247735 0.18123247386990965 22.232000005528295
 0.0007936670448011087 139.93215333325702 0.002030171272605779 -58.64606894605108 0.9457839741603913 -66.6956685370769 0.04476880262960558 -41.893840371141906
 0.00015769783019867073 17.960449508899263 0.0016115638561366456 31.077654494371057 0.18123247386990965 22.232000005528295 0.19912211907150837 -156.69391446652295
 0.0002621043591468488 144.2956480392545 0.0007936284763778945 139.9269857297368 0.04476880262960558 -41.893840371141906 0.9458696199365197 -66.69580220755824
 0.9458745506995797 -66.69458454039481 0.044765361488939975 -41.903105235834616 0.0007936586797729873 139.93218591356026 0.0002648910896432558 144.3119069691946
 0.19910784201617143 -156.69235167660688 0.1812222849586291 22.23275370403711 0.001611408909017362 31.07779259621125 0.00015967811810529837 15.783347036426747
 0.044765361488939975 -41.903105235834616 0.9457778757216047 -66.69601643140749 0.002032710725975004 -58.61349353933124 0.0007936145406672883 139.9271955584259
 0.1812222849586291 22.23275370403711 0.1992169192613822 -156.6932331522799 0.010795469707271197 22.25199391738986 0.0016115628578249066 31.078191096040193
 0.0007936586797729873 139.93218591356026 0.002032710725975004 -58.61349353933124 0.9457838592647949 -66.69567732474358 0.04476868463845576 -41.893758731575055
 0.001611408909017362 31.07779259621125 0.010795469707271197 22.25199391738986 0.19917974143027853 -156.6933869520481 0.18123247022267516 22.231948872725514
 0.0002648910896432558 144.3119069691946 0.0007936145406672883 139.9271955584259 0.04476868463845576 -41.893758731575055 0.9458697122501177 -66.69579291173307
 0.00015967811810529837 15.783347036426747 0.0016115628578249066 31.078191096040193 0.18123247022267516 22.231948872725514 0.19912238521798073 -156.6940231920682
700000000.0 0.21017849270904784 -166.75773486577447 0.1909398562447984 12.35963623838566 0.0017636971096106305 16.949404869268236 0.00016794680942917268 8.676310615838267
 0.9394360345947096 -77.17460411951238 0.047227198483857466 -62.110270393772204 0.000815408550291442 120.93009671430929 0.0002821638259203261 121.03273726831344
 0.1909398562447984 12.35963623838566 0.21028970821411747 -166.75706447523095 0.011394259936166289 12.446672479638456 0.0017638614021777733 16.949889646715036
 0.047227198483857466 -62.110270393772204 0.9393315481252532 -77.17516141660509 0.0022437261356662783 -80.63664604971828 0.000815368540038819 120.92420201823039
 0.0017636971096106305 16.949404869268236 0.011394259936166289 12.446672479638456 0.21025035839123532 -166.75730557449964 0.19095020286636694 12.358611072379682
 0.000815408550291442 120.93009671430929 0.0022437261356662783 -80.63664604971828 0.9393385068348201 -77.17484672583261 0.04722928151442116 -62.0994194127819
 0.00016794680942917268 8.676310615838267 0.0017638614021777733 16.949889646715036 0.19095020286636694 12.358611072379682 0.21019268001692218 -166.75954871467061
 0.0002821638259203261 121.03273726831344 0.000815368540038819 120.92420201823039 0.04722928151442116 -62.0994194127819 0.9394309400803444 -77.17593459739537
 0.9394360498924957 -77.17460065402838 0.0472270811282708 -62.110209565654785 0.0008154014253670289 120.93011241704201 0.0002841498196721849 121.14614392283865
 0.2101786372455261 -166.75781332355396 0.1909398066751808 12.359573173539578 0.0017636971027907183 16.949813362004587 0.00016905682143829895 5.9404905704806765
 0.0472270811282708 -62.110209565654785 0.9393315008541173 -77.17516407294733 0.0022453667444412213 -80.6045879600354 0.0008153554400242403 120.9243524356051
 0.1909398066751808 12.359573173539578 0.2102895627953194 -166.7569872751987 0.011393878196163727 12.487463103662497 0.0017638633312218595 16.95053378547426
 0.0008154014253670289 120.93011241704201 0.0022453667444412213 -80.6045879600354 0.9393384173996228 -77.17485234017782 0.04722916382326492 -62.09935852382678
 0.0017636971027907183 16.949813362004587 0.011393878196163727 12.487463103662497 0.2102501393507449 -166.75716251428403 0.1909501531719764 12.358547920176498
 0.0002841498196721849 121.14614392283865 0.0008153554400242403 120.9243524356051 0.04722916382326492 -62.09935852382678 0.9394309972931917 -77.17592817641795
 0.00016905682143829895 5.9404905704806765 0.0017638633312218595 16.95053378547426 0.1909501531719764 12.358547920176498 0.21019289827229792 -166.7596929982662
800000000.0 0.2146289622787994 -176.6118943821373 0.19476185358372503 2.697923221449169 0.0018277560596770463 2.681695809233929 0.00017216818840511252 -1.5021583232389588
 0.9355666264991094 -87.58029866293104 0.048241364967917914 -82.02711923302178 0.0008144736263669752 102.3484334907332 0.0002898402811635393 97.70910484261402
 0.19476185358372503 2.697923221449169 0.21474132887111821 -176.6091325120198 0.011647322958974062 2.8579407383354893 0.0018279236288696367 2.6825256959865573
 0.048241364967917914 -82.02711923302178 0.9354591506397325 -87.57987918195761 0.002422278329323573 -102.04135665860451 0.0008144336256859832 102.3418129306597
 0.0018277560596770463 2.681695809233929 0.011647322958974062 2.8579407383354893 0.2147009451574831 -176.6094100023662 0.19477180196477423 2.696656190247147
 0.0008144736263669752 102.3484334907332 0.002422278329323573 -102.04135665860451 0.9354666897354086 -87.57960743720027 0.048241682386244315 -82.01471850481636
