! Created with skrf (http://scikit-rf.org).
# Hz S MA R 50.0 
!freq magS11 angS11 magS21 angS21 magS12 angS12 magS22 angS22
40000000.0 0.13080936242056962 -1.2689232654484663 0.4819998414544489 -0.5444069315413378 0.4819998414544488 -0.5444069315413385 0.13080936242056956 -1.2689232654484657
80000000.0 0.13084730875784623 -2.537438455271751 0.4819884039952875 -1.0888014163121533 0.4819884039952875 -1.0888014163121524 0.13084730875784623 -2.537438455271752
120000000.0 0.13091051033497622 -3.8051385678175587 0.48196934514884043 -1.633171011972631 0.4819693451488403 -1.633171011972631 0.13091051033497636 -3.8051385678175578
160000000.0 0.1309989038174979 -5.071618742099994 0.48194267029090576 -2.177503285041021 0.481942670290906 -2.1775032850410168 0.13099890381749785 -5.071618742100003
200000000.0 0.13111240082211137 -6.336477310026569 0.48190838694273463 -2.7217858153142935 0.4819083869427344 -2.7217858153142958 0.13111240082211129 -6.336477310026571
240000000.0 0.1312508881990218 -7.599316827153976 0.4818665047661717 -3.266006200278779 0.48186650476617154 -3.2660062002787797 0.13125088819902186 -7.599316827153975
280000000.0 0.13141422839127065 -8.859745075237317 0.48181703555741767 -3.8101520595074367 0.48181703555741756 -3.8101520595074367 0.13141422839127065 -8.859745075237319
320000000.0 0.13160225986836716 -10.11737603018767 0.48175999323942226 -4.354211039040484 0.48175999323942226 -4.354211039040486 0.13160225986836716 -10.117376030187664
360000000.0 0.1318147976310087 -11.37183078947755 0.4816953938529169 -4.898170815746074 0.4816953938529169 -4.898170815746078 0.13181479763100878 -11.371830789477526
400000000.0 0.13205163378320073 -12.622738453524882 0.4816232555460948 -5.4420191016578165 0.48162325554609464 -5.442019101657821 0.1320516337832008 -12.622738453524871
440000000.0 0.1323125381676568 -13.86973695613289 0.4815435985629577 -5.985743648285838 0.4815435985629576 -5.985743648285844 0.1323125381676569 -13.86973695613287
480000000.0 0.13259725905998457 -15.112473839657145 0.4814564452303392 -6.529332250898315 0.4814564452303392 -6.529332250898318 0.13259725905998457 -15.112473839657136
520000000.0 0.13290552391684293 -16.350606971200175 0.48136181994361915 -7.072772752770252 0.48136181994361904 -7.072772752770252 0.13290552391684288 -16.350606971200182
560000000.0 0.13323704017299615 -17.583805196787047 0.48125974915115194 -7.616053049396414 0.4812597491511517 -7.616053049396411 0.13323704017299615 -17.58380519678706
600000000.0 0.13359149608198942 -18.81174893114224 0.48115026133742445 -8.159161092665437 0.48115026133742445 -8.159161092665434 0.1335914960819893 -18.81174893114225
640000000.0 0.13396856159503504 -20.034130681356697 0.48103338700496184 -8.702084894992037 0.48103338700496184 -8.70208489499204 0.1339685615950351 -20.034130681356697
680000000.0 0.13436788927261556 -21.25065550339458 0.48090915865501077 -9.24481253340442 0.4809091586550105 -9.244812533404428 0.13436788927261573 -21.25065550339456
720000000.0 0.13478911522329193 -22.4610413910324 0.4807776107670134 -9.787332153584082 0.48077761076701364 -9.787332153584078 0.1347891152232919 -22.461041391032403
760000000.0 0.1352318600642379 -23.66501959743875 0.48063877977690683 -10.329631973855056 0.4806387797769068 -10.32963197385506 0.13523186006423793 -23.665019597438736
800000000.0 0.13569572989811077 -24.86233489018509 0.48049270405426514 -10.871700289119973 0.48049270405426525 -10.871700289119959 0.13569572989811074 -24.862334890185103
840000000.0 0.1361803173009997 -26.052745741018462 0.4803394238783192 -11.413525474740274 0.4803394238783192 -11.41352547474027 0.1361803173009998 -26.052745741018434
880000000.0 0.1366852023163741 -27.23602445222095 0.4801789814128766 -11.955095990357881 0.4801789814128766 -11.955095990357881 0.13668520231637415 -27.236024452220953
920000000.0 0.13720995345016856 -28.41195722182478 0.4800114206801758 -12.496400383655933 0.48001142068017605 -12.496400383655931 0.13720995345016845 -28.411957221824792
960000000.0 0.13775412866239248 -29.58034415034085 0.4798367875337019 -13.037427294056105 0.47983678753370185 -13.0374272940561 0.13775412866239248 -29.580344150340874
1000000000.0 0.13831727635092736 -30.740999191994053 0.4796551296299968 -13.578165456350055 0.479655129629997 -13.578165456350055 0.13831727635092722 -30.74099919199407
1040000000.0 0.13889893632347536 -31.893750053736095 0.4794664963994996 -14.118603704263 0.47946649639949973 -14.118603704262995 0.13889893632347539 -31.893750053736095
1080000000.0 0.1394986407539413 -33.03843804553053 0.4792709390164456 -14.65873097394695 0.4792709390164456 -14.65873097394695 0.1394986407539413 -33.03843804553053
1120000000.0 0.1401159151198534 -34.17491788557253 0.47906851036786235 -15.198536307401712 0.47906851036786213 -15.198536307401712 0.14011591511985352 -34.17491788557255
1160000000.0 0.14075027911777244 -35.30305746422278 0.47885926502169646 -15.738008855821613 0.47885926502169646 -15.738008855821613 0.14075027911777235 -35.3030574642228
1200000000.0 0.14140124755396583 -36.422737570502484 0.4786432591941078 -16.277137882866025 0.47864325919410766 -16.27713788286603 0.14140124755396588 -36.4227375705025
1240000000.0 0.14206833120797338 -37.53385158501786 0.47842055071596623 -16.815912767851923 0.47842055071596623 -16.815912767851923 0.14206833120797321 -37.53385158501788
1280000000.0 0.14275103766700764 -38.63630514316216 0.4781911989985919 -17.354323008866814 0.4781911989985919 -17.35432300886682 0.1427510376670077 -38.63630514316213
1320000000.0 0.1434488721294689 -39.730015772384974 0.4779552649987708 -17.892358225800294 0.4779552649987708 -17.892358225800276 0.14344887212946894 -39.73001577238499
1360000000.0 0.14416133817615503 -40.81491250722741 0.47771281118309084 -18.430008163292914 0.4777128111830909 -18.4300081632929 0.14416133817615503 -40.81491250722741
1400000000.0 0.14488793850804874 -41.89093548569999 0.4774639014916304 -18.967262693600848 0.4774639014916306 -18.967262693600844 0.14488793850804865 -41.89093548569998
1440000000.0 0.14562817564984554 -42.95803553043617 0.4772086013010445 -19.504111819375012 0.47720860130104437 -19.50411181937501 0.1456281756498456 -42.958035530436185
1480000000.0 0.14638155261865057 -44.01617371788739 0.47694697738708086 -20.04054567635363 0.4769469773870811 -20.04054567635363 0.1463815526186505 -44.0161737178874
1520000000.0 0.14714757355751237 -45.065320938644156 0.4766790978865736 -20.57655453596688 0.47667909788657375 -20.576554535966864 0.14714757355751237 -45.06532093864418
1560000000.0 0.14792574433369707 -46.1054574517737 0.47640503225894515 -21.112128807852912 0.4764050322589454 -21.11212880785293 0.147925744333697 -46.105457451773695
1600000000.0 0.14871557310180367 -47.13657243586124 0.47612485124726367 -21.647259042284134 0.4761248512472639 -21.647259042284134 0.14871557310180356 -47.13657243586127
1640000000.0 0.14951657083201517 -48.158663539234105 0.4758386268388902 -22.18193593250306 0.4758386268388904 -22.181935932503052 0.14951657083201517 -48.158663539234105
1680000000.0 0.15032825180394116 -49.17173643163743 0.47554643222575765 -22.716150316967003 0.4755464322257576 -22.71615031696702 0.15032825180394116 -49.17173643163742
1720000000.0 0.15115013406665978 -50.175804359420134 0.47524834176432124 -23.249893181501164 0.47524834176432146 -23.24989318150115 0.15115013406665972 -50.17580435942016
1760000000.0 0.15198173986569502 -51.17088770608255 0.47494443093521743 -23.78315566135938 0.4749444309352175 -23.78315566135937 0.15198173986569502 -51.17088770608256
1800000000.0 0.15282259603777335 -52.15701355983426 0.4746347763026717 -24.315929043192327 0.4746347763026716 -24.315929043192323 0.1528225960377733 -52.15701355983426
1840000000.0 0.15367223437430344 -53.134215289615774 0.4743194554736957 -24.848204766922898 0.4743194554736957 -24.848204766922898 0.15367223437430333 -53.13421528961578
1880000000.0 0.154530191954596 -54.102532130848516 0.47399854705710737 -25.379974427528527 0.4739985470571075 -25.379974427528506 0.15453019195459602 -54.10253213084854
1920000000.0 0.1553960114499072 -55.062008781998976 0.4736721306224175 -25.911229776730156 0.4736721306224173 -25.911229776730174 0.15539601144990717 -55.06200878199895
1960000000.0 0.15626924139943524 -56.01269501287403 0.47334028665861466 -26.441962724588336 0.47334028665861455 -26.441962724588347 0.15626924139943527 -56.012695012874026
2000000000.0 0.1571494364594412 -56.95464528540579 0.4730030965328911 -26.972165341006036 0.4730030965328911 -26.972165341006043 0.1571494364594413 -56.954645285405746
2040000000.0 0.15803615762668427 -57.887918387535386 0.47266064244934075 -27.501829857138652 0.47266064244934075 -27.501829857138645 0.15803615762668427 -57.88791838753536
2080000000.0 0.15892897243738005 -58.81257708067076 0.47231300740766907 -28.030948666711403 0.4723130074076689 -28.030948666711385 0.1589289724373801 -58.81257708067076
2120000000.0 0.15982745514289565 -59.728687761065515 0.4719602751619473 -28.559514327244383 0.4719602751619476 -28.55951432724438 0.1598274551428956 -59.72868776106547
2160000000.0 0.16073118686338816 -60.63632013535257 0.4716025301794479 -29.08751956118598 0.47160253017944787 -29.08751956118598 0.16073118686338805 -60.636320135352584
2200000000.0 0.16163975572058784 -61.53554691036346 0.47123985759959286 -29.614957256954828 0.4712398575995929 -29.614957256954842 0.1616397557205878 -61.53554691036346
2240000000.0 0.16255275695090587 -62.426443497268345 0.47087234319304855 -30.141820469891087 0.4708723431930485 -30.1418204698911 0.16255275695090576 -62.42644349726835
2280000000.0 0.16346979300002534 -63.30908772999144 0.4705000733210006 -30.6681024231179 0.47050007332100063 -30.668102423117862 0.16346979300002534 -63.30908772999144
2320000000.0 0.1643904736001096 -64.18355959778101 0.4701231348946386 -31.19379650831339 0.47012313489463853 -31.193796508313405 0.1643904736001096 -64.18355959778101
2360000000.0 0.1653144158307249 -65.04994099174911 0.46974161533488135 -31.71889628639438 0.4697416153348816 -31.71889628639438 0.1653144158307248 -65.04994099174914
2400000000.0 0.1662412441645477 -65.90831546514102 0.46935560253237396 -32.24339548811262 0.4693556025323738 -32.24339548811264 0.16624124416454766 -65.908315465141
2440000000.0 0.1671705904988838 -66.75876800704413 0.46896518480778293 -32.76728801456438 0.4689651848077828 -32.76728801456437 0.16717059049888378 -66.75876800704415
2480000000.0 0.1681020941739904 -67.60138482920888 0.46857045087242005 -33.290567937614576 0.46857045087242 -33.29056793761459 0.16810209417399055 -67.60138482920885
2520000000.0 0.1690354019791542 -68.43625316561617 0.4681714897892189 -33.81322950023658 0.4681714897892188 -33.81322950023659 0.16903540197915415 -68.4362531656162
2560000000.0 0.1699701681474309 -69.26346108440289 0.4677683909340932 -34.33526711676869 0.46776839093409334 -34.33526711676869 0.16997016814743085 -69.26346108440289
2600000000.0 0.17090605433992048 -70.08309731173001 0.46736124395769907 -34.85667537308859 0.46736124395769907 -34.85667537308859 0.17090605433992045 -70.08309731173003
2640000000.0 0.1718427296203989 -70.89525106716658 0.4669501387476271 -35.37744902670707 0.466950138747627 -35.377449026707055 0.171842729620399 -70.89525106716658
2680000000.0 0.17277987042109497 -71.70001191014546 0.46653516539104606 -35.897583006782206 0.46653516539104595 -35.89758300678221 0.17277987042109497 -71.70001191014549
2720000000.0 0.17371716050035463 -72.49746959704343 0.4661164141378213 -36.41707241405565 0.46611641413782146 -36.41707241405566 0.17371716050035463 -72.49746959704342
2760000000.0 0.17465429089289722 -73.28771394842978 0.4656939753641274 -36.93591252071202 0.4656939753641273 -36.93591252071203 0.1746542908928971 -73.2877139484298
2800000000.0 0.17559095985332498 -74.07083472603037 0.4652679395365772 -37.45409877016322 0.4652679395365771 -37.454098770163206 0.17559095985332504 -74.07083472603034
2840000000.0 0.17652687279351617 -74.84692151895246 0.464838397176882 -37.971626776759 0.4648383971768818 -37.971626776759 0.17652687279351614 -74.84692151895247
2880000000.0 0.17746174221448177 -75.61606363872296 0.46440543882706753 -38.48849232542531 0.4644054388270675 -38.48849232542527 0.17746174221448177 -75.61606363872296
2920000000.0 0.17839528763324647 -76.37835002269634 0.4639691550152548 -39.00469137123201 0.4639691550152548 -39.004691371232 0.17839528763324639 -76.37835002269635
2960000000.0 0.1793272355052621 -77.13386914539949 0.46352963622202714 -39.520220038891594 0.46352963622202725 -39.52022003889162 0.1793272355052622 -77.13386914539946
3000000000.0 0.1802573191428447 -77.88270893738768 0.46308697284739636 -40.035074622190386 0.4630869728473962 -40.03507462219037 0.1802573191428447 -77.88270893738768
3040000000.0 0.18118527863007886 -78.62495671119987 0.4626412551783817 -40.54925158335416 0.46264125517838167 -40.54925158335416 0.1811852786300789 -78.62495671119989
3080000000.0 0.18211086073461752 -79.36069909401023 0.46219257335721553 -41.06274755234948 0.46219257335721536 -41.06274755234949 0.18211086073461755 -79.36069909401024
3120000000.0 0.18303381881676223 -80.09002196658872 0.46174101735018375 -41.57555932612266 0.46174101735018386 -41.57555932612266 0.18303381881676223 -80.09002196658872
3160000000.0 0.18395391273619305 -80.81301040819523 0.4612866769171195 -42.08768386777817 0.46128667691711933 -42.087683867778146 0.18395391273619308 -80.81301040819523
3200000000.0 0.18487090875668222 -81.5297486470458 0.4608296415815499 -42.59911830569792 0.46082964158154976 -42.59911830569789 0.18487090875668227 -81.5297486470458
3240000000.0 0.18578457944910717 -82.24032001600447 0.4603700006015143 -43.10985993260337 0.4603700006015144 -43.10985993260337 0.18578457944910717 -82.24032001600447
3280000000.0 0.18669470359304904 -82.94480691316784 0.45990784294105397 -43.619906204562035 0.4599078429410542 -43.619906204562035 0.18669470359304902 -82.94480691316785
3320000000.0 0.1876010660772491 -83.64329076702423 0.4594432572423877 -44.1292547399406 0.45944325724238755 -44.129254739940606 0.18760106607724925 -83.64329076702421
3360000000.0 0.1885034577991642 -84.33585200588418 0.45897633179877134 -44.63790331830552 0.4589763317987713 -44.637903318305526 0.18850345779916422 -84.33585200588416
3400000000.0 0.18940167556385187 -85.02257003129208 0.4585071545280548 -45.14584987927386 0.4585071545280547 -45.145849879273825 0.1894016755638519 -85.02257003129206
3440000000.0 0.19029552198239377 -85.70352319514411 0.45803581294693324 -45.65309252131549 0.4580358129469332 -45.65309252131549 0.19029552198239372 -85.70352319514411
3480000000.0 0.1911848053700467 -86.37878878025074 0.4575623941459025 -46.159629500508586 0.4575623941459027 -46.15962950050855 0.1911848053700466 -86.37878878025074
3520000000.0 0.1920693396443002 -87.04844298409557 0.45708698476491644 -46.665459229250224 0.45708698476491605 -46.665459229250224 0.1920693396443003 -87.04844298409556
3560000000.0 0.1929489442229981 -87.71256090555566 0.4566096709697503 -47.170580274923786 0.4566096709697503 -47.17058027492378 0.1929489442229982 -87.71256090555565
3600000000.0 0.193823443922673 -88.37121653436171 0.45613053842907175 -47.674991358524956 0.45613053842907175 -47.674991358524984 0.193823443922673 -88.3712165343617
3640000000.0 0.1946926688572263 -89.02448274308716 0.45564967229221764 -48.178691353247935 0.4556496722922176 -48.17869135324795 0.19469266885722633 -89.02448274308715
3680000000.0 0.19555645433707544 -89.67243128146961 0.45516715716767814 -48.68167928303381 0.45516715716767825 -48.681679283033795 0.1955564543370755 -89.67243128146961
3720000000.0 0.19641464076887946 -90.31513277287718 0.45468307710228634 -49.183954321082474 0.4546830771022863 -49.183954321082474 0.19641464076887954 -90.31513277287715
3760000000.0 0.19726707355594117 -90.95265671274488 0.4541975155611106 -49.68551578833022 0.4541975155611106 -49.68551578833023 0.19726707355594117 -90.95265671274493
3800000000.0 0.19811360299937644 -91.58507146881654 0.4537105554080488 -50.186363151894234 0.4537105554080488 -50.18636315189423 0.19811360299937644 -91.58507146881655
3840000000.0 0.19895408420013466 -92.21244428303653 0.45322227888712024 -50.68649602348594 0.45322227888711997 -50.68649602348594 0.1989540842001346 -92.21244428303655
3880000000.0 0.19978837696193774 -92.83484127494779 0.45273276760445025 -51.1859141577949 0.4527327676044501 -51.185914157794926 0.19978837696193774 -92.83484127494776
3920000000.0 0.20061634569520792 -93.45232744645882 0.45224210251094676 -51.68461745084454 0.4522421025109468 -51.68461745084454 0.20061634569520795 -93.45232744645882
3960000000.0 0.20143785932203984 -94.06496668785378 0.4517503638856594 -52.1826059383217 0.45175036388565937 -52.182605938321714 0.20143785932203978 -94.06496668785377
4000000000.0 0.20225279118226883 -94.67282178492623 0.4512576313198176 -52.67987979388142 0.45125763131981755 -52.67987979388142 0.20225279118226883 -94.67282178492623
4040000000.0 0.20306101894068118 -95.27595442712587 0.4507639837015448 -53.1764393274284 0.4507639837015447 -53.1764393274284 0.20306101894068118 -95.27595442712587
4080000000.0 0.20386242449540673 -95.87442521661538 0.45026949920123494 -53.67228498337696 0.4502694992012351 -53.67228498337696 0.20386242449540673 -95.87442521661539
4120000000.0 0.20465689388752717 -96.46829367814016 0.44977425525759174 -54.16741733889074 0.44977425525759196 -54.16741733889074 0.20465689388752722 -96.46829367814011
4160000000.0 0.20544431721193165 -97.05761826962225 0.4492783285643181 -54.66183710210373 0.44927832856431815 -54.661837102103746 0.20544431721193154 -97.05761826962222
4200000000.0 0.20622458852944506 -97.64245639339508 0.44878179505745175 -55.15554511032416 0.4487817950574517 -55.15554511032418 0.2062245885294451 -97.64245639339507
4240000000.0 0.20699760578025062 -98.22286440800106 0.448284729903334 -55.64854232822245 0.448284729903334 -55.64854232822246 0.20699760578025062 -98.22286440800104
4280000000.0 0.20776327069862482 -98.79889764048137 0.4477872074872094 -56.140829846004955 0.44778720748720935 -56.14082984600496 0.2077632706986248 -98.79889764048136
4320000000.0 0.20852148872900014 -99.37061039909075 0.4472893014024402 -56.63240887757452 0.4472893014024403 -56.632408877574534 0.2085214887290001 -99.37061039909074
4360000000.0 0.20927216894336784 -99.93805598637627 0.4467910844403328 -57.12328075867949 0.4467910844403327 -57.12328075867949 0.20927216894336784 -99.9380559863763
4400000000.0 0.2100152239600277 -100.50128671256341 0.4462926285805621 -57.61344694505219 0.4462926285805618 -57.61344694505219 0.21001522396002767 -100.5012867125634
4440000000.0 0.21075056986369448 -101.06035390919659 0.44579400498218524 -58.10290901053846 0.4457940049821851 -58.10290901053844 0.2107505698636945 -101.06035390919658
4480000000.0 0.21147812612696348 -101.61530794298695 0.445295283975236 -58.591668645219215 0.4452952839752363 -58.591668645219215 0.21147812612696334 -101.61530794298693
4520000000.0 0.21219781553313605 -102.16619822982146 0.4447965350528875 -59.07972765352551 0.4447965350528876 -59.079727653525524 0.2121978155331361 -102.16619822982145
4560000000.0 0.21290956410040948 -102.71307324889415 0.4442978268641733 -59.56708795234796 0.44429782686417313 -59.56708795234793 0.21290956410040954 -102.71307324889415
4600000000.0 0.21361330100742504 -103.25598055692103 0.4437992272072559 -60.05375156914198 0.44379922720725595 -60.05375156914196 0.21361330100742498 -103.25598055692103
4640000000.0 0.2143089585201744 -103.79496680240462 0.443300803023234 -60.53972064002998 0.443300803023234 -60.53972064002998 0.2143089585201744 -103.7949668024046
4680000000.0 0.21499647192025853 -104.33007773991697 0.4428026203904715 -61.02499740790107 0.4428026203904717 -61.02499740790107 0.2149964719202585 -104.33007773991696
4720000000.0 0.21567577943449415 -104.8613582443728 0.4423047445194453 -61.509584220510185 0.4423047445194451 -61.509584220510185 0.21567577943449415 -104.8613582443728
