! Created with skrf (http://scikit-rf.org).
# Hz S MA R 50.0 
!freq magS11 angS11 magS12 angS12 magS13 angS13
! magS14 angS14
! magS21 angS21 magS22 angS22 magS23 angS23
! magS24 angS24
! magS31 angS31 magS32 angS32 magS33 angS33
! magS34 angS34
! magS41 angS41 magS42 angS42 magS43 angS43
! magS44 angS44
!
40000000.0 0.007455493197167863 -176.1327326956188 0.03823187128750806 -13.325774943008684 0.9607527756873099 -104.08505138594067 0.001298008488957023 -40.68644453493598
 0.03823187128750806 -13.325774943008684 0.007521488118403621 -175.94421289868583 0.001298008488957023 -40.68644453493598 0.9606750327308969 -104.07869971316528
 0.9607527715956342 -104.0850516128602 0.001298008237810909 -40.68645101530239 0.0074555003316716315 -176.13274050501747 0.038231871173271495 -13.325775464170054
 0.001298008237810909 -40.68645101530239 0.9606750368142449 -104.07869948795368 0.038231871173271495 -13.325775464170054 0.007521480987390969 -175.94420497950128
80000000.0 0.003510297966115424 -126.41224539031207 0.01810738383519071 55.465629529081376 0.9391565980147578 152.15230665450557 0.002670884558482803 -125.62019148251831
 0.01810738383519071 55.465629529081376 0.0035401440990387397 -126.11329877316415 0.002670884558482803 -125.62019148251831 0.9390245372464783 152.16767657426715
 0.9391565801966596 152.15230728946474 0.0026708842953997503 -125.6201677209077 0.0035103127230904523 -126.41214973100813 0.018107383353011937 55.465627331979626
 0.0026708842953997503 -125.6201677209077 0.939024555037043 152.16767593756856 0.018107383353011937 55.465627331979626 0.0035401293117571404 -126.11339237893392
120000000.0 0.00532937836644303 129.78181510440444 0.028226339364031947 -36.04784566229303 0.907665904124803 49.04649163458479 0.0036848756907274997 128.11866898195484
 0.028226339364031947 -36.04784566229303 0.005383646731597338 130.2263158705823 0.0036848756907274997 128.11866898195484 0.9074965233060484 49.073943881657044
 0.90766588114058 49.046488218572925 0.0036848722952001083 128.11864991886281 0.005329433080716155 129.7820811565061 0.028226336554594826 -36.04785086602584
 0.0036848722952001083 128.11864991886281 0.9074965461666831 49.073947285614146 0.028226336554594826 -36.04785086602584 0.0053835918271419245 130.22605701701218
160000000.0 0.0058276069397580205 -173.3385474361411 0.029076299721968263 30.94010824504039 0.8725048462674914 -53.4774237209951 0.004879656914434501 22.86497317579573
 0.029076299721968263 30.94010824504039 0.005879271195161119 -172.8594904097351 0.004879656914434501 22.86497317579573 0.8723385598213029 -53.43677133150132
 0.8725047215746742 -53.4774182124611 0.004879655668133866 22.865090993528863 0.005827716766057646 -173.33803351139565 0.0290762927974919 30.940100408053905
 0.004879655668133866 22.865090993528863 0.8723386839374127 -53.43677685828471 0.0290762927974919 30.940100408053905 0.005879160936572509 -172.85999087310591
200000000.0 0.002910146228815257 101.63685115526916 0.015536123995983473 -44.12454014725729 0.8376518728034781 -155.32648967380842 0.005485747907168693 -79.34370782331617
 0.015536123995983473 -44.12454014725729 0.0029443776762183714 102.2059753630424 0.005485747907168693 -79.34370782331617 0.8375241244179642 -155.2727968007963
 0.8376518748440792 -155.32649736390943 0.005485741552187899 -79.34376043577626 0.0029102322644484076 101.6377943852037 0.01553611721178748 -44.12454835340617
 0.005485741552187899 -79.34376043577626 0.8375241223478145 -155.27278912540555 0.01553611721178748 -44.12454835340617 0.0029442911696346756 102.20505971665042
240000000.0 0.00670619045070482 148.00335607176473 0.03283297395890709 10.595603612691015 0.8043869283432918 103.27884635321229 0.006122125585657869 176.2937624350495
 0.03283297395890709 10.595603612691015 0.006761374519485214 148.58810975453753 0.006122125585657869 176.2937624350495 0.804314987143521 103.34412022653667
 0.8043865906436825 103.27885748787271 0.006122119864031924 176.29401723021246 0.006706442460424632 148.0045894721049 0.032832952414621315 10.59559787224773
 0.006122119864031924 176.29401723021246 0.8043153228460515 103.34410905711867 0.032832952414621315 10.59559787224773 0.006761121052950227 148.58690817913188
280000000.0 0.0015189700939270796 129.86999030012635 0.00831480849082269 -6.5444789502185445 0.7750458348716871 2.3001352987811203 0.006645911844856414 76.049616758081
 0.00831480849082269 -6.5444789502185445 0.0015344968453296095 130.1780502307016 0.006645911844856414 76.049616758081 0.775037276777018 2.3751455699173842
 0.775045949682194 2.300132213023881 0.006645913933874907 76.04953846904957 0.0015190539567627346 129.87162831029764 0.008314801281030557 -6.544479449649962
 0.006645913933874907 76.04953846904957 0.7750371621705788 2.3751486632989 0.008314801281030557 -6.544479449649962 0.001534412751418848 130.17644547351176
320000000.0 0.006455239411490456 116.16140735190145 0.03162631119318603 -5.756069293656908 0.7483194773315919 -98.39730031061607 0.006960119288404623 -25.879466589691617
 0.03162631119318603 -5.756069293656908 0.006502045403002932 116.81602028863834 0.006960119288404623 -25.879466589691617 0.7483685648176998 -98.31163051590025
 0.7483188791992572 -98.39729494426928 0.006960099226271102 -25.879111715771717 0.006455593306501013 116.16383810864829 0.031626275350637764 -5.7560631617692986
 0.006960099226271102 -25.879111715771717 0.7483691597418456 -98.31163594704337 0.031626275350637764 -5.7560631617692986 0.006501688413281982 116.81364254117679
360000000.0 0.0028245067349318967 150.52948851516152 0.013692465237647243 28.960090013045253 0.7253865655551814 161.0954789161531 0.007468269966843293 -126.028311643166
 0.013692465237647243 28.960090013045253 0.00283705187617338 151.04964739732253 0.007468269966843293 -126.028311643166 0.7254900633774168 161.18784262096796
 0.7253867759954182 161.0954985005095 0.0074682950393268315 -126.02835018488136 0.002824693292300626 150.5322522231544 0.01369244737270337 28.9601034057249
 0.0074682950393268315 -126.02835018488136 0.7254898525950078 161.18782312099825 0.01369244737270337 28.9601034057249 0.0028368640960991084 151.04692986017548
400000000.0 0.005491413037494437 90.69245893111035 0.02724083741789533 -18.283234798168703 0.7047672352987419 60.75649212319601 0.007698794859528409 133.92913068072605
 0.02724083741789533 -18.283234798168703 0.005524792066691249 91.36067220840525 0.007698794859528409 133.92913068072605 0.7049131013604124 60.85606779305792
 0.7047665300862682 60.75647288150674 0.007698753015346762 133.92943758646697 0.005491773908261706 90.69649718298305 0.027240796257821255 -18.28321322352256
 0.007698753015346762 133.92943758646697 0.7049138036779158 60.856086897152174 0.027240796257821255 -18.28321322352256 0.0055244267327943936 91.3567017352223
440000000.0 0.0043444300056652 135.3022322838703 0.020930022512255512 27.08739018849191 0.686802000617728 -39.52398652736389 0.008141796329309007 33.49997219905104
 0.020930022512255512 27.08739018849191 0.004359148310462615 135.93839743251493 0.008141796329309007 33.49997219905104 0.6869877263567273 -39.41599755386722
 0.6868020699154975 -39.52392718685058 0.008141850223265194 33.50010858303497 0.004344759709782202 135.3068116926748 0.020929985664350514 27.087419943805756
 0.008141850223265194 33.50010858303497 0.6869876546607001 -39.41605668921522 0.020929985664350514 27.087419943805756 0.00435881479860712 135.93388117962306
480000000.0 0.004143409889915094 72.87833582907348 0.021095250864849906 -25.265282107555368 0.6707156477710438 -139.70986722214752 0.00842219823110757 -65.66547958518653
 0.021095250864849906 -25.265282107555368 0.004165424319002631 73.51306043304679 0.00842219823110757 -65.66547958518653 0.6709313678364311 -139.59154065440586
 0.6707151351604935 -139.70992251154303 0.008422132291486592 -65.66535848884432 0.004143718732022587 72.88481812760118 0.021095206403590458 -25.265242638971877
 0.008422132291486592 -65.66535848884432 0.6709318792059643 -139.59148560082636 0.021095206403590458 -25.265242638971877 0.0041651103544894956 73.50665887427652
520000000.0 0.0053857447289052856 115.41215899050638 0.02603045051912823 17.293465668176704 0.6561795700148796 120.10604595485724 0.008764553876350232 -166.09858559582793
 0.02603045051912823 17.293465668176704 0.005399385928793503 116.07651244740129 0.008764553876350232 -166.09858559582793 0.6564216325574463 120.22604059152911
 0.6561791123462168 120.10613979076392 0.008764619139204038 -166.09815959797714 0.0053861699349739955 115.41872261653825 0.026030394616904987 17.293511005728075
 0.008764619139204038 -166.09815959797714 0.6564220846621575 120.22594701107819 0.026030394616904987 17.293511005728075 0.005398953666965056 116.0700171082756
560000000.0 0.0028004822476346202 69.02706878633418 0.01509349242778572 -20.974705125379685 0.6431768618334361 19.977544840848303 0.00912685804251604 94.79451291551885
 0.01509349242778572 -20.974705125379685 0.0028128064602122057 69.59663832033438 0.00912685804251604 94.79451291551885 0.6434410701361053 20.104325780008022
 0.6431769395379507 19.977478126504902 0.009126804470127106 94.79434934345934 0.0028006967124833038 69.0360304273586 0.015093456358110517 -20.974651654258242
 0.009126804470127106 94.79434934345934 0.6434409936487641 20.104392323423532 0.015093456358110517 -20.974651654258242 0.0028125877191587565 69.5877584249266
600000000.0 0.00584996709207004 95.75374048728767 0.028326185906668435 5.794749622252631 0.6309361833746386 -80.16532595167237 0.009387586811855619 -5.315047778371516
 0.028326185906668435 5.794749622252631 0.0058607603589204745 96.42966261121443 0.009387586811855619 -5.315047778371516 0.6312158330292024 -80.0313733426733
 0.6309349027721416 -80.16523334560296 0.009387629536005148 -5.314302873535599 0.005850416067134592 95.76267252215304 0.028326110533326777 5.794810830716473
 0.009387629536005148 -5.314302873535599 0.6312171048749422 -80.03146583611391 0.028326110533326777 5.794810830716473 0.005860300796780062 96.42079802426966
640000000.0 0.002255072955904577 88.88352314139429 0.012691620628913906 0.38235024318825594 0.6199226329300191 179.7077838654596 0.009792119662218001 -104.80212428522182
 0.012691620628913906 0.38235024318825594 0.0022572734381133674 89.34906214019531 0.009792119662218001 -104.80212428522182 0.620220258372888 179.8457225512166
 0.6199233767018445 179.70775588648647 0.00979211498956727 -104.80248761772187 0.0022552780702268416 88.89501104351197 0.012691584975396233 0.38241701296035985
 0.00979211498956727 -104.80248761772187 0.6202195168147607 179.84575062792524 0.012691584975396233 0.38241701296035985 0.002257064746677005 89.33762600084451
680000000.0 0.005731910185719464 77.76350373824859 0.027775261231805543 -5.333852821927192 0.6092433154293869 79.58067746422999 0.010026584448409877 155.49539540898473
 0.027775261231805543 -5.333852821927192 0.005739774616039035 78.41467729461473 0.010026584448409877 155.49539540898473 0.6095480325005955 79.72486884368634
 0.6092413760107364 79.58070671170712 0.010026563884830211 155.49625311235448 0.005732294928197842 77.77475393536136 0.027775175847834153 -5.33377807867124
 0.010026563884830211 155.49625311235448 0.6095499628013797 79.72483934127298 0.027775175847834153 -5.33377807867124 0.005739377325990392 78.40348533162323
720000000.0 0.0030184620900386874 104.22176639503475 0.015740422598956142 17.90810717637152 0.5994532241020912 -20.560253909590173 0.010416313887836306 55.5885587850216
 0.015740422598956142 17.90810717637152 0.0030142304707147976 104.7865232142998 0.010416313887836306 55.5885587850216 0.5997734702334907 -20.41015687029038
 0.5994542311100473 -20.560183909978477 0.010416389312131276 55.58823717050638 0.0030187350448286935 104.23480304277031 0.015740370264118148 17.908187607525566
 0.010416389312131276 55.58823717050638 0.5997724630999456 -20.4102263478806 0.015740370264118148 17.908187607525566 0.003013950914718746 104.77351762974969
760000000.0 0.0050957928420151235 62.66537164272844 0.024784523649984246 -14.373372769035143 0.589863835133764 -120.68091450642646 0.01067178940134549 -43.8510125825808
 0.024784523649984246 -14.373372769035143 0.005101343102831497 63.2894705886159 0.01067178940134549 -43.8510125825808 0.5901861135933824 -120.52283332563103
 0.5898618477540891 -120.68099767605801 0.010671684988356883 -43.850310899560405 0.005096056440463788 62.679448186812586 0.024784431888054785 -14.37328308912325
 0.010671684988356883 -43.850310899560405 0.5901880949681491 -120.52275086244126 0.024784431888054785 -14.37328308912325 0.005101066188698937 63.275440923007025
800000000.0 0.004186476833680505 100.36255651077781 0.020663087742674478 19.395821210728297 0.5807972354935993 139.1684687321161 0.010998510832806065 -143.9965176842286
 0.020663087742674478 19.395821210728297 0.004180115621087308 100.97391943533475 0.010998510832806065 -143.9965176842286 0.5811313842814178 139.3296318479068
 0.5807976455884085 139.16866008575712 0.010998659949961664 -143.99648058275508 0.0041867861616601285 100.37751882779676 0.020663008703287043 19.395914843409198
 0.010998659949961664 -143.99648058275508 0.5811309679996114 139.32944132596978 0.020663008703287043 19.395914843409198 0.004179794929401886 100.95897815626147
840000000.0 0.00410219004518823 52.95137263287232 0.02030023018721689 -18.66215236121102 0.5719717372918983 39.04046367636213 0.01129710433463956 116.57822978304658
 0.02030023018721689 -18.66215236121102 0.004106017036153116 53.50472829027005 0.01129710433463956 116.57822978304658 0.5723082758775403 39.208868118732966
 0.5719706929236907 39.040279036504536 0.011296949783234875 116.5784500665943 0.004102313669823 52.96829601944554 0.020300144899265557 -18.662050090386334
 0.011296949783234875 116.5784500665943 0.572309320645384 39.209051906586865 0.020300144899265557 -18.662050090386334 0.00410588207190983 53.48783702761937
880000000.0 0.005133503893579899 89.02656129242153 0.024593402120885087 13.082280798856129 0.5633372152746523 -61.113783655303806 0.011557099031416931 16.441578577987062
 0.024593402120885087 13.082280798856129 0.005125915647666439 89.65475472256637 0.011557099031416931 16.441578577987062 0.5636779104199963 -60.93645684314696
 0.5633360922561326 -61.11351232325752 0.011557276149073242 16.442228638633082 0.005133776214971692 89.04426396782405 0.02459328805402598 13.082390405132013
 0.011557276149073242 16.442228638633082 0.5636790188678952 -60.936727456136154 0.02459328805402598 13.082390405132013 0.00512562644126899 89.63705829596239
920000000.0 0.003091380735550647 54.059326434928714 0.016068260159422837 -13.783172435593329 0.5550279679560228 -161.24732935533106 0.011884005134959207 -83.16869541072246
 0.016068260159422837 -13.783172435593329 0.0030917600615254634 54.50371597354927 0.011884005134959207 -83.16869541072246 0.5553750564037319 -161.0662607656941
 0.5550285547493192 -161.24752806669053 0.011883873890709365 -83.16905867388624 0.003091404365306645 54.08007553068552 0.016068182139502035 -13.783057352036494
 0.011883873890709365 -83.16905867388624 0.5553744758613859 -161.0660624953013 0.016068182139502035 -13.783057352036494 0.003091728154518715 54.48297303319558
960000000.0 0.005629187553334641 75.71736310059892 0.02643321511161444 4.153929641291375 0.5466802669375481 98.60564691839873 0.012090986852025521 176.85033462785503
 0.02643321511161444 4.153929641291375 0.005622140682899635 76.31872778684365 0.012090986852025521 176.85033462785503 0.5470238067614874 98.79197731504932
 0.5466773135622971 98.60586615320011 0.012091091031123517 176.85150713902772 0.005629349101687649 75.73724629330081 0.026433079640094607 4.154050963228831
 0.012091091031123517 176.85150713902772 0.5470267411629541 98.79175801397909 0.026433079640094607 4.154050963228831 0.005621959317132503 76.29883678411227
1000000000.0 0.0027045965611723535 70.20125548789153 0.01464489439188054 1.1745277749523833 0.5386908238569695 -1.538101787585782 0.012414150313239825 76.97860823260478
 0.01464489439188054 1.1745277749523833 0.002697286105824272 70.58717634093269 0.012414150313239825 76.97860823260478 0.5390453698001024 -1.3446431102837901
 0.5386929108017352 -1.53816804016222 0.012414137801141617 76.9778617152965 0.0027046271261519025 70.22604737356322 0.014644813201360785 1.1746546247373195
 0.012414137801141617 76.9778617152965 0.5390432895568337 -1.344576298832004 0.014644813201360785 1.1746546247373195 0.00269724816579767 70.5623215222011
1040000000.0 0.0056044335815324834 62.756080547300805 0.025947542445172254 -4.7972932183776855 0.5305750426365251 -101.67144329973755 0.012607499129235901 -22.8126810802366
 0.025947542445172254 -4.7972932183776855 0.00559854728869625 63.335906191132366 0.012607499129235901 -22.8126810802366 0.5309186563392684 -101.47008081050451
 0.5305708228604566 -101.6714202486232 0.012607449972718543 -22.811263305093625 0.005604422685570416 62.77891444677452 0.025947386150820425 -4.797156537008397
 0.012607449972718543 -22.811263305093625 0.5309228589077211 -101.470105177239 0.025947386150820425 -4.797156537008397 0.005598536471499076 63.31304826530563
1080000000.0 0.003307128130591297 83.66466093604686 0.016921853428669135 13.125065303950041 0.5227546218518208 158.1821481365178 0.012892674559733428 -122.89212905151942
 0.016921853428669135 13.125065303950041 0.0032931355114528787 84.1471727117042 0.012892674559733428 -122.89212905151942 0.523111529062888 158.38768080513054
 0.5227570033714314 158.18234084100934 0.012892836601178147 -122.89277728724238 0.003307189372106704 83.69128362294984 0.016921747491348116 13.125204454264944
 0.012892836601178147 -122.89277728724238 0.5231091462052953 158.38748977570017 0.016921747491348116 13.125204454264944 0.003293062046244632 84.12044566985801
1120000000.0 0.005100521910368275 52.00145765526329 0.023489799247308107 -11.741005313991268 0.5148527170313818 58.06499470194206 0.013096976500944688 137.41941580997053
 0.023489799247308107 -11.741005313991268 0.005096650564673122 52.530034405848106 0.013096976500944688 137.41941580997053 0.5151972051903492 58.27720250792622
 0.5148489390277138 58.064737679700215 0.013096755023080534 137.42046914730818 0.005100331177620306 52.027002544560304 0.02348964125515448 -11.74085636721458
 0.013096755023080534 137.42046914730818 0.5152009769432098 58.2774572473091 0.02348964125515448 -11.74085636721458 0.005096821325735261 52.50445316702438
1160000000.0 0.004313100158827124 83.39011169058047 0.02063878083852859 14.738363236237607 0.5071122998964875 -42.07948742568237 0.0133183200182012 37.25601260436733
 0.02063878083852859 14.738363236237607 0.004296325378882021 83.9384839266205 0.0133183200182012 37.25601260436733 0.5074661064254727 -41.85824627877279
 0.5071131112101149 -42.07901400427921 0.013318636181371302 37.256017342449 0.004313087147126066 83.41862373999082 0.020638631194712966 14.73851811630766
 0.013318636181371302 37.256017342449 0.5074652783608519 -41.85871752913203 0.020638631194712966 14.73851811630766 0.0042963189180770306 83.90986016387812
1200000000.0 0.00428156004306339 46.022572097130315 0.01997354272458084 -14.194927301459085 0.49940255935513506 -142.18083822822965 0.013542055972796374 -62.452052693269444
 0.01997354272458084 -14.194927301459085 0.004278855892014411 46.470890250307 0.013542055972796374 -62.452052693269444 0.49975067574715887 -141.95821861927095
 0.49940109508174896 -142.18130562088348 0.013541744359587323 -62.45184017348616 0.00428122417326401 46.05122558668914 0.019973394446162973 -14.194766741686335
 0.013541744359587323 -62.45184017348616 0.49975214846824473 -141.95775340267477 0.019973394446162973 -14.194766741686335 0.004279176070649942 46.44218866812597
1240000000.0 0.0051735333621920985 75.84402020272344 0.023667446399928724 10.058040305097265 0.49171203688325416 117.6946522084445 0.013706807165223232 -162.55786119449448
 0.023667446399928724 10.058040305097265 0.005157108164785049 76.39780329722853 0.013706807165223232 -162.55786119449448 0.49205730224465466 117.92682893182476
