! Created Thu Oct  3 12:50:39 2024
# hz S ma R 50
! 2 Port Network Data from SP1.SP block
! freq  magS11  angS11  magS21  angS21  magS12  angS12  magS22  angS22  
!     
40000000       0.249986923      -0.0359778806        0.499991216       -0.467996982        0.499991216       -0.467996982      0.00565478948        -90.3079974
50000000       0.249979568      -0.0449567976        0.499986275       -0.584994106        0.499986275       -0.584994106      0.00706843251        -90.3849949
60000000       0.249970579      -0.0539253454        0.499980237       -0.701989815        0.499980237       -0.701989815       0.0084820393        -90.4619912
70000000       0.249959956      -0.0628814494        0.499973101       -0.818983828        0.499973101       -0.818983828      0.00989560263        -90.5389861
80000000         0.2499477      -0.0718230351        0.499964867       -0.935975859        0.499964867       -0.935975859       0.0113091152        -90.6159792
90000000       0.249933812      -0.0807480274        0.499955536        -1.05296563        0.499955536        -1.05296563       0.0127225699        -90.6929704
100000000        0.24991829       -0.089654351        0.499945107        -1.16995285        0.499945107        -1.16995285       0.0141359593        -90.7699594
110000000       0.249901137      -0.0985399299        0.499933581        -1.28693725        0.499933581        -1.28693725       0.0155492764        -90.8469459
120000000       0.249882352       -0.107402688        0.499920958        -1.40391853        0.499920958        -1.40391853       0.0169625137        -90.9239298
130000000       0.249861937       -0.116240548        0.499907238        -1.52089642        0.499907238        -1.52089642       0.0183756642        -91.0009107
140000000       0.249839892       -0.125051433        0.499892422        -1.63787064        0.499892422        -1.63787064       0.0197887205        -91.0778885
150000000       0.249816217       -0.133833265        0.499876509        -1.75484089        0.499876509        -1.75484089       0.0212016754        -91.1548628
160000000       0.249790914       -0.142583965          0.4998595        -1.87180691          0.4998595        -1.87180691       0.0226145217        -91.2318335
170000000       0.249763983       -0.151301454        0.499841395         -1.9887684        0.499841395         -1.9887684       0.0240272522        -91.3088003
180000000       0.249735426        -0.15998365        0.499822194        -2.10572508        0.499822194        -2.10572508       0.0254398597         -91.385763
190000000       0.249705243       -0.168628475        0.499801898        -2.22267668        0.499801898        -2.22267668       0.0268523369        -91.4627213
200000000       0.249673435       -0.177233844        0.499780507        -2.33962291        0.499780507        -2.33962291       0.0282646766        -91.5396749
210000000       0.249640003       -0.185797677        0.499758021        -2.45656349        0.499758021        -2.45656349       0.0296768716        -91.6166237
220000000       0.249604949       -0.194317888         0.49973444        -2.57349813         0.49973444        -2.57349813       0.0310889147        -91.6935673
230000000       0.249568274       -0.202792394        0.499709765        -2.69042655        0.499709765        -2.69042655       0.0325007987        -91.7705056
240000000       0.249529978       -0.211219107        0.499683997        -2.80734848        0.499683997        -2.80734848       0.0339125164        -91.8474383
250000000       0.249490064       -0.219595942        0.499657135        -2.92426363        0.499657135        -2.92426363       0.0353240606        -91.9243652
260000000       0.249448532       -0.227920811         0.49962918        -3.04117172         0.49962918        -3.04117172        0.036735424        -92.0012859
270000000       0.249405383       -0.236191623        0.499600132        -3.15807247        0.499600132        -3.15807247       0.0381465996        -92.0782004
280000000       0.249360621       -0.244406289        0.499569992        -3.27496559        0.499569992        -3.27496559       0.0395575801        -92.1551082
290000000       0.249314245       -0.252562717        0.499538761        -3.39185082        0.499538761        -3.39185082       0.0409683583        -92.2320093
300000000       0.249266257       -0.260658813        0.499506437        -3.50872785        0.499506437        -3.50872785        0.042378927        -92.3089033
310000000        0.24921666       -0.268692483        0.499473024        -3.62559642        0.499473024        -3.62559642       0.0437892792          -92.38579
320000000       0.249165454       -0.276661631        0.499438519        -3.74245624        0.499438519        -3.74245624       0.0451994076        -92.4626691
330000000       0.249112642       -0.284564159        0.499402925        -3.85930703        0.499402925        -3.85930703        0.046609305        -92.5395405
340000000       0.249058225        -0.29239797        0.499366241        -3.97614852        0.499366241        -3.97614852       0.0480189644        -92.6164039
350000000       0.249002205       -0.300160961        0.499328469        -4.09298042        0.499328469        -4.09298042       0.0494283785        -92.6932589
360000000       0.248944584       -0.307851031        0.499289608        -4.20980245        0.499289608        -4.20980245       0.0508375402        -92.7701055
370000000       0.248885364       -0.315466076        0.499249659        -4.32661433        0.499249659        -4.32661433       0.0522464424        -92.8469434
380000000       0.248824546       -0.323003991        0.499208624        -4.44341579        0.499208624        -4.44341579       0.0536550779        -92.9237722
390000000       0.248762134       -0.330462668        0.499166501        -4.56020653        0.499166501        -4.56020653       0.0550634396        -93.0005918
400000000       0.248698129       -0.337839998        0.499123293        -4.67698629        0.499123293        -4.67698629       0.0564715205         -93.077402
410000000       0.248632533        -0.34513387        0.499078999        -4.79375478        0.499078999        -4.79375478       0.0578793133        -93.1542024
420000000       0.248565348       -0.352342172        0.499033621        -4.91051173        0.499033621        -4.91051173       0.0592868111        -93.2309929
430000000       0.248496578       -0.359462788        0.498987158        -5.02725685        0.498987158        -5.02725685       0.0606940066        -93.3077733
440000000       0.248426223       -0.366493602        0.498939612        -5.14398987        0.498939612        -5.14398987       0.0621008928        -93.3845431
450000000       0.248354287       -0.373432494        0.498890984        -5.26071051        0.498890984        -5.26071051       0.0635074626        -93.4613023
460000000       0.248280772       -0.380277345        0.498841273        -5.37741849        0.498841273        -5.37741849       0.0649137089        -93.5380506
470000000        0.24820568       -0.387026031        0.498790481        -5.49411353        0.498790481        -5.49411353       0.0663196248        -93.6147878
480000000       0.248129014       -0.393676427        0.498738608        -5.61079536        0.498738608        -5.61079536        0.067725203        -93.6915136
490000000       0.248050777       -0.400226405        0.498685656        -5.72746369        0.498685656        -5.72746369       0.0691304366        -93.7682277
500000000       0.247970971       -0.406673836        0.498631624        -5.84411825        0.498631624        -5.84411825       0.0705353185          -93.84493
510000000       0.247889599       -0.413016588        0.498576514        -5.96075877        0.498576514        -5.96075877       0.0719398416        -93.9216201
520000000       0.247806664       -0.419252527        0.498520327        -6.07738496        0.498520327        -6.07738496        0.073343999         -93.998298
530000000       0.247722168       -0.425379516        0.498463062        -6.19399655        0.498463062        -6.19399655       0.0747477837        -94.0749632
540000000       0.247636115       -0.431395415        0.498404722        -6.31059326        0.498404722        -6.31059326       0.0761511885        -94.1516157
550000000       0.247548507       -0.437298085        0.498345307        -6.42717481        0.498345307        -6.42717481       0.0775542066         -94.228255
560000000       0.247459348       -0.443085379        0.498284817        -6.54374094        0.498284817        -6.54374094       0.0789568309        -94.3048811
570000000        0.24736864       -0.448755152        0.498223254        -6.66029136        0.498223254        -6.66029136       0.0803590544        -94.3814937
580000000       0.247276386       -0.454305255        0.498160619         -6.7768258        0.498160619         -6.7768258       0.0817608702        -94.4580925
590000000        0.24718259       -0.459733535        0.498096912        -6.89334398        0.498096912        -6.89334398       0.0831622714        -94.5346773
600000000       0.247087256       -0.465037837        0.498032134        -7.00984563        0.498032134        -7.00984563       0.0845632508        -94.6112478
610000000       0.246990385       -0.470216006        0.497966287        -7.12633047        0.497966287        -7.12633047       0.0859638017        -94.6878039
620000000       0.246891982        -0.47526588        0.497899371        -7.24279824        0.497899371        -7.24279824        0.087363917        -94.7643453
630000000        0.24679205       -0.480185297        0.497831386        -7.35924865        0.497831386        -7.35924865       0.0887635899        -94.8408717
640000000       0.246690592       -0.484972091        0.497762335        -7.47568143        0.497762335        -7.47568143       0.0901628135        -94.9173829
650000000       0.246587612       -0.489624093        0.497692218        -7.59209631        0.497692218        -7.59209631       0.0915615807        -94.9938788
660000000       0.246483114       -0.494139131        0.497621036        -7.70849301        0.497621036        -7.70849301       0.0929598849        -95.0703589
670000000         0.2463771       -0.498515032         0.49754879        -7.82487126         0.49754879        -7.82487126       0.0943577189        -95.1468232
680000000       0.246269575       -0.502749617        0.497475481         -7.9412308        0.497475481         -7.9412308       0.0957550761        -95.2232714
690000000       0.246160543       -0.506840707        0.497401111        -8.05757134        0.497401111        -8.05757134       0.0971519495        -95.2997032
700000000       0.246050006       -0.510786116        0.497325679        -8.17389262        0.497325679        -8.17389262       0.0985483323        -95.3761184
710000000        0.24593797       -0.514583659        0.497249188        -8.29019435        0.497249188        -8.29019435       0.0999442176        -95.4525168
720000000       0.245824437       -0.518231145        0.497171638        -8.40647629        0.497171638        -8.40647629        0.101339599        -95.5288982
730000000       0.245709412       -0.521726381         0.49709303        -8.52273814         0.49709303        -8.52273814        0.102734469        -95.6052622
740000000       0.245592899       -0.525067171        0.497013366        -8.63897964        0.497013366        -8.63897964        0.104128821        -95.6816088
750000000       0.245474902       -0.528251314        0.496932647        -8.75520052        0.496932647        -8.75520052        0.105522648        -95.7579376
760000000       0.245355425       -0.531276609        0.496850873        -8.87140051        0.496850873        -8.87140051        0.106915944        -95.8342484
770000000       0.245234472       -0.534140847        0.496768047        -8.98757934        0.496768047        -8.98757934        0.108308702         -95.910541
780000000       0.245112047       -0.536841819        0.496684168        -9.10373674        0.496684168        -9.10373674        0.109700915        -95.9868151
790000000       0.244988154       -0.539377313        0.496599239        -9.21987244        0.496599239        -9.21987244        0.111092576        -96.0630706
800000000       0.244862799       -0.541745111         0.49651326        -9.33598617         0.49651326        -9.33598617        0.112483678        -96.1393072
810000000       0.244735985       -0.543942992        0.496426233        -9.45207767        0.496426233        -9.45207767        0.113874216        -96.2155246
820000000       0.244607717       -0.545968734        0.496338159        -9.56814666        0.496338159        -9.56814666        0.115264182        -96.2917227
830000000       0.244477998       -0.547820108         0.49624904        -9.68419288         0.49624904        -9.68419288        0.116653569        -96.3679012
840000000       0.244346835       -0.549494884        0.496158875        -9.80021607        0.496158875        -9.80021607        0.118042371        -96.4440598
850000000       0.244214231       -0.550990827        0.496067667        -9.91621595        0.496067667        -9.91621595        0.119430581        -96.5201984
860000000       0.244080191       -0.552305698        0.495975418        -10.0321923        0.495975418        -10.0321923        0.120818192        -96.5963167
870000000        0.24394472       -0.553437256        0.495882127        -10.1481447        0.495882127        -10.1481447        0.122205199        -96.6724146
880000000       0.243807822       -0.554383255        0.495787797        -10.2640731        0.495787797        -10.2640731        0.123591593        -96.7484916
890000000       0.243669502       -0.555141444        0.495692429        -10.3799771        0.495692429        -10.3799771        0.124977369        -96.8245477
900000000       0.243529766       -0.555709572        0.495596025        -10.4958564        0.495596025        -10.4958564        0.126362521        -96.9005827
910000000       0.243388618        -0.55608538        0.495498585        -10.6117109        0.495498585        -10.6117109        0.127747041        -96.9765962
920000000       0.243246063       -0.556266607         0.49540011        -10.7275402         0.49540011        -10.7275402        0.129130922         -97.052588
930000000       0.243102107       -0.556250988        0.495300603        -10.8433441        0.495300603        -10.8433441        0.130514159         -97.128558
940000000       0.242956753       -0.556036255        0.495200065        -10.9591222        0.495200065        -10.9591222        0.131896745        -97.2045059
950000000       0.242810008       -0.555620134        0.495098497        -11.0748745        0.495098497        -11.0748745        0.133278673        -97.2804315
960000000       0.242661877        -0.55500035        0.494995901        -11.1906005        0.494995901        -11.1906005        0.134659937        -97.3563345
970000000       0.242512365        -0.55417462        0.494892277           -11.3063        0.494892277           -11.3063        0.136040531        -97.4322148
980000000       0.242361477       -0.553140659        0.494787628        -11.4219728        0.494787628        -11.4219728        0.137420447         -97.508072
990000000       0.242209219        -0.55189618        0.494681954        -11.5376186        0.494681954        -11.5376186        0.138799679        -97.5839061
1e+09       0.242055597       -0.550438889        0.494575258        -11.6532371        0.494575258        -11.6532371        0.140178222        -97.6597167
1.01e+09       0.241900614       -0.548766488        0.494467541        -11.7688282        0.494467541        -11.7688282        0.141556068        -97.7355037
1.02e+09       0.241744278       -0.546876676        0.494358804        -11.8843914        0.494358804        -11.8843914        0.142933211        -97.8112667
1.03e+09       0.241586594       -0.544767149        0.494249049        -11.9999266        0.494249049        -11.9999266        0.144309645        -97.8870057
1.04e+09       0.241427567       -0.542435595        0.494138277        -12.1154335        0.494138277        -12.1154335        0.145685364        -97.9627204
1.05e+09       0.241267204       -0.539879702         0.49402649        -12.2309118         0.49402649        -12.2309118         0.14706036        -98.0384105
1.06e+09        0.24110551       -0.537097152        0.493913689        -12.3463613        0.493913689        -12.3463613        0.148434628        -98.1140758
1.07e+09        0.24094249       -0.534085621        0.493799877        -12.4617817        0.493799877        -12.4617817        0.149808161        -98.1897161
1.08e+09       0.240778151       -0.530842783        0.493685054        -12.5771729        0.493685054        -12.5771729        0.151180953        -98.2653313
1.09e+09       0.240612499       -0.527366308        0.493569221        -12.6925344        0.493569221        -12.6925344        0.152552998         -98.340921
1.1e+09        0.24044554        -0.52365386        0.493452382         -12.807866        0.493452382         -12.807866         0.15392429        -98.4164851
1.11e+09       0.240277279         -0.5197031        0.493334537        -12.9231676        0.493334537        -12.9231676        0.155294821        -98.4920233
1.12e+09       0.240107724       -0.515511684        0.493215688        -13.0384388        0.493215688        -13.0384388        0.156664587        -98.5675354
1.13e+09       0.239936879       -0.511077263        0.493095836        -13.1536794        0.493095836        -13.1536794         0.15803358        -98.6430212
1.14e+09       0.239764752       -0.506397486        0.492974984        -13.2688892        0.492974984        -13.2688892        0.159401795        -98.7184806
1.15e+09       0.239591348       -0.501469994        0.492853132        -13.3840678        0.492853132        -13.3840678        0.160769225        -98.7939131
1.16e+09       0.239416675       -0.496292428        0.492730283         -13.499215        0.492730283         -13.499215        0.162135865        -98.8693188
1.17e+09       0.239240738        -0.49086242        0.492606439        -13.6143306        0.492606439        -13.6143306        0.163501707        -98.9446973
1.18e+09       0.239063543       -0.485177602          0.4924816        -13.7294144          0.4924816        -13.7294144        0.164866746        -99.0200484
1.19e+09       0.238885099       -0.479235597        0.492355768         -13.844466        0.492355768         -13.844466        0.166230976        -99.0953719
1.2e+09        0.23870541       -0.473034028        0.492228946        -13.9594852        0.492228946        -13.9594852         0.16759439        -99.1706676
1.21e+09       0.238524483       -0.466570512        0.492101136        -14.0744718        0.492101136        -14.0744718        0.168956983        -99.2459353
1.22e+09       0.238342326       -0.459842659        0.491972337        -14.1894255        0.491972337        -14.1894255        0.170318749        -99.3211747
1.23e+09       0.238158945       -0.452848077        0.491842554        -14.3043461        0.491842554        -14.3043461        0.171679681        -99.3963857
1.24e+09       0.237974347       -0.445584371        0.491711787        -14.4192333        0.491711787        -14.4192333        0.173039773        -99.4715681
1.25e+09       0.237788539       -0.438049138        0.491580037        -14.5340869        0.491580037        -14.5340869         0.17439902        -99.5467216
1.26e+09       0.237601527       -0.430239973        0.491447308        -14.6489066        0.491447308        -14.6489066        0.175757415         -99.621846
