# GHz S MA R 50

4.000000000000000e-02  2.3639326298258032e-02 -1.1112875943042395e+01  9.2800906465572230e-01 -3.0896796837012735e-01  9.2800906465572219e-01 -3.0896796837012758e-01  2.3639326298257980e-02 -1.1112875943042409e+01
5.000000000000000e-02  2.3872047000049544e-02 -1.3802505992805404e+01  9.2800319171738033e-01 -3.8620838462297791e-01  9.2800319171738033e-01 -3.8620838462297985e-01  2.3872047000049489e-02 -1.3802505992805365e+01
6.000000000000000e-02  2.4153430071956410e-02 -1.6436402012777840e+01  9.2799601384727926e-01 -4.6344775035785274e-01  9.2799601384727970e-01 -4.6344775035785141e-01  2.4153430071956365e-02 -1.6436402012777926e+01
7.000000000000001e-02  2.4481792656236581e-02 -1.9006473095541693e+01  9.2798753114479893e-01 -5.4068585551295811e-01  9.2798753114479893e-01 -5.4068585551295756e-01  2.4481792656236585e-02 -1.9006473095541718e+01
8.000000000000000e-02  2.4855267062456065e-02 -2.1505989234917489e+01  9.2797774372737951e-01 -6.1792249004930833e-01  9.2797774372737940e-01 -6.1792249004930488e-01  2.4855267062456082e-02 -2.1505989234917607e+01
9.000000000000001e-02  2.5271846736932974e-02 -2.3929600981602277e+01  9.2796665173051740e-01 -6.9515744395450840e-01  9.2796665173051729e-01 -6.9515744395450763e-01  2.5271846736932932e-02 -2.3929600981602348e+01
1.000000000000000e-01  2.5729430686040777e-02 -2.6273304354489639e+01  9.2795425530775999e-01 -7.7239050724656300e-01  9.2795425530775999e-01 -7.7239050724656533e-01  2.5729430686040847e-02 -2.6273304354489454e+01
1.100000000000000e-01  2.6225864630015271e-02 -2.8534361878113845e+01  9.2794055463069847e-01 -8.4962146997766552e-01  9.2794055463069869e-01 -8.4962146997766841e-01  2.6225864630015066e-02 -2.8534361878113963e+01
1.200000000000000e-01  2.6758977681963527e-02 -3.0711191713159987e+01  9.2792554988896447e-01 -9.2685012223799268e-01  9.2792554988896470e-01 -9.2685012223798668e-01  2.6758977681963576e-02 -3.0711191713160172e+01
1.300000000000000e-01  2.7326613851152825e-02 -3.2803236568493674e+01  9.2790924129021890e-01 -1.0040762541594861e+00  9.2790924129021890e-01 -1.0040762541594768e+00  2.7326613851152860e-02 -3.2803236568494007e+01
1.400000000000000e-01  2.7926658112094809e-02 -3.4810822819678521e+01  9.2789162906014722e-01 -1.0812996559196513e+00  9.2789162906014711e-01 -1.0812996559196553e+00  2.7926658112094778e-02 -3.4810822819678421e+01
1.500000000000000e-01  2.8557057134456457e-02 -3.6735018422978968e+01  9.2787271344244959e-01 -1.1585201177453675e+00  9.2787271344244959e-01 -1.1585201177453670e+00  2.8557057134456457e-02 -3.6735018422978982e+01
1.600000000000000e-01  2.9215835024943727e-02 -3.8577496166534196e+01  9.2785249469883302e-01 -1.2357374299166233e+00  9.2785249469883291e-01 -1.2357374299166226e+00  2.9215835024943699e-02 -3.8577496166534281e+01
1.700000000000000e-01  2.9901104596294786e-02 -4.0340406812977172e+01  9.2783097310899898e-01 -1.3129513827703414e+00  9.2783097310899898e-01 -1.3129513827703421e+00  2.9901104596294782e-02 -4.0340406812977164e+01
1.800000000000000e-01  3.0611074763940167e-02 -4.2026264933509495e+01  9.2780814897063590e-01 -1.3901617667041415e+00  9.2780814897063590e-01 -1.3901617667041446e+00  3.0611074763940142e-02 -4.2026264933509438e+01
1.900000000000000e-01  3.1344054694934981e-02 -4.3637848798872760e+01  9.2778402259940518e-01 -1.4673683721801232e+00  9.2778402259940573e-01 -1.4673683721801261e+00  3.1344054694934946e-02 -4.3637848798872689e+01
2.000000000000000e-01  3.2098455313886977e-02 -4.5178114598639866e+01  9.2775859432893182e-01 -1.5445709897286382e+00  9.2775859432893248e-01 -1.5445709897286388e+00  3.2098455313886783e-02 -4.5178114598640164e+01
2.100000000000000e-01  3.2872788722307152e-02 -4.6650124484444667e+01  9.2773186451078982e-01 -1.6217694099520630e+00  9.2773186451079048e-01 -1.6217694099520605e+00  3.2872788722307221e-02 -4.6650124484444653e+01
2.200000000000000e-01  3.3665666023737682e-02 -4.8056987429205599e+01  9.2770383351449082e-01 -1.6989634235285636e+00  9.2770383351449071e-01 -1.6989634235285676e+00  3.3665666023737710e-02 -4.8056987429205400e+01
2.300000000000000e-01  3.4475793976640599e-02 -4.9401811608207758e+01  9.2767450172746801e-01 -1.7761528212158761e+00  9.2767450172746801e-01 -1.7761528212158801e+00  3.4475793976640558e-02 -4.9401811608207687e+01
2.400000000000000e-01  3.5301970826977995e-02 -5.0687666884908516e+01  9.2764386955506273e-01 -1.8533373938550481e+00  9.2764386955506306e-01 -1.8533373938550481e+00  3.5301970826978023e-02 -5.0687666884908445e+01
2.500000000000000e-01  3.6143081606858765e-02 -5.1917555976558276e+01  9.2761193742051140e-01 -1.9305169323742055e+00  9.2761193742051162e-01 -1.9305169323742066e+00  3.6143081606858543e-02 -5.1917555976558617e+01
2.600000000000000e-01  3.6998093126927645e-02 -5.3094392942717619e+01  9.2757870576492529e-01 -2.0076912277923120e+00  9.2757870576492518e-01 -2.0076912277923102e+00  3.6998093126927631e-02 -5.3094392942717697e+01
2.700000000000000e-01  3.7866048839342421e-02 -5.4220987752910077e+01  9.2754417504727660e-01 -2.0848600712229102e+00  9.2754417504727682e-01 -2.0848600712229044e+00  3.7866048839342407e-02 -5.4220987752910347e+01
2.800000000000000e-01  3.8746063705312063e-02 -5.5300035825549841e+01  9.2750834574438223e-01 -2.1620232538778659e+00  9.2750834574438246e-01 -2.1620232538778597e+00  3.8746063705312146e-02 -5.5300035825549926e+01
2.900000000000000e-01  3.9637319165846965e-02 -5.6334111573198314e+01  9.2747121835088242e-01 -2.2391805670711173e+00  9.2747121835088320e-01 -2.2391805670711196e+00  3.9637319165846931e-02 -5.6334111573198285e+01
3.000000000000000e-01  4.0539058285809851e-02 -5.7325665128911247e+01  9.2743279337922591e-01 -2.3163318022224191e+00  9.2743279337922591e-01 -2.3163318022224213e+00  4.0539058285809823e-02 -5.7325665128911211e+01
3.100000000000000e-01  4.1450581118705213e-02 -5.8277021558632555e+01  9.2739307135964832e-01 -2.3934767508610499e+00  9.2739307135964810e-01 -2.3934767508610526e+00  4.1450581118705275e-02 -5.8277021558632356e+01
3.200000000000000e-01  4.2371240321974500e-02 -5.9190381981988118e+01  9.2735205284015298e-01 -2.4706152046295569e+00  9.2735205284015298e-01 -2.4706152046295591e+00  4.2371240321974556e-02 -5.9190381981987919e+01
3.300000000000000e-01  4.3300437039044994e-02 -6.0067826127061743e+01  9.2730973838649067e-01 -2.5477469552874732e+00  9.2730973838649033e-01 -2.5477469552874763e+00  4.3300437039044966e-02 -6.0067826127061700e+01
3.400000000000000e-01  4.4237617054222363e-02 -6.0911315933786774e+01  9.2726612858213808e-01 -2.6248717947150442e+00  9.2726612858213830e-01 -2.6248717947150388e+00  4.4237617054222446e-02 -6.0911315933786845e+01
3.500000000000000e-01  4.5182267219066291e-02 -6.1722699896209676e+01  9.2722122402827678e-01 -2.7019895149169111e+00  9.2722122402827678e-01 -2.7019895149169084e+00  4.5182267219066291e-02 -6.1722699896209754e+01
3.600000000000000e-01  4.6133912143565214e-02 -6.2503717897291928e+01  9.2717502534376905e-01 -2.7790999080258536e+00  9.2717502534376928e-01 -2.7790999080258549e+00  4.6133912143565201e-02 -6.2503717897291907e+01
3.700000000000000e-01  4.7092111141774522e-02 -6.3256006342494722e+01  9.2712753316513596e-01 -2.8562027663064660e+00  9.2712753316513530e-01 -2.8562027663064682e+00  4.7092111141774598e-02 -6.3256006342494501e+01
3.800000000000000e-01  4.8056455419200374e-02 -6.3981103441580096e+01  9.2707874814653302e-01 -2.9332978821588540e+00  9.2707874814653302e-01 -2.9332978821588531e+00  4.8056455419200388e-02 -6.3981103441580103e+01
3.900000000000000e-01  4.9026565487802376e-02 -6.4680454523232029e+01  9.2702867095972685e-01 -3.0103850481223300e+00  9.2702867095972696e-01 -3.0103850481223273e+00  4.9026565487802411e-02 -6.4680454523232044e+01
4.000000000000000e-01  5.0002088793803086e-02 -6.5355417295505234e+01  9.2697730229406927e-01 -3.0874640568790848e+00  9.2697730229406905e-01 -3.0874640568790852e+00  5.0002088793803107e-02 -6.5355417295505177e+01
4.100000000000000e-01  5.0982697543329666e-02 -6.6007266987888741e+01  9.2692464285647036e-01 -3.1645347012578782e+00  9.2692464285647058e-01 -3.1645347012578813e+00  5.0982697543329625e-02 -6.6007266987888713e+01
4.200000000000000e-01  5.1968086711135238e-02 -6.6637201328878703e+01  9.2687069337137395e-01 -3.2415967742376952e+00  9.2687069337137395e-01 -3.2415967742376934e+00  5.1968086711135272e-02 -6.6637201328878660e+01
4.300000000000000e-01  5.2957972218126960e-02 -6.7246345327249912e+01  9.2681545458073022e-01 -3.3186500689514045e+00  9.2681545458072989e-01 -3.3186500689514062e+00  5.2957972218126925e-02 -6.7246345327249955e+01
4.400000000000000e-01  5.3952089264080391e-02 -6.7835755836400239e+01  9.2675892724396702e-01 -3.3956943786894365e+00  9.2675892724396702e-01 -3.3956943786894351e+00  5.3952089264080398e-02 -6.7835755836400253e+01
4.500000000000000e-01  5.4950190802685955e-02 -6.8406425889800545e+01  9.2670111213796302e-01 -3.4727294969033977e+00  9.2670111213796258e-01 -3.4727294969034013e+00  5.4950190802685935e-02 -6.8406425889800488e+01
4.600000000000000e-01  5.5952046146885946e-02 -6.8959288802226780e+01  9.2664201005701663e-01 -3.5497552172097500e+00  9.2664201005701685e-01 -3.5497552172097460e+00  5.5952046146886023e-02 -6.8959288802226752e+01
4.700000000000000e-01  5.6957439693307917e-02 -6.9495222036462735e+01  9.2658162181281967e-01 -3.6267713333934095e+00  9.2658162181281989e-01 -3.6267713333934060e+00  5.6957439693308000e-02 -6.9495222036462721e+01
4.800000000000000e-01  5.7966169755431146e-02 -7.0015050838891355e+01  9.2651994823442341e-01 -3.7037776394113977e+00  9.2651994823442341e-01 -3.7037776394113902e+00  5.7966169755431229e-02 -7.0015050838891440e+01
4.900000000000000e-01  5.8978047495942924e-02 -7.0519551650101207e+01  9.2645699016821115e-01 -3.7807739293964429e+00  9.2645699016821104e-01 -3.7807739293964429e+00  5.8978047495942869e-02 -7.0519551650101292e+01
5.000000000000000e-01  5.9992895949517018e-02 -7.1009455298538981e+01  9.2639274847786357e-01 -3.8577599976606147e+00  9.2639274847786357e-01 -3.8577599976606129e+00  5.9992895949517053e-02 -7.1009455298538938e+01
5.100000000000000e-01  6.1010549127990900e-02 -7.1485449986521772e+01  9.2632722404432999e-01 -3.9347356386988959e+00  9.2632722404432977e-01 -3.9347356386988968e+00  6.1010549127990900e-02 -7.1485449986521715e+01
5.200000000000000e-01  6.2030851200604684e-02 -7.1948184078721454e+01  9.2626041776579215e-01 -4.0117006471927992e+00  9.2626041776579215e-01 -4.0117006471927956e+00  6.2030851200604774e-02 -7.1948184078721368e+01
5.300000000000000e-01  6.3053655742617440e-02 -7.2398268703655475e+01  9.2619233055763461e-01 -4.0886548180139464e+00  9.2619233055763484e-01 -4.0886548180139455e+00  6.3053655742617440e-02 -7.2398268703655475e+01
5.400000000000000e-01  6.4078825046205060e-02 -7.2836280178869657e+01  9.2612296335240751e-01 -4.1655979462276562e+00  9.2612296335240729e-01 -4.1655979462276536e+00  6.4078825046205143e-02 -7.2836280178869629e+01
5.500000000000000e-01  6.5106229488101769e-02 -7.3262762270427672e+01  9.2605231709979330e-01 -4.2425298270964813e+00  9.2605231709979374e-01 -4.2425298270964840e+00  6.5106229488101686e-02 -7.3262762270427828e+01
5.600000000000001e-01  6.6135746948943017e-02 -7.3678228297109854e+01  9.2598039276657274e-01 -4.3194502560838295e+00  9.2598039276657296e-01 -4.3194502560838304e+00  6.6135746948942989e-02 -7.3678228297109953e+01
5.700000000000001e-01  6.7167262279737044e-02 -7.4083163089388279e+01  9.2590719133658672e-01 -4.3963590288574519e+00  9.2590719133658661e-01 -4.3963590288574501e+00  6.7167262279737058e-02 -7.4083163089388279e+01
5.800000000000001e-01  6.8200666811305821e-02 -7.4478024812847252e+01  9.2583271381070209e-01 -4.4732559412930177e+00  9.2583271381070220e-01 -4.4732559412930213e+00  6.8200666811305780e-02 -7.4478024812847281e+01
5.900000000000001e-01  6.9235857902923789e-02 -7.4863246665262707e+01  9.2575696120677331e-01 -4.5501407894776555e+00  9.2575696120677331e-01 -4.5501407894776529e+00  6.9235857902923845e-02 -7.4863246665262707e+01
6.000000000000001e-01  7.0272738526729564e-02 -7.5239238456070197e+01  9.2567993455960496e-01 -4.6270133697134481e+00  9.2567993455960529e-01 -4.6270133697134499e+00  7.0272738526729536e-02 -7.5239238456070197e+01
6.100000000000000e-01  7.1311216884799924e-02 -7.5606388076461954e+01  9.2560163492091507e-01 -4.7038734785209906e+00  9.2560163492091485e-01 -4.7038734785209906e+00  7.1311216884799952e-02 -7.5606388076461926e+01
6.200000000000000e-01  7.2351206056066014e-02 -7.5965062867850762e+01  9.2552206335929277e-01 -4.7807209126428427e+00  9.2552206335929277e-01 -4.7807209126428418e+00  7.2351206056066014e-02 -7.5965062867850762e+01
6.300000000000000e-01  7.3392623670507251e-02 -7.6315610895955700e+01  9.2544122096016390e-01 -4.8575554690470701e+00  9.2544122096016368e-01 -4.8575554690470701e+00  7.3392623670507195e-02 -7.6315610895955800e+01
6.400000000000000e-01  7.4435391608295945e-02 -7.6658362137283191e+01  9.2535910882574668e-01 -4.9343769449307082e+00  9.2535910882574690e-01 -4.9343769449307091e+00  7.4435391608295945e-02 -7.6658362137283191e+01
6.500000000000000e-01  7.5479435721778496e-02 -7.6993629584322662e+01  9.2527572807501357e-01 -5.0111851377232437e+00  9.2527572807501346e-01 -5.0111851377232410e+00  7.5479435721778537e-02 -7.6993629584322619e+01
6.600000000000000e-01  7.6524685578370846e-02 -7.7321710275336969e+01  9.2519107984364868e-01 -5.0879798450900688e+00  9.2519107984364846e-01 -5.0879798450900697e+00  7.6524685578370819e-02 -7.7321710275337054e+01
6.700000000000000e-01  7.7571074222620454e-02 -7.7642886254212542e+01  9.2510516528400732e-01 -5.1647608649359622e+00  9.2510516528400699e-01 -5.1647608649359595e+00  7.7571074222620565e-02 -7.7642886254212399e+01
6.800000000000000e-01  7.8618537955846543e-02 -7.7957425465440707e+01  9.2501798556507264e-01 -5.2415279954084966e+00  9.2501798556507264e-01 -5.2415279954084939e+00  7.8618537955846571e-02 -7.7957425465440721e+01
6.900000000000001e-01  7.9667016131909546e-02 -7.8265582588936979e+01  9.2492954187241427e-01 -5.3182810349015135e+00  9.2492954187241427e-01 -5.3182810349015126e+00  7.9667016131909629e-02 -7.8265582588936837e+01
7.000000000000001e-01  8.0716450967794437e-02 -7.8567599819053214e+01  9.2483983540814174e-01 -5.3950197820585082e+00  9.2483983540814163e-01 -5.3950197820585055e+00  8.0716450967794465e-02 -7.8567599819053214e+01
7.100000000000001e-01  8.1766787367806654e-02 -7.8863707591823101e+01  9.2474886739086459e-01 -5.4717440357760774e+00  9.2474886739086426e-01 -5.4717440357760756e+00  8.1766787367806709e-02 -7.8863707591823115e+01
7.200000000000001e-01  8.2817972760285727e-02 -7.9154125264172492e+01  9.2465663905564432e-01 -5.5484535952072864e+00  9.2465663905564444e-01 -5.5484535952072855e+00  8.2817972760285727e-02 -7.9154125264172521e+01
7.300000000000001e-01  8.3869956945838847e-02 -7.9439061748554209e+01  9.2456315165395098e-01 -5.6251482597650844e+00  9.2456315165395109e-01 -5.6251482597650826e+00  8.3869956945838819e-02 -7.9439061748554352e+01
7.400000000000000e-01  8.4922691956183308e-02 -7.9718716106202621e+01  9.2446840645361750e-01 -5.7018278291256781e+00  9.2446840645361761e-01 -5.7018278291256781e+00  8.4922691956183266e-02 -7.9718716106202734e+01
7.500000000000000e-01  8.5976131922764584e-02 -7.9993278101964293e+01  9.2437240473879256e-01 -5.7784921032318897e+00  9.2437240473879212e-01 -5.7784921032318888e+00  8.5976131922764695e-02 -7.9993278101964137e+01
7.600000000000000e-01  8.7030232954390288e-02 -8.0262928723439117e+01  9.2427514780989273e-01 -5.8551408822965145e+00  9.2427514780989273e-01 -5.8551408822965145e+00  8.7030232954390302e-02 -8.0262928723439089e+01
7.700000000000000e-01  8.8084953023183241e-02 -8.0527840666961438e+01  9.2417663698355879e-01 -5.9317739668056761e+00  9.2417663698355879e-01 -5.9317739668056761e+00  8.8084953023183241e-02 -8.0527840666961481e+01
7.800000000000000e-01  8.9140251858218097e-02 -8.0788178792755801e+01  9.2407687359260460e-01 -6.0083911575221496e+00  9.2407687359260471e-01 -6.0083911575221487e+00  8.9140251858218070e-02 -8.0788178792755915e+01
7.900000000000000e-01  9.0196090846257099e-02 -8.1044100551431981e+01  9.2397585898596890e-01 -6.0849922554886717e+00  9.2397585898596923e-01 -6.0849922554886753e+00  9.0196090846257057e-02 -8.1044100551431995e+01
8.000000000000000e-01  9.1252432939051997e-02 -8.1295756383818372e+01  9.2387359452866735e-01 -6.1615770620312817e+00  9.2387359452866724e-01 -6.1615770620312809e+00  9.1252432939052067e-02 -8.1295756383818357e+01
8.100000000000001e-01  9.2309242566721225e-02 -8.1543290095983465e+01  9.2377008160174279e-01 -6.2381453787625762e+00  9.2377008160174312e-01 -6.2381453787625762e+00  9.2309242566721184e-02 -8.1543290095983593e+01
8.200000000000001e-01  9.3366485556752019e-02 -8.1786839211158451e+01  9.2366532160221460e-01 -6.3146970075850177e+00  9.2366532160221448e-01 -6.3146970075850195e+00  9.3366485556752046e-02 -8.1786839211158309e+01
8.300000000000001e-01  9.4424129058217357e-02 -8.2026535300142555e+01  9.2355931594302765e-01 -6.3912317506942031e+00  9.2355931594302787e-01 -6.3912317506942022e+00  9.4424129058217329e-02 -8.2026535300142612e+01
8.400000000000001e-01  9.5482141470824733e-02 -8.2262504291663561e+01  9.2345206605300245e-01 -6.4677494105821047e+00  9.2345206605300267e-01 -6.4677494105821056e+00  9.5482141470824705e-02 -8.2262504291663603e+01
8.500000000000001e-01  9.6540492378451082e-02 -8.2494866764045000e+01  9.2334357337678397e-01 -6.5442497900403493e+00  9.2334357337678374e-01 -6.5442497900403458e+00  9.6540492378451109e-02 -8.2494866764045000e+01
8.600000000000001e-01  9.7599152486840673e-02 -8.2723738219445011e+01  9.2323383937478609e-01 -6.6207326921634024e+00  9.2323383937478609e-01 -6.6207326921634015e+00  9.7599152486840715e-02 -8.2723738219444996e+01
8.700000000000001e-01  9.8658093565172258e-02 -8.2949229341829351e+01  9.2312286552314327e-01 -6.6971979203518464e+00  9.2312286552314327e-01 -6.6971979203518464e+00  9.8658093565172258e-02 -8.2949229341829394e+01
8.800000000000000e-01  9.9717288391221556e-02 -8.3171446239761721e+01  9.2301065331365306e-01 -6.7736452783155263e+00  9.2301065331365284e-01 -6.7736452783155290e+00  9.9717288391221529e-02 -8.3171446239761721e+01
8.900000000000000e-01  1.0077671069987003e-01 -8.3390490675012828e+01  9.2289720425372668e-01 -6.8500745700767922e+00  9.2289720425372646e-01 -6.8500745700767922e+00  1.0077671069987003e-01 -8.3390490675012828e+01
9.000000000000000e-01  1.0183633513472665e-01 -8.3606460277920405e+01  9.2278251986633075e-01 -6.9264855999736508e+00  9.2278251986633097e-01 -6.9264855999736508e+00  1.0183633513472660e-01 -8.3606460277920533e+01
9.100000000000000e-01  1.0289613720264999e-01 -8.3819448750362696e+01  9.2266660168993653e-01 -7.0028781726629372e+00  9.2266660168993619e-01 -7.0028781726629354e+00  1.0289613720265002e-01 -8.3819448750362668e+01
9.200000000000000e-01  1.0395609323097335e-01 -8.4029546057146192e+01  9.2254945127846000e-01 -7.0792520931234728e+00  9.2254945127845966e-01 -7.0792520931234701e+00  1.0395609323097343e-01 -8.4029546057146106e+01
9.300000000000000e-01  1.0501618032724959e-01 -8.4236838606555622e+01  9.2243107020120996e-01 -7.1556071666591894e+00  9.2243107020120985e-01 -7.1556071666591876e+00  1.0501618032724959e-01 -8.4236838606555622e+01
9.400000000000001e-01  1.0607637634134791e-01 -8.4441409420755548e+01  9.2231146004283171e-01 -7.2319431989022869e+00  9.2231146004283138e-01 -7.2319431989022851e+00  1.0607637634134791e-01 -8.4441409420755548e+01
9.500000000000001e-01  1.0713665982974574e-01 -8.4643338296688043e+01  9.2219062240324701e-01 -7.3082599958163028e+00  9.2219062240324701e-01 -7.3082599958163001e+00  1.0713665982974577e-01 -8.4643338296688043e+01
9.600000000000001e-01  1.0819701002187179e-01 -8.4842701958065703e+01  9.2206855889760064e-01 -7.3845573636992325e+00  9.2206855889760064e-01 -7.3845573636992325e+00  1.0819701002187181e-01 -8.4842701958065703e+01
