! Created Thu Oct  3 11:08:20 2024
# hz S ma R 50
! 2 Port Network Data from SP1.SP block
! freq  magS11  angS11  magS21  angS21  magS12  angS12  magS22  angS22  
!     
40000000     0.00251500233         87.5779449     0.000199939387       -0.144129258     0.000199939387       -0.144129258         0.99960012               -180
80000000     0.00502697587          88.572546     0.000199937493       -0.288256697     0.000199937493       -0.288256697         0.99960012               -180
120000000     0.00753951638         88.8083389     0.000199934336         -0.4323805     0.000199934336         -0.4323805         0.99960012               -180
160000000      0.0100520797         88.8542781     0.000199929917       -0.576498847     0.000199929917       -0.576498847         0.99960012               -180
200000000       0.012564519         88.8242654     0.000199924236       -0.720609921     0.000199924236       -0.720609921         0.99960012               -180
240000000      0.0150767534          88.756279     0.000199917294       -0.864711905     0.000199917294       -0.864711905         0.99960012               -180
280000000      0.0175887212         88.6665982      0.00019990909        -1.00880298      0.00019990909        -1.00880298         0.99960012               -180
320000000      0.0201003679         88.5633639     0.000199899625        -1.15288134     0.000199899625        -1.15288134         0.99960012               -180
360000000      0.0226116419         88.4510999     0.000199888899        -1.29694516     0.000199888899        -1.29694516         0.99960012               -180
400000000      0.0251224935         88.3325212     0.000199876914        -1.44099262     0.000199876914        -1.44099262         0.99960012        -179.999999
440000000      0.0276328738         88.2093562      0.00019986367        -1.58502193      0.00019986367        -1.58502193         0.99960012        -179.999999
480000000      0.0301427343         88.0827578     0.000199849167        -1.72903126     0.000199849167        -1.72903126         0.99960012        -179.999999
520000000      0.0326520272         87.9535248     0.000199833407         -1.8730188     0.000199833407         -1.8730188         0.99960012        -179.999999
560000000      0.0351607046         87.8222282      0.00019981639        -2.01698276      0.00019981639        -2.01698276         0.99960012        -179.999999
600000000      0.0376687189         87.6892872     0.000199798118        -2.16092131     0.000199798118        -2.16092131         0.99960012        -179.999999
640000000      0.0401760228         87.5550167     0.000199778591        -2.30483267     0.000199778591        -2.30483267         0.99960012        -179.999999
680000000      0.0426825689          87.419658      0.00019975781        -2.44871502      0.00019975781        -2.44871502         0.99960012        -179.999999
720000000      0.0451883102          87.283399     0.000199735777        -2.59256657     0.000199735777        -2.59256657         0.99960012        -179.999999
760000000      0.0476931995         87.1463885     0.000199712493        -2.73638552     0.000199712493        -2.73638552         0.99960012        -179.999999
800000000      0.0501971899          87.008746      0.00019968796        -2.88017007      0.00019968796        -2.88017007         0.99960012        -179.999999
840000000      0.0527002346         86.8705684     0.000199662177        -3.02391843     0.000199662177        -3.02391843         0.99960012        -179.999999
880000000      0.0552022868         86.7319354     0.000199635148        -3.16762881     0.000199635148        -3.16762881         0.99960012        -179.999999
920000000      0.0577032999         86.5929133     0.000199606874        -3.31129942     0.000199606874        -3.31129942         0.99960012        -179.999999
960000000      0.0602032274         86.4535573     0.000199577356        -3.45492849     0.000199577356        -3.45492849         0.99960012        -179.999999
1e+09      0.0627020228         86.3139143     0.000199546595        -3.59851422     0.000199546595        -3.59851422         0.99960012        -179.999999
1.04e+09      0.0651996399         86.1740242     0.000199514594        -3.74205485     0.000199514594        -3.74205485         0.99960012        -179.999999
1.08e+09      0.0676960324         86.0339212     0.000199481355         -3.8855486     0.000199481355         -3.8855486         0.99960012        -179.999999
1.12e+09      0.0701911543          85.893635     0.000199446878        -4.02899369     0.000199446878        -4.02899369         0.99960012        -179.999999
1.16e+09      0.0726849597         85.7531913     0.000199411167        -4.17238836     0.000199411167        -4.17238836         0.99960012        -179.999998
1.2e+09      0.0751774026         85.6126126     0.000199374223        -4.31573084     0.000199374223        -4.31573084         0.99960012        -179.999998
1.24e+09      0.0776684375         85.4719189     0.000199336048        -4.45901939     0.000199336048        -4.45901939         0.99960012        -179.999998
1.28e+09      0.0801580187         85.3311277     0.000199296645        -4.60225223     0.000199296645        -4.60225223         0.99960012        -179.999998
1.32e+09      0.0826461009         85.1902546     0.000199256015        -4.74542762     0.000199256015        -4.74542762         0.99960012        -179.999998
1.36e+09      0.0851326387         85.0493138     0.000199214161        -4.88854382     0.000199214161        -4.88854382         0.99960012        -179.999998
1.4e+09      0.0876175869         84.9083179     0.000199171086        -5.03159908     0.000199171086        -5.03159908         0.99960012        -179.999998
1.44e+09      0.0901009007         84.7672782     0.000199126791        -5.17459166     0.000199126791        -5.17459166         0.99960012        -179.999998
1.48e+09      0.0925825352         84.6262052     0.000199081278        -5.31751983     0.000199081278        -5.31751983         0.99960012        -179.999998
1.52e+09      0.0950624456         84.4851083     0.000199034552        -5.46038186     0.000199034552        -5.46038186         0.99960012        -179.999998
1.56e+09      0.0975405875          84.343996     0.000198986614        -5.60317602     0.000198986614        -5.60317602         0.99960012        -179.999998
1.6e+09       0.100016916         84.2028765     0.000198937466         -5.7459006     0.000198937466         -5.7459006         0.99960012        -179.999998
1.64e+09       0.102491388          84.061757     0.000198887112        -5.88855389     0.000198887112        -5.88855389         0.99960012        -179.999998
1.68e+09       0.104963959         83.9206443     0.000198835555        -6.03113417     0.000198835555        -6.03113417         0.99960012        -179.999998
1.72e+09       0.107434585         83.7795447     0.000198782796        -6.17363974     0.000198782796        -6.17363974         0.99960012        -179.999998
1.76e+09       0.109903222         83.6384642      0.00019872884        -6.31606891      0.00019872884        -6.31606891        0.999600119        -179.999998
1.8e+09       0.112369827         83.4974083     0.000198673688        -6.45841998     0.000198673688        -6.45841998        0.999600119        -179.999998
1.84e+09       0.114834356          83.356382     0.000198617345        -6.60069127     0.000198617345        -6.60069127        0.999600119        -179.999998
1.88e+09       0.117296767         83.2153904     0.000198559813        -6.74288109     0.000198559813        -6.74288109        0.999600119        -179.999998
1.92e+09       0.119757017          83.074438     0.000198501096        -6.88498778     0.000198501096        -6.88498778        0.999600119        -179.999998
1.96e+09       0.122215062         82.9335292     0.000198441195        -7.02700966     0.000198441195        -7.02700966        0.999600119        -179.999997
2e+09        0.12467086         82.7926681     0.000198380116        -7.16894506     0.000198380116        -7.16894506        0.999600119        -179.999997
2.04e+09        0.12712437         82.6518586     0.000198317861        -7.31079234     0.000198317861        -7.31079234        0.999600119        -179.999997
2.08e+09       0.129575548         82.5111045     0.000198254433        -7.45254985     0.000198254433        -7.45254985        0.999600119        -179.999997
2.12e+09       0.132024353         82.3704094     0.000198189837        -7.59421594     0.000198189837        -7.59421594        0.999600119        -179.999997
2.16e+09       0.134470743         82.2297768     0.000198124075        -7.73578897     0.000198124075        -7.73578897        0.999600119        -179.999997
2.2e+09       0.136914677         82.0892098     0.000198057151        -7.87726732     0.000198057151        -7.87726732        0.999600119        -179.999997
2.24e+09       0.139356113         81.9487118     0.000197989068        -8.01864935     0.000197989068        -8.01864935        0.999600119        -179.999997
2.28e+09       0.141795011         81.8082857     0.000197919832        -8.15993347     0.000197919832        -8.15993347        0.999600119        -179.999997
2.32e+09       0.144231329         81.6679345     0.000197849444        -8.30111805     0.000197849444        -8.30111805        0.999600119        -179.999997
2.36e+09       0.146665027         81.5276611     0.000197777909        -8.44220149     0.000197777909        -8.44220149        0.999600119        -179.999997
2.4e+09       0.149096065         81.3874682      0.00019770523         -8.5831822      0.00019770523         -8.5831822        0.999600119        -179.999997
2.44e+09       0.151524402         81.2473586     0.000197631413        -8.72405859     0.000197631413        -8.72405859        0.999600119        -179.999997
2.48e+09       0.153949999         81.1073347      0.00019755646        -8.86482908      0.00019755646        -8.86482908        0.999600119        -179.999997
2.52e+09       0.156372815         80.9673992     0.000197480375         -9.0054921     0.000197480375         -9.0054921        0.999600119        -179.999997
2.56e+09       0.158792813         80.8275545     0.000197403163        -9.14604608     0.000197403163        -9.14604608        0.999600119        -179.999997
2.6e+09       0.161209951          80.687803     0.000197324828        -9.28648947     0.000197324828        -9.28648947        0.999600119        -179.999997
2.64e+09       0.163624193          80.548147     0.000197245373        -9.42682071     0.000197245373        -9.42682071        0.999600119        -179.999997
2.68e+09       0.166035497         80.4085888     0.000197164804        -9.56703827     0.000197164804        -9.56703827        0.999600119        -179.999997
2.72e+09       0.168443828         80.2691308     0.000197083124         -9.7071406     0.000197083124         -9.7071406        0.999600119        -179.999996
2.76e+09       0.170849145         80.1297749     0.000197000338        -9.84712618     0.000197000338        -9.84712618        0.999600119        -179.999996
2.8e+09       0.173251412         79.9905235     0.000196916449         -9.9869935     0.000196916449         -9.9869935        0.999600119        -179.999996
2.84e+09       0.175650591         79.8513785     0.000196831463        -10.1267411     0.000196831463        -10.1267411        0.999600119        -179.999996
2.88e+09       0.178046644         79.7123421     0.000196745384        -10.2663673     0.000196745384        -10.2663673        0.999600119        -179.999996
2.92e+09       0.180439534         79.5734162     0.000196658216        -10.4058708     0.000196658216        -10.4058708        0.999600119        -179.999996
2.96e+09       0.182829225         79.4346029     0.000196569964        -10.5452501     0.000196569964        -10.5452501        0.999600119        -179.999996
3e+09        0.18521568          79.295904     0.000196480632        -10.6845036     0.000196480632        -10.6845036        0.999600119        -179.999996
3.04e+09       0.187598862         79.1573215     0.000196390226        -10.8236299     0.000196390226        -10.8236299        0.999600119        -179.999996
3.08e+09       0.189978736         79.0188573     0.000196298749        -10.9626276     0.000196298749        -10.9626276        0.999600119        -179.999996
3.12e+09       0.192355265         78.8805132     0.000196206206        -11.1014951     0.000196206206        -11.1014951        0.999600118        -179.999996
3.16e+09       0.194728415         78.7422911     0.000196112603        -11.2402311     0.000196112603        -11.2402311        0.999600118        -179.999996
3.2e+09       0.197098151         78.6041927     0.000196017944        -11.3788341     0.000196017944        -11.3788341        0.999600118        -179.999996
3.24e+09       0.199464436         78.4662198     0.000195922233        -11.5173027     0.000195922233        -11.5173027        0.999600118        -179.999996
3.28e+09       0.201827238         78.3283741     0.000195825477        -11.6556355     0.000195825477        -11.6556355        0.999600118        -179.999996
3.32e+09        0.20418652         78.1906574     0.000195727679        -11.7938311     0.000195727679        -11.7938311        0.999600118        -179.999996
3.36e+09       0.206542251         78.0530713     0.000195628844        -11.9318881     0.000195628844        -11.9318881        0.999600118        -179.999996
3.4e+09       0.208894394         77.9156176     0.000195528979         -12.069805     0.000195528979         -12.069805        0.999600118        -179.999996
3.44e+09       0.211242918         77.7782978     0.000195428087        -12.2075806     0.000195428087        -12.2075806        0.999600118        -179.999996
3.48e+09       0.213587789         77.6411136     0.000195326173        -12.3452134     0.000195326173        -12.3452134        0.999600118        -179.999995
3.52e+09       0.215928975         77.5040666     0.000195223244        -12.4827021     0.000195223244        -12.4827021        0.999600118        -179.999995
3.56e+09       0.218266442         77.3671583     0.000195119303        -12.6200453     0.000195119303        -12.6200453        0.999600118        -179.999995
3.6e+09       0.220600158         77.2303904     0.000195014357        -12.7572417     0.000195014357        -12.7572417        0.999600118        -179.999995
3.64e+09       0.222930092         77.0937644      0.00019490841          -12.89429      0.00019490841          -12.89429        0.999600118        -179.999995
3.68e+09       0.225256212         76.9572818     0.000194801468        -13.0311889     0.000194801468        -13.0311889        0.999600118        -179.999995
3.72e+09       0.227578486         76.8209441     0.000194693536         -13.167937     0.000194693536         -13.167937        0.999600118        -179.999995
3.76e+09       0.229896883         76.6847527     0.000194584619         -13.304533     0.000194584619         -13.304533        0.999600118        -179.999995
3.8e+09       0.232211373         76.5487093     0.000194474722        -13.4409756     0.000194474722        -13.4409756        0.999600118        -179.999995
3.84e+09       0.234521926         76.4128152     0.000194363852        -13.5772637     0.000194363852        -13.5772637        0.999600118        -179.999995
3.88e+09        0.23682851         76.2770718     0.000194252013        -13.7133958     0.000194252013        -13.7133958        0.999600118        -179.999995
3.92e+09       0.239131097         76.1414806     0.000194139211        -13.8493707     0.000194139211        -13.8493707        0.999600118        -179.999995
3.96e+09       0.241429657          76.006043     0.000194025452        -13.9851872     0.000194025452        -13.9851872        0.999600118        -179.999995
4e+09        0.24372416         75.8707603      0.00019391074        -14.1208441      0.00019391074        -14.1208441        0.999600118        -179.999995
4.04e+09       0.246014578          75.735634     0.000193795082          -14.25634     0.000193795082          -14.25634        0.999600118        -179.999995
4.08e+09       0.248300883         75.6006654     0.000193678483        -14.3916739     0.000193678483        -14.3916739        0.999600118        -179.999995
4.12e+09       0.250583045         75.4658558     0.000193560948        -14.5268444     0.000193560948        -14.5268444        0.999600117        -179.999995
4.16e+09       0.252861037         75.3312066     0.000193442483        -14.6618504     0.000193442483        -14.6618504        0.999600117        -179.999995
4.2e+09       0.255134832          75.196719     0.000193323094        -14.7966906     0.000193323094        -14.7966906        0.999600117        -179.999995
4.24e+09       0.257404402         75.0623944     0.000193202787         -14.931364     0.000193202787         -14.931364        0.999600117        -179.999994
4.28e+09        0.25966972         74.9282341     0.000193081567        -15.0658692     0.000193081567        -15.0658692        0.999600117        -179.999994
4.32e+09       0.261930759         74.7942393      0.00019295944        -15.2002053      0.00019295944        -15.2002053        0.999600117        -179.999994
4.36e+09       0.264187493         74.6604112     0.000192836411        -15.3343709     0.000192836411        -15.3343709        0.999600117        -179.999994
4.4e+09       0.266439897         74.5267511     0.000192712487        -15.4683651     0.000192712487        -15.4683651        0.999600117        -179.999994
4.44e+09       0.268687944         74.3932603     0.000192587673        -15.6021865     0.000192587673        -15.6021865        0.999600117        -179.999994
4.48e+09       0.270931608         74.2599399     0.000192461975        -15.7358343     0.000192461975        -15.7358343        0.999600117        -179.999994
4.52e+09       0.273170866         74.1267911     0.000192335398        -15.8693071     0.000192335398        -15.8693071        0.999600117        -179.999994
4.56e+09       0.275405692         73.9938152      0.00019220795        -16.0026039      0.00019220795        -16.0026039        0.999600117        -179.999994
4.6e+09       0.277636062         73.8610132     0.000192079634        -16.1357237     0.000192079634        -16.1357237        0.999600117        -179.999994
4.64e+09       0.279861951         73.7283864     0.000191950458        -16.2686654     0.000191950458        -16.2686654        0.999600117        -179.999994
4.68e+09       0.282083336         73.5959359     0.000191820428        -16.4014278     0.000191820428        -16.4014278        0.999600117        -179.999994
4.72e+09       0.284300194         73.4636628     0.000191689548          -16.53401     0.000191689548          -16.53401        0.999600117        -179.999994
4.76e+09       0.286512501         73.3315682     0.000191557826        -16.6664109     0.000191557826        -16.6664109        0.999600117        -179.999994
4.8e+09       0.288720234         73.1996532     0.000191425266        -16.7986294     0.000191425266        -16.7986294        0.999600117        -179.999994
4.84e+09       0.290923371          73.067919     0.000191291876        -16.9306645     0.000191291876        -16.9306645        0.999600117        -179.999994
4.88e+09        0.29312189         72.9363666     0.000191157661        -17.0625153     0.000191157661        -17.0625153        0.999600117        -179.999994
4.92e+09       0.295315769         72.8049971     0.000191022626        -17.1941807     0.000191022626        -17.1941807        0.999600117        -179.999994
