! Created Thu Oct  3 14:34:44 2024
# hz S ma R 50
! 2 Port Network Data from SP1.SP block
! freq  magS11  angS11  magS21  angS21  magS12  angS12  magS22  angS22  
!     
40000000      0.0231746435        -0.91458199        0.928034332      -0.0508875061        0.928034332      -0.0508875061       0.0231746435        -0.91458199
50000000      0.0231761271        -1.14318126        0.928034294      -0.0636093809        0.928034294      -0.0636093809       0.0231761271        -1.14318126
60000000      0.0231779402        -1.37174973        0.928034248      -0.0763312546        0.928034248      -0.0763312546       0.0231779402        -1.37174973
70000000      0.0231800827        -1.60028124        0.928034193      -0.0890531271        0.928034193      -0.0890531271       0.0231800827        -1.60028124
80000000      0.0231825547        -1.82876966         0.92803413       -0.101774998         0.92803413       -0.101774998       0.0231825547        -1.82876966
90000000      0.0231853559        -2.05720884        0.928034058       -0.114496867        0.928034058       -0.114496867       0.0231853559        -2.05720884
100000000      0.0231884862        -2.28559266        0.928033978       -0.127218734        0.928033978       -0.127218734       0.0231884862        -2.28559266
110000000      0.0231919456        -2.51391501        0.928033889       -0.139940599        0.928033889       -0.139940599       0.0231919456        -2.51391501
120000000      0.0231957339        -2.74216976        0.928033792       -0.152662461        0.928033792       -0.152662461       0.0231957339        -2.74216976
130000000      0.0231998508        -2.97035084        0.928033687       -0.165384321        0.928033687       -0.165384321       0.0231998508        -2.97035084
140000000      0.0232042963        -3.19845215        0.928033573       -0.178106178        0.928033573       -0.178106178       0.0232042963        -3.19845215
150000000      0.0232090701        -3.42646762         0.92803345       -0.190828032         0.92803345       -0.190828032       0.0232090701        -3.42646762
160000000      0.0232141721         -3.6543912        0.928033319       -0.203549882        0.928033319       -0.203549882       0.0232141721         -3.6543912
170000000       0.023219602        -3.88221685         0.92803318       -0.216271729         0.92803318       -0.216271729        0.023219602        -3.88221685
180000000      0.0232253595        -4.10993855        0.928033032       -0.228993572        0.928033032       -0.228993572       0.0232253595        -4.10993855
190000000      0.0232314445        -4.33755029        0.928032876       -0.241715411        0.928032876       -0.241715411       0.0232314445        -4.33755029
200000000      0.0232378567        -4.56504609        0.928032712       -0.254437246        0.928032712       -0.254437246       0.0232378567        -4.56504609
210000000      0.0232445958        -4.79241996        0.928032539       -0.267159077        0.928032539       -0.267159077       0.0232445958        -4.79241996
220000000      0.0232516616        -5.01966598        0.928032357       -0.279880903        0.928032357       -0.279880903       0.0232516616        -5.01966598
230000000      0.0232590536        -5.24677821        0.928032167       -0.292602724        0.928032167       -0.292602724       0.0232590536        -5.24677821
240000000      0.0232667717        -5.47375075        0.928031969       -0.305324539        0.928031969       -0.305324539       0.0232667717        -5.47375075
250000000      0.0232748155        -5.70057772        0.928031762        -0.31804635        0.928031762        -0.31804635       0.0232748155        -5.70057772
260000000      0.0232831846        -5.92725327        0.928031547       -0.330768155        0.928031547       -0.330768155       0.0232831846        -5.92725327
270000000      0.0232918787        -6.15377156        0.928031323       -0.343489954        0.928031323       -0.343489954       0.0232918787        -6.15377156
280000000      0.0233008974        -6.38012678        0.928031091       -0.356211747        0.928031091       -0.356211747       0.0233008974        -6.38012678
290000000      0.0233102403        -6.60631317         0.92803085       -0.368933534         0.92803085       -0.368933534       0.0233102403        -6.60631317
300000000      0.0233199072        -6.83232498        0.928030601       -0.381655315        0.928030601       -0.381655315       0.0233199072        -6.83232498
310000000      0.0233298975        -7.05815648        0.928030344       -0.394377089        0.928030344       -0.394377089       0.0233298975        -7.05815648
320000000      0.0233402108        -7.28380198        0.928030078       -0.407098856        0.928030078       -0.407098856       0.0233402108        -7.28380198
330000000      0.0233508467        -7.50925582        0.928029803       -0.419820616        0.928029803       -0.419820616       0.0233508467        -7.50925582
340000000      0.0233618047        -7.73451237        0.928029521       -0.432542369        0.928029521       -0.432542369       0.0233618047        -7.73451237
350000000      0.0233730845        -7.95956604        0.928029229       -0.445264114        0.928029229       -0.445264114       0.0233730845        -7.95956604
360000000      0.0233846855        -8.18441126         0.92802893       -0.457985851         0.92802893       -0.457985851       0.0233846855        -8.18441126
370000000      0.0233966073        -8.40904251        0.928028622        -0.47070758        0.928028622        -0.47070758       0.0233966073        -8.40904251
380000000      0.0234088493        -8.63345428        0.928028305       -0.483429302        0.928028305       -0.483429302       0.0234088493        -8.63345428
390000000      0.0234214111        -8.85764112         0.92802798       -0.496151014         0.92802798       -0.496151014       0.0234214111        -8.85764112
400000000      0.0234342921         -9.0815976        0.928027647       -0.508872718        0.928027647       -0.508872718       0.0234342921         -9.0815976
410000000      0.0234474918        -9.30531834        0.928027305       -0.521594413        0.928027305       -0.521594413       0.0234474918        -9.30531834
420000000      0.0234610097        -9.52879799        0.928026954         -0.5343161        0.928026954         -0.5343161       0.0234610097        -9.52879799
430000000      0.0234748452        -9.75203124        0.928026596       -0.547037776        0.928026596       -0.547037776       0.0234748452        -9.75203124
440000000      0.0234889978        -9.97501281        0.928026229       -0.559759444        0.928026229       -0.559759444       0.0234889978        -9.97501281
450000000      0.0235034668        -10.1977375        0.928025853       -0.572481101        0.928025853       -0.572481101       0.0235034668        -10.1977375
460000000      0.0235182517           -10.4202        0.928025469       -0.585202749        0.928025469       -0.585202749       0.0235182517           -10.4202
470000000      0.0235333519        -10.6423954        0.928025076       -0.597924386        0.928025076       -0.597924386       0.0235333519        -10.6423954
480000000      0.0235487667        -10.8643183        0.928024675       -0.610646013        0.928024675       -0.610646013       0.0235487667        -10.8643183
490000000      0.0235644957        -11.0859639        0.928024266       -0.623367629        0.928024266       -0.623367629       0.0235644957        -11.0859639
500000000       0.023580538         -11.307327        0.928023848       -0.636089234        0.928023848       -0.636089234        0.023580538         -11.307327
510000000      0.0235968931        -11.5284026        0.928023422       -0.648810829        0.928023422       -0.648810829       0.0235968931        -11.5284026
520000000      0.0236135603        -11.7491859        0.928022987       -0.661532412        0.928022987       -0.661532412       0.0236135603        -11.7491859
530000000       0.023630539         -11.969672        0.928022544       -0.674253983        0.928022544       -0.674253983        0.023630539         -11.969672
540000000      0.0236478285         -12.189856        0.928022092       -0.686975543        0.928022092       -0.686975543       0.0236478285         -12.189856
550000000       0.023665428         -12.409733        0.928021632        -0.69969709        0.928021632        -0.69969709        0.023665428         -12.409733
560000000       0.023683337        -12.6292985        0.928021164       -0.712418626        0.928021164       -0.712418626        0.023683337        -12.6292985
570000000      0.0237015546        -12.8485475        0.928020687       -0.725140149        0.928020687       -0.725140149       0.0237015546        -12.8485475
580000000      0.0237200803        -13.0674756        0.928020202       -0.737861659        0.928020202       -0.737861659       0.0237200803        -13.0674756
590000000      0.0237389132         -13.286078        0.928019708       -0.750583157        0.928019708       -0.750583157       0.0237389132         -13.286078
600000000      0.0237580526        -13.5043502        0.928019206       -0.763304642        0.928019206       -0.763304642       0.0237580526        -13.5043502
610000000      0.0237774977        -13.7222878        0.928018695       -0.776026113        0.928018695       -0.776026113       0.0237774977        -13.7222878
620000000      0.0237972479        -13.9398862        0.928018176        -0.78874757        0.928018176        -0.78874757       0.0237972479        -13.9398862
630000000      0.0238173024        -14.1571409        0.928017648       -0.801469014        0.928017648       -0.801469014       0.0238173024        -14.1571409
640000000      0.0238376603        -14.3740478        0.928017112       -0.814190444        0.928017112       -0.814190444       0.0238376603        -14.3740478
650000000      0.0238583209        -14.5906024        0.928016568        -0.82691186        0.928016568        -0.82691186       0.0238583209        -14.5906024
660000000      0.0238792834        -14.8068004        0.928016015       -0.839633261        0.928016015       -0.839633261       0.0238792834        -14.8068004
670000000       0.023900547        -15.0226378        0.928015454       -0.852354648        0.928015454       -0.852354648        0.023900547        -15.0226378
680000000      0.0239221109        -15.2381102        0.928014884        -0.86507602        0.928014884        -0.86507602       0.0239221109        -15.2381102
690000000      0.0239439743        -15.4532136        0.928014306       -0.877797377        0.928014306       -0.877797377       0.0239439743        -15.4532136
700000000      0.0239661364        -15.6679439        0.928013719       -0.890518718        0.928013719       -0.890518718       0.0239661364        -15.6679439
710000000      0.0239885963        -15.8822972        0.928013124       -0.903240044        0.928013124       -0.903240044       0.0239885963        -15.8822972
720000000      0.0240113531        -16.0962694        0.928012521       -0.915961354        0.928012521       -0.915961354       0.0240113531        -16.0962694
730000000      0.0240344061        -16.3098567        0.928011909       -0.928682648        0.928011909       -0.928682648       0.0240344061        -16.3098567
740000000      0.0240577543        -16.5230552        0.928011288       -0.941403926        0.928011288       -0.941403926       0.0240577543        -16.5230552
750000000       0.024081397        -16.7358611         0.92801066       -0.954125188         0.92801066       -0.954125188        0.024081397        -16.7358611
760000000      0.0241053332        -16.9482708        0.928010022       -0.966846433        0.928010022       -0.966846433       0.0241053332        -16.9482708
770000000       0.024129562        -17.1602804        0.928009377       -0.979567661        0.928009377       -0.979567661        0.024129562        -17.1602804
780000000      0.0241540826        -17.3718863        0.928008723       -0.992288872        0.928008723       -0.992288872       0.0241540826        -17.3718863
790000000      0.0241788941        -17.5830851         0.92800806        -1.00501007         0.92800806        -1.00501007       0.0241788941        -17.5830851
800000000      0.0242039956        -17.7938731        0.928007389        -1.01773124        0.928007389        -1.01773124       0.0242039956        -17.7938731
810000000      0.0242293861        -18.0042468         0.92800671         -1.0304524         0.92800671         -1.0304524       0.0242293861        -18.0042468
820000000      0.0242550647        -18.2142029        0.928006022        -1.04317354        0.928006022        -1.04317354       0.0242550647        -18.2142029
830000000      0.0242810306         -18.423738        0.928005326        -1.05589466        0.928005326        -1.05589466       0.0242810306         -18.423738
840000000      0.0243072828        -18.6328488        0.928004621        -1.06861577        0.928004621        -1.06861577       0.0243072828        -18.6328488
850000000      0.0243338204         -18.841532        0.928003908        -1.08133685        0.928003908        -1.08133685       0.0243338204         -18.841532
860000000      0.0243606424        -19.0497844        0.928003186        -1.09405792        0.928003186        -1.09405792       0.0243606424        -19.0497844
870000000      0.0243877478        -19.2576029        0.928002456        -1.10677897        0.928002456        -1.10677897       0.0243877478        -19.2576029
880000000      0.0244151358        -19.4649843        0.928001718            -1.1195        0.928001718            -1.1195       0.0244151358        -19.4649843
890000000      0.0244428054        -19.6719257        0.928000971          -1.132221        0.928000971          -1.132221       0.0244428054        -19.6719257
900000000      0.0244707556         -19.878424        0.928000216        -1.14494199        0.928000216        -1.14494199       0.0244707556         -19.878424
910000000      0.0244989854        -20.0844764        0.927999452        -1.15766296        0.927999452        -1.15766296       0.0244989854        -20.0844764
920000000      0.0245274939        -20.2900799         0.92799868        -1.17038391         0.92799868        -1.17038391       0.0245274939        -20.2900799
930000000      0.0245562801        -20.4952317        0.927997899        -1.18310484        0.927997899        -1.18310484       0.0245562801        -20.4952317
940000000       0.024585343         -20.699929         0.92799711        -1.19582575         0.92799711        -1.19582575        0.024585343         -20.699929
950000000      0.0246146816        -20.9041692        0.927996312        -1.20854663        0.927996312        -1.20854663       0.0246146816        -20.9041692
960000000       0.024644295        -21.1079496        0.927995506         -1.2212675        0.927995506         -1.2212675        0.024644295        -21.1079496
970000000       0.024674182        -21.3112675        0.927994692        -1.23398834        0.927994692        -1.23398834        0.024674182        -21.3112675
980000000      0.0247043418        -21.5141204        0.927993869        -1.24670917        0.927993869        -1.24670917       0.0247043418        -21.5141204
990000000      0.0247347734        -21.7165059        0.927993038        -1.25942997        0.927993038        -1.25942997       0.0247347734        -21.7165059
1e+09      0.0247654756        -21.9184214        0.927992198        -1.27215075        0.927992198        -1.27215075       0.0247654756        -21.9184214
1.01e+09      0.0247964476        -22.1198646         0.92799135         -1.2848715         0.92799135         -1.2848715       0.0247964476        -22.1198646
1.02e+09      0.0248276882        -22.3208331        0.927990494        -1.29759224        0.927990494        -1.29759224       0.0248276882        -22.3208331
1.03e+09      0.0248591965        -22.5213247        0.927989629        -1.31031295        0.927989629        -1.31031295       0.0248591965        -22.5213247
1.04e+09      0.0248909714        -22.7213371        0.927988756        -1.32303364        0.927988756        -1.32303364       0.0248909714        -22.7213371
1.05e+09      0.0249230119        -22.9208681        0.927987874        -1.33575431        0.927987874        -1.33575431       0.0249230119        -22.9208681
1.06e+09      0.0249553171        -23.1199156        0.927986983        -1.34847495        0.927986983        -1.34847495       0.0249553171        -23.1199156
1.07e+09      0.0249878857        -23.3184775        0.927986085        -1.36119557        0.927986085        -1.36119557       0.0249878857        -23.3184775
1.08e+09      0.0250207169        -23.5165518        0.927985178        -1.37391617        0.927985178        -1.37391617       0.0250207169        -23.5165518
1.09e+09      0.0250538095        -23.7141366        0.927984262        -1.38663674        0.927984262        -1.38663674       0.0250538095        -23.7141366
1.1e+09      0.0250871625        -23.9112298        0.927983338        -1.39935728        0.927983338        -1.39935728       0.0250871625        -23.9112298
1.11e+09       0.025120775        -24.1078297        0.927982406        -1.41207781        0.927982406        -1.41207781        0.025120775        -24.1078297
1.12e+09      0.0251546457        -24.3039343        0.927981465        -1.42479831        0.927981465        -1.42479831       0.0251546457        -24.3039343
1.13e+09      0.0251887737         -24.499542        0.927980516        -1.43751878        0.927980516        -1.43751878       0.0251887737         -24.499542
1.14e+09      0.0252231579         -24.694651        0.927979558        -1.45023923        0.927979558        -1.45023923       0.0252231579         -24.694651
1.15e+09      0.0252577973        -24.8892597        0.927978592        -1.46295965        0.927978592        -1.46295965       0.0252577973        -24.8892597
1.16e+09      0.0252926909        -25.0833664        0.927977617        -1.47568005        0.927977617        -1.47568005       0.0252926909        -25.0833664
1.17e+09      0.0253278374        -25.2769695        0.927976634        -1.48840042        0.927976634        -1.48840042       0.0253278374        -25.2769695
1.18e+09       0.025363236        -25.4700675        0.927975643        -1.50112077        0.927975643        -1.50112077        0.025363236        -25.4700675
1.19e+09      0.0253988854         -25.662659        0.927974643        -1.51384109        0.927974643        -1.51384109       0.0253988854         -25.662659
1.2e+09      0.0254347848        -25.8547426        0.927973635        -1.52656138        0.927973635        -1.52656138       0.0254347848        -25.8547426
1.21e+09      0.0254709329        -26.0463167        0.927972618        -1.53928165        0.927972618        -1.53928165       0.0254709329        -26.0463167
1.22e+09      0.0255073287        -26.2373802        0.927971593        -1.55200189        0.927971593        -1.55200189       0.0255073287        -26.2373802
1.23e+09      0.0255439712        -26.4279318         0.92797056         -1.5647221         0.92797056         -1.5647221       0.0255439712        -26.4279318
1.24e+09      0.0255808593        -26.6179701        0.927969518        -1.57744229        0.927969518        -1.57744229       0.0255808593        -26.6179701
1.25e+09      0.0256179919        -26.8074941        0.927968467        -1.59016245        0.927968467        -1.59016245       0.0256179919        -26.8074941
1.26e+09       0.025655368        -26.9965025        0.927967408        -1.60288258        0.927967408        -1.60288258        0.025655368        -26.9965025
