! Created with skrf (http://scikit-rf.org).
# Hz S MA R 50.0 
!freq magS11 angS11
40000000.0 0.9999999999999999 -0.047948971481061024
80000000.0 1.0000000000000002 -0.09508177143716043
120000000.0 1.0 -0.14190648633782016
160000000.0 1.0 -0.18853110442317178
200000000.0 0.9999999999999999 -0.23500690513843378
240000000.0 1.0000000000000002 -0.2813640854505869
280000000.0 1.0 -0.32762259363174134
320000000.0 1.0000000000000002 -0.3737966036099645
360000000.0 0.9999999999999999 -0.4198967096491397
400000000.0 0.9999999999999998 -0.4659311318488635
440000000.0 1.0 -0.511906434167723
480000000.0 1.0 -0.557827979062033
520000000.0 1.0 -0.6037002294918415
560000000.0 0.9999999999999999 -0.649526957445753
600000000.0 1.0 -0.6953113925847364
640000000.0 1.0000000000000002 -0.7410563310746258
680000000.0 0.9999999999999999 -0.7867642171073153
720000000.0 0.9999999999999998 -0.832437205176657
760000000.0 1.0000000000000002 -0.8780772084745014
800000000.0 0.9999999999999999 -0.923685937071332
840000000.0 0.9999999999999999 -0.9692649284427564
880000000.0 1.0 -1.0148155721690384
920000000.0 1.0 -1.0603391301351126
960000000.0 1.0 -1.1058367532113433
1000000000.0 1.0 -1.1513094951496472
1040000000.0 0.9999999999999999 -1.1967583242529185
1080000000.0 1.0 -1.2421841332466754
1120000000.0 0.9999999999999999 -1.2875877476863642
1160000000.0 1.0 -1.332969933162183
1200000000.0 1.0000000000000002 -1.378331401509025
1240000000.0 1.0 -1.4236728161875667
1280000000.0 0.9999999999999999 -1.4689947969703265
1320000000.0 1.0 -1.5142979240414312
1360000000.0 1.0 -1.5595827415989958
1400000000.0 0.9999999999999999 -1.6048497610333436
1440000000.0 1.0 -1.650099463741709
1480000000.0 1.0000000000000002 -1.6953323036299623
1520000000.0 1.0 -1.7405487093436776
1560000000.0 1.0 -1.7857490862641916
1600000000.0 1.0 -1.8309338182997994
1640000000.0 1.0 -1.8761032694977173
1680000000.0 0.9999999999999999 -1.921257785498683
1720000000.0 1.0 -1.9663976948529396
1760000000.0 0.9999999999999999 -2.0115233102137298
1800000000.0 1.0 -2.0566349294222332
1840000000.0 0.9999999999999999 -2.1017328364960117
1880000000.0 0.9999999999999999 -2.146817302531453
1920000000.0 0.9999999999999998 -2.1918885865293762
1960000000.0 0.9999999999999998 -2.2369469361517953
2000000000.0 1.0000000000000002 -2.2819925884168857
2040000000.0 1.0000000000000002 -2.327025770338319
2080000000.0 1.0 -2.372046699514427
2120000000.0 1.0 -2.417055584672035
2160000000.0 0.9999999999999998 -2.462052626169225
2200000000.0 1.0 -2.5070380164608377
2240000000.0 1.0000000000000002 -2.552011940530111
2280000000.0 1.0 -2.596974576289475
2320000000.0 1.0 -2.641926094953199
2360000000.0 1.0 -2.686866661384339
2400000000.0 0.9999999999999999 -2.7317964344181433
2440000000.0 1.0 -2.776715567163899
2480000000.0 1.0000000000000002 -2.821624207286968
2520000000.0 1.0 -2.8665224972726224
2560000000.0 1.0 -2.9114105746731314
2600000000.0 1.0 -2.9562885723393784
2640000000.0 1.0 -3.0011566186382383
2680000000.0 1.0000000000000002 -3.046014837656763
2720000000.0 1.0000000000000002 -3.0908633493941857
2760000000.0 0.9999999999999999 -3.135702269942606
2800000000.0 0.9999999999999999 -3.180531711657216
2840000000.0 1.0 -3.2253517833167837
2880000000.0 1.0 -3.270162590275095
2920000000.0 1.0 -3.3149642346039836
2960000000.0 1.0 -3.359756815228509
3000000000.0 0.9999999999999999 -3.404540428054839
3040000000.0 1.0 -3.4493151660912966
3080000000.0 1.0000000000000002 -3.4940811195630466
3120000000.0 1.0000000000000002 -3.538838376020806
3160000000.0 1.0 -3.5835870204439964
3200000000.0 0.9999999999999999 -3.6283271353386515
3240000000.0 1.0 -3.6730588008304474
3280000000.0 1.0 -3.7177820947531193
3320000000.0 0.9999999999999999 -3.7624970927325774
3360000000.0 0.9999999999999998 -3.8072038682669604
3400000000.0 1.0 -3.8519024928028727
3440000000.0 1.0 -3.8965930358080496
3480000000.0 1.0 -3.941275564840613
3520000000.0 0.9999999999999999 -3.9859501456151722
3560000000.0 1.0000000000000002 -4.030616842065894
3600000000.0 1.0 -4.075275716406754
3640000000.0 1.0 -4.119926829189108
3680000000.0 1.0 -4.164570239356717
3720000000.0 1.0 -4.209206004298393
3760000000.0 0.9999999999999998 -4.2538341798983845
3800000000.0 0.9999999999999999 -4.298454820584599
3840000000.0 0.9999999999999999 -4.343067979374807
3880000000.0 0.9999999999999998 -4.3876737079209205
3920000000.0 1.0 -4.432272056551442
3960000000.0 1.0 -4.476863074312176
4000000000.0 1.0 -4.521446809005313
4040000000.0 1.0000000000000002 -4.566023307226915
4080000000.0 0.9999999999999999 -4.610592614402963
4120000000.0 1.0 -4.6551547748239415
4160000000.0 1.0 -4.699709831678125
4200000000.0 1.0 -4.744257827083546
4240000000.0 1.0 -4.78879880211877
4280000000.0 0.9999999999999999 -4.833332796852498
4320000000.0 0.9999999999999999 -4.877859850372065
4360000000.0 0.9999999999999999 -4.922380000810881
4400000000.0 1.0 -4.966893285374867
4440000000.0 0.9999999999999999 -5.01139974036793
4480000000.0 0.9999999999999997 -5.05589940121652
4520000000.0 1.0000000000000002 -5.100392302493295
4560000000.0 1.0 -5.144878477939987
4600000000.0 1.0000000000000002 -5.189357960489418
4640000000.0 0.9999999999999998 -5.2338307822867804
4680000000.0 1.0 -5.278296974710174
4720000000.0 0.9999999999999999 -5.322756568390448
4760000000.0 1.0000000000000002 -5.3672095932303625
4800000000.0 1.0000000000000002 -5.411656078423097
4840000000.0 1.0 -5.456096052470172
4880000000.0 1.0 -5.500529543198745
4920000000.0 1.0000000000000002 -5.544956577778364
4960000000.0 1.0 -5.589377182737155
5000000000.0 1.0000000000000002 -5.633791383977506
5040000000.0 0.9999999999999999 -5.678199206791247
5080000000.0 1.0 -5.722600675874325
5120000000.0 0.9999999999999999 -5.766995815341051
5160000000.0 0.9999999999999998 -5.811384648737883
5200000000.0 1.0 -5.855767199056778
5240000000.0 0.9999999999999999 -5.900143488748143
5280000000.0 0.9999999999999999 -5.944513539733386
5320000000.0 1.0000000000000002 -5.988877373417092
5360000000.0 1.0 -6.033235010698826
5400000000.0 1.0 -6.077586471984584
5440000000.0 1.0 -6.121931777197914
5480000000.0 1.0 -6.166270945790693
5520000000.0 1.0 -6.210603996753617
5560000000.0 0.9999999999999999 -6.2549309486263525
5600000000.0 1.0000000000000002 -6.299251819507425
5640000000.0 0.9999999999999999 -6.343566627063809
5680000000.0 1.0000000000000002 -6.387875388540255
5720000000.0 0.9999999999999998 -6.432178120768345
5760000000.0 1.0 -6.4764748401753
5800000000.0 0.9999999999999999 -6.5207655627925485
5840000000.0 1.0 -6.565050304264047
5880000000.0 1.0 -6.609329079854383
5920000000.0 0.9999999999999999 -6.653601904456657
5960000000.0 1.0000000000000002 -6.69786879260013
6000000000.0 1.0 -6.742129758457708
6040000000.0 0.9999999999999999 -6.786384815853187
6080000000.0 1.0 -6.830633978268334
6120000000.0 1.0 -6.874877258849752
6160000000.0 1.0000000000000002 -6.919114670415614
6200000000.0 1.0000000000000002 -6.963346225462162
6240000000.0 1.0000000000000002 -7.007571936170084
6280000000.0 0.9999999999999999 -7.0517918144107075
6320000000.0 1.0 -7.0960058717520536
6360000000.0 0.9999999999999999 -7.140214119464696
6400000000.0 1.0 -7.184416568527539
6440000000.0 1.0 -7.228613229633385
6480000000.0 1.0000000000000002 -7.272804113194402
6520000000.0 1.0000000000000002 -7.316989229347459
6560000000.0 1.0000000000000002 -7.361168587959285
6600000000.0 1.0 -7.405342198631587
6640000000.0 1.0000000000000002 -7.449510070705946
6680000000.0 0.9999999999999998 -7.49367221326867
6720000000.0 1.0 -7.537828635155497
6760000000.0 1.0 -7.581979344956188
6800000000.0 1.0 -7.626124351019019
6840000000.0 1.0000000000000002 -7.670263661455168
6880000000.0 0.9999999999999999 -7.714397284143006
6920000000.0 1.0 -7.758525226732251
6960000000.0 1.0 -7.8026474966480714
7000000000.0 1.0 -7.8467641010950935
7040000000.0 0.9999999999999999 -7.8908750470612725
7080000000.0 1.0 -7.934980341321728
7120000000.0 1.0000000000000002 -7.979079990442447
7160000000.0 1.0000000000000002 -8.023174000783959
7200000000.0 1.0000000000000002 -8.067262378504871
7240000000.0 0.9999999999999999 -8.111345129565365
7280000000.0 1.0 -8.155422259730598
7320000000.0 0.9999999999999999 -8.199493774574034
7360000000.0 1.0000000000000002 -8.243559679480704
7400000000.0 1.0000000000000002 -8.287619979650403
7440000000.0 1.0 -8.331674680100793
7480000000.0 1.0000000000000002 -8.375723785670464
7520000000.0 1.0 -8.41976730102193
7560000000.0 1.0 -8.46380523064454
7600000000.0 1.0 -8.507837578857352
7640000000.0 0.9999999999999999 -8.55186434981192
7680000000.0 0.9999999999999999 -8.595885547495065
7720000000.0 1.0 -8.639901175731532
7760000000.0 1.0000000000000002 -8.68391123818664
7800000000.0 1.0 -8.727915738368866
7840000000.0 0.9999999999999999 -8.771914679632342
7880000000.0 1.0 -8.81590806517936
7920000000.0 1.0 -8.85989589806278
7960000000.0 1.0000000000000002 -8.903878181188412
8000000000.0 1.0000000000000002 -8.947854917317335
8040000000.0 1.0000000000000002 -8.991826109068178
8080000000.0 1.0000000000000002 -9.035791758919371
8120000000.0 0.9999999999999999 -9.079751869211329
8160000000.0 1.0000000000000002 -9.123706442148583
8200000000.0 1.0 -9.167655479801924
8240000000.0 1.0000000000000002 -9.211598984110434
8280000000.0 1.0 -9.25553695688354
8320000000.0 1.0 -9.299469399802973
8360000000.0 0.9999999999999999 -9.343396314424751
8400000000.0 1.0000000000000002 -9.387317702181056
8440000000.0 0.9999999999999999 -9.431233564382145
8480000000.0 0.9999999999999999 -9.47514390221816
8520000000.0 1.0 -9.519048716760956
8560000000.0 1.0 -9.562948008965865
8600000000.0 1.0 -9.606841779673433
8640000000.0 1.0 -9.65073002961113
8680000000.0 1.0 -9.694612759395037
8720000000.0 1.0 -9.738489969531464
8760000000.0 0.9999999999999998 -9.782361660418598
8800000000.0 0.9999999999999999 -9.826227832348074
8840000000.0 0.9999999999999998 -9.870088485506523
8880000000.0 0.9999999999999999 -9.913943619977111
8920000000.0 1.0 -9.957793235741061
8960000000.0 0.9999999999999999 -10.00163733267909
9000000000.0 0.9999999999999999 -10.045475910572879
9040000000.0 1.0000000000000002 -10.0893089691065
9080000000.0 0.9999999999999999 -10.133136507867817
9120000000.0 1.0 -10.176958526349843
9160000000.0 1.0 -10.220775023952099
9200000000.0 1.0 -10.264585999981954
9240000000.0 1.0 -10.308391453655918
9280000000.0 1.0 -10.352191384100905
9320000000.0 1.0 -10.395985790355544
9360000000.0 1.0 -10.439774671371362
9400000000.0 1.0 -10.48355802601403
9440000000.0 0.9999999999999998 -10.527335853064555
9480000000.0 1.0 -10.571108151220479
9520000000.0 1.0 -10.614874919096971
9560000000.0 1.0000000000000002 -10.65863615522805
9600000000.0 0.9999999999999998 -10.702391858067648
9640000000.0 1.0000000000000002 -10.746142025990716
9680000000.0 0.9999999999999999 -10.789886657294332
9720000000.0 1.0 -10.83362575019874
9760000000.0 0.9999999999999999 -10.877359302848419
9800000000.0 0.9999999999999998 -10.921087313313086
9840000000.0 1.0 -10.964809779588753
9880000000.0 1.0 -11.008526699598672
9920000000.0 1.0 -11.05223807119435
9960000000.0 1.0 -11.095943892156525
10000000000.0 1.0 -11.13964416019608
10040000000.0 0.9999999999999999 -11.183338872955012
10080000000.0 0.9999999999999999 -11.22702802800734
10120000000.0 0.9999999999999999 -11.27071162286
10160000000.0 1.0 -11.314389654953763
10200000000.0 1.0 -11.358062121664092
10240000000.0 1.0 -11.401729020302025
10280000000.0 1.0 -11.445390348114998
10320000000.0 0.9999999999999998 -11.489046102287723
10360000000.0 1.0 -11.53269627994299
10400000000.0 1.0000000000000002 -11.57634087814247
10440000000.0 1.0 -11.619979893887546
10480000000.0 1.0 -11.66361332412007
10520000000.0 1.0 -11.707241165723167
10560000000.0 1.0000000000000002 -11.750863415521996
10600000000.0 1.0000000000000002 -11.794480070284465
10640000000.0 1.0000000000000002 -11.838091126722048
10680000000.0 0.9999999999999998 -11.881696581490438
10720000000.0 0.9999999999999999 -11.92529643119033
10760000000.0 1.0 -11.968890672368087
10800000000.0 1.0 -12.012479301516462
10840000000.0 1.0000000000000002 -12.056062315075303
10880000000.0 1.0000000000000002 -12.099639709432195
10920000000.0 0.9999999999999998 -12.14321148092315
10960000000.0 1.0000000000000002 -12.18677762583327
11000000000.0 1.0 -12.230338140397398
11040000000.0 1.0 -12.273893020800756
11080000000.0 0.9999999999999999 -12.317442263179567
11120000000.0 1.0 -12.3609858636217
11160000000.0 0.9999999999999998 -12.404523818167267
11200000000.0 1.0 -12.448056122809238
11240000000.0 1.0000000000000002 -12.491582773494043
11280000000.0 1.0000000000000002 -12.535103766122143
11320000000.0 1.0 -12.578619096548623
11360000000.0 1.0 -12.622128760583776
11400000000.0 0.9999999999999999 -12.665632753993638
11440000000.0 1.0 -12.709131072500579
11480000000.0 1.0000000000000002 -12.752623711783833
11520000000.0 1.0000000000000002 -12.796110667480045
11560000000.0 1.0 -12.839591935183794
11600000000.0 1.0 -12.883067510448157
11640000000.0 1.0000000000000004 -12.92653738878518
11680000000.0 0.9999999999999999 -12.970001565666426
11720000000.0 0.9999999999999999 -13.013460036523464
11760000000.0 1.0 -13.056912796748394
11800000000.0 0.9999999999999999 -13.100359841694303
11840000000.0 1.0000000000000002 -13.143801166675779
11880000000.0 1.0 -13.187236766969379
11920000000.0 1.0000000000000002 -13.230666637814112
11960000000.0 0.9999999999999998 -13.274090774411908
12000000000.0 0.9999999999999998 -13.31750917192805
12040000000.0 1.0 -13.360921825491687
12080000000.0 0.9999999999999999 -13.404328730196207
12120000000.0 1.0000000000000002 -13.447729881099772
12160000000.0 1.0 -13.491125273225668
12200000000.0 1.0 -13.534514901562796
12240000000.0 0.9999999999999998 -13.577898761066072
12280000000.0 1.0000000000000002 -13.621276846656869
12320000000.0 1.0000000000000002 -13.664649153223413
12360000000.0 1.0 -13.708015675621196
12400000000.0 0.9999999999999999 -13.751376408673398
12440000000.0 1.0 -13.794731347171279
12480000000.0 1.0 -13.838080485874567
12520000000.0 1.0 -13.881423819511841
12560000000.0 1.0 -13.924761342780972
12600000000.0 1.0 -13.96809305034942
12640000000.0 1.0 -14.011418936854678
12680000000.0 0.9999999999999999 -14.05473899690462
12720000000.0 1.0000000000000002 -14.098053225077852
12760000000.0 1.0 -14.141361615924103
12800000000.0 1.0 -14.184664163964568
12840000000.0 1.0000000000000002 -14.227960863692266
12880000000.0 1.0 -14.271251709572393
12920000000.0 0.9999999999999999 -14.314536696042653
12960000000.0 0.9999999999999999 -14.357815817513618
13000000000.0 0.9999999999999999 -14.401089068369048
13040000000.0 1.0 -14.444356442966257
13080000000.0 1.0 -14.487617935636385
13120000000.0 1.0000000000000002 -14.530873540684789
13160000000.0 0.9999999999999999 -14.574123252391315
13200000000.0 0.9999999999999999 -14.617367065010633
13240000000.0 1.0 -14.660604972772564
13280000000.0 1.0000000000000002 -14.703836969882373
13320000000.0 0.9999999999999999 -14.74706305052107
13360000000.0 1.0 -14.79028320884574
13400000000.0 0.9999999999999998 -14.83349743898983
13440000000.0 1.0000000000000002 -14.876705735063425
13480000000.0 0.9999999999999999 -14.919908091153573
13520000000.0 1.0000000000000002 -14.96310450132456
13560000000.0 0.9999999999999999 -15.006294959618193
13600000000.0 1.0 -15.049479460054084
13640000000.0 1.0 -15.092657996629933
13680000000.0 1.0000000000000002 -15.135830563321807
13720000000.0 1.0 -15.17899715408442
13760000000.0 1.0 -15.222157762851374
13800000000.0 1.0000000000000002 -15.26531238353546
13840000000.0 1.0 -15.30846101002891
13880000000.0 1.0000000000000004 -15.351603636203654
13920000000.0 1.0 -15.394740255911573
13960000000.0 1.0000000000000002 -15.437870862984788
14000000000.0 1.0 -15.480995451235863
14040000000.0 1.0 -15.524114014458101
14080000000.0 1.0 -15.567226546425767
14120000000.0 0.9999999999999999 -15.610333040894327
14160000000.0 1.0 -15.653433491600703
14200000000.0 1.0 -15.696527892263527
14240000000.0 0.9999999999999999 -15.739616236583347
14280000000.0 1.0000000000000002 -15.78269851824287
14320000000.0 0.9999999999999999 -15.825774730907211
14360000000.0 1.0000000000000002 -15.868844868224123
14400000000.0 1.0 -15.91190892382417
14440000000.0 1.0000000000000002 -15.954966891321032
14480000000.0 1.0000000000000002 -15.998018764311666
14520000000.0 1.0000000000000002 -16.041064536376577
14560000000.0 1.0 -16.08410420107996
14600000000.0 1.0 -16.127137751970004
14640000000.0 1.0000000000000002 -16.17016518257904
14680000000.0 1.0 -16.21318648642378
14720000000.0 1.0 -16.256201657005516
14760000000.0 1.0 -16.299210687810344
14800000000.0 1.0 -16.34221357230934
14840000000.0 1.0 -16.385210303958786
14880000000.0 1.0 -16.428200876200343
14920000000.0 0.9999999999999999 -16.47118528246129
14960000000.0 1.0000000000000002 -16.514163516154674
15000000000.0 0.9999999999999999 -16.557135570679556
15040000000.0 1.0 -16.60010143942114
15080000000.0 1.0 -16.643061115751024
15120000000.0 0.9999999999999999 -16.68601459302734
15160000000.0 1.0 -16.728961864594968
15200000000.0 1.0 -16.771902923785728
15240000000.0 0.9999999999999999 -16.814837763918526
15280000000.0 0.9999999999999999 -16.857766378299562
15320000000.0 0.9999999999999999 -16.90068876022253
15360000000.0 0.9999999999999998 -16.943604902968715
15400000000.0 1.0000000000000002 -16.986514799807267
15440000000.0 1.0 -17.02941844399533
15480000000.0 0.9999999999999998 -17.072315828778184
15520000000.0 1.0 -17.115206947389456
15560000000.0 1.0000000000000002 -17.15809179305131
15600000000.0 0.9999999999999999 -17.20097035897453
15640000000.0 1.0 -17.243842638358775
15680000000.0 1.0 -17.286708624392688
15720000000.0 1.0 -17.329568310254086
15760000000.0 1.0 -17.37242168911009
15800000000.0 1.0000000000000002 -17.415268754117335
15840000000.0 0.9999999999999999 -17.45810949842206
15880000000.0 1.0 -17.500943915160338
15920000000.0 1.0 -17.54377199745816
15960000000.0 1.0 -17.586593738431635
16000000000.0 1.0 -17.629409131187135
16040000000.0 1.0 -17.672218168821427
16080000000.0 0.9999999999999998 -17.715020844421847
16120000000.0 1.0000000000000002 -17.75781715106641
16160000000.0 0.9999999999999999 -17.800607081823998
16200000000.0 1.0000000000000002 -17.84339062975448
16240000000.0 1.0000000000000002 -17.88616778790887
16280000000.0 1.0000000000000002 -17.928938549329445
16320000000.0 0.9999999999999998 -17.971702907049913
16360000000.0 1.0 -18.014460854095528
16400000000.0 1.0 -18.05721238348326
16440000000.0 1.0000000000000002 -18.0999574882219
16480000000.0 1.0 -18.142696161312205
16520000000.0 1.0 -18.18542839574704
16560000000.0 1.0000000000000002 -18.2281541845115
16600000000.0 0.9999999999999999 -18.27087352058307
16640000000.0 1.0 -18.31358639693171
16680000000.0 0.9999999999999999 -18.35629280652002
16720000000.0 0.9999999999999999 -18.398992742303356
16760000000.0 1.0 -18.441686197229956
16800000000.0 1.0 -18.484373164241074
16840000000.0 1.0 -18.527053636271088
16880000000.0 1.0 -18.56972760624765
16920000000.0 1.0000000000000002 -18.61239506709179
16960000000.0 1.0 -18.655056011718017
17000000000.0 1.0 -18.697710433034516
17040000000.0 1.0 -18.740358323943177
17080000000.0 1.0 -18.782999677339753
17120000000.0 1.0 -18.825634486113984
17160000000.0 0.9999999999999997 -18.868262743149725
17200000000.0 1.0000000000000002 -18.910884441325006
17240000000.0 1.0 -18.953499573512214
17280000000.0 0.9999999999999999 -18.99610813257816
17320000000.0 0.9999999999999999 -19.03871011138422
17360000000.0 1.0 -19.081305502786414
17400000000.0 1.0 -19.123894299635545
17440000000.0 1.0 -19.16647649477731
17480000000.0 0.9999999999999998 -19.209052081052384
17520000000.0 0.9999999999999999 -19.251621051296546
17560000000.0 1.0000000000000002 -19.294183398340778
17600000000.0 1.0 -19.33673911501139
17640000000.0 1.0000000000000002 -19.3792881941301
17680000000.0 1.0 -19.42183062851413
17720000000.0 1.0 -19.464366410976357
17760000000.0 0.9999999999999999 -19.506895534325356
17800000000.0 1.0000000000000002 -19.54941799136555
17840000000.0 0.9999999999999998 -19.591933774897292
