! Created with skrf (http://scikit-rf.org).
# Hz S MA R 50.0 
!freq magS11 angS11 magS21 angS21 magS12 angS12 magS22 angS22
40000000.0 0.9999999124566153 -0.02397448574053051 0.0008368674008686409 89.97602551425946 0.0008368674008686409 89.97602551425946 0.9999999124566153 -0.02397448574053051
80000000.0 0.9999996557616494 -0.047540885718580214 0.0016594897797871154 89.95245911428142 0.0016594897797871154 89.95245911428142 0.9999996557616494 -0.047540885718580214
120000000.0 0.9999992332228076 -0.07095324316891008 0.0024767347834965367 89.92904675683108 0.0024767347834965367 89.92904675683108 0.9999992332228076 -0.07095324316891008
160000000.0 0.9999986465859722 -0.09426555221158588 0.00329048703014102 89.90573444778842 0.00329048703014102 89.90573444778842 0.9999986465859722 -0.09426555221158588
200000000.0 0.999997897065033 -0.11750345256921689 0.004101641384423534 89.88249654743079 0.004101641384423534 89.88249654743079 0.999997897065033 -0.11750345256921689
240000000.0 0.9999969855932558 -0.14068204272529342 0.004910724753662192 89.85931795727471 0.004910724753662192 89.85931795727471 0.9999969855932558 -0.14068204272529342
280000000.0 0.9999959129293925 -0.16381129681587064 0.005718085172711943 89.83618870318412 0.005718085172711943 89.83618870318412 0.9999959129293925 -0.16381129681587064
320000000.0 0.999994679712947 -0.18689830180498218 0.006523969895943855 89.81310169819501 0.006523969895943855 89.81310169819501 0.999994679712947 -0.18689830180498218
360000000.0 0.9999932864967235 -0.20994835482456986 0.00732856370151195 89.79005164517544 0.00732856370151195 89.79005164517544 0.9999932864967235 -0.20994835482456986
400000000.0 0.9999917337676445 -0.2329655659244317 0.008132009931204522 89.76703443407557 0.008132009931204522 89.76703443407557 0.9999917337676445 -0.2329655659244317
440000000.0 0.9999900219608767 -0.2559532170838615 0.008934423022244273 89.74404678291614 0.008934423022244273 89.74404678291614 0.9999900219608767 -0.2559532170838615
480000000.0 0.9999881514698646 -0.2789139895310164 0.009735896442175426 89.72108601046898 0.009735896442175426 89.72108601046898 0.9999881514698646 -0.2789139895310164
520000000.0 0.9999861226537113 -0.3018501147459207 0.010536507959817578 89.69814988525408 0.010536507959817578 89.69814988525408 0.9999861226537113 -0.3018501147459207
560000000.0 0.9999839358427696 -0.3247634787228765 0.011336323284672876 89.67523652127713 0.011336323284672876 89.67523652127713 0.9999839358427696 -0.3247634787228765
600000000.0 0.9999815913429775 -0.34765569629236825 0.012135398661218282 89.65234430370764 0.012135398661218282 89.65234430370764 0.9999815913429775 -0.34765569629236825
640000000.0 0.9999790894392869 -0.3705281655373128 0.012933782768364063 89.62947183446268 0.012933782768364063 89.62947183446268 0.9999790894392869 -0.3705281655373128
680000000.0 0.9999764303984257 -0.3933821085536575 0.013731518142243831 89.60661789144635 0.013731518142243831 89.60661789144635 0.9999764303984257 -0.3933821085536575
720000000.0 0.999973614471151 -0.41621860258832843 0.014528642263113739 89.58378139741167 0.014528642263113739 89.58378139741167 0.999973614471151 -0.41621860258832843
760000000.0 0.9999706418941138 -0.4390386042372507 0.015325188400004923 89.56096139576275 0.015325188400004923 89.56096139576275 0.9999706418941138 -0.4390386042372507
800000000.0 0.9999675128914214 -0.461842968535666 0.016121186277085593 89.53815703146434 0.016121186277085593 89.53815703146434 0.9999675128914214 -0.461842968535666
840000000.0 0.999964227675953 -0.4846324642213782 0.016916662606434766 89.51536753577862 0.016916662606434766 89.51536753577862 0.999964227675953 -0.4846324642213782
880000000.0 0.9999607864504861 -0.5074077860845192 0.017711641519117867 89.49259221391549 0.017711641519117867 89.49259221391549 0.9999607864504861 -0.5074077860845192
920000000.0 0.9999571894086621 -0.5301695650675563 0.018506144917732212 89.46983043493245 0.018506144917732212 89.46983043493245 0.9999571894086621 -0.5301695650675563
960000000.0 0.9999534367358232 -0.5529183766056717 0.019300192767530908 89.44708162339434 0.019300192767530908 89.44708162339434 0.9999534367358232 -0.5529183766056717
1000000000.0 0.9999495286097414 -0.5756547475748236 0.020093803338946694 89.42434525242518 0.020093803338946694 89.42434525242518 0.9999495286097414 -0.5756547475748236
1040000000.0 0.9999454652012576 -0.5983791621264591 0.020886993411253288 89.40162083787355 0.020886993411253288 89.40162083787355 0.9999454652012576 -0.5983791621264591
1080000000.0 0.9999412466748461 -0.6210920666233377 0.021679778444850438 89.37890793337667 0.021679778444850438 89.37890793337667 0.9999412466748461 -0.6210920666233377
1120000000.0 0.9999368731891132 -0.6437938738431821 0.022472172727991863 89.35620612615682 0.022472172727991863 89.35620612615682 0.9999368731891132 -0.6437938738431821
1160000000.0 0.9999323448972424 -0.6664849665810915 0.02326418950252662 89.3335150334189 0.02326418950252662 89.3335150334189 0.9999323448972424 -0.6664849665810915
1200000000.0 0.9999276619473912 -0.6891657007545124 0.02405584107227699 89.3108342992455 0.02405584107227699 89.3108342992455 0.9999276619473912 -0.6891657007545124
1240000000.0 0.9999228244830493 -0.7118364080937833 0.02484713889695056 89.28816359190623 0.02484713889695056 89.28816359190623 0.9999228244830493 -0.7118364080937833
1280000000.0 0.9999178326433587 -0.7344973984851633 0.02563809367392218 89.26550260151484 0.02563809367392218 89.26550260151484 0.9999178326433587 -0.7344973984851633
1320000000.0 0.9999126865634055 -0.7571489620207155 0.026428715409783504 89.24285103797929 0.026428715409783504 89.24285103797929 0.9999126865634055 -0.7571489620207155
1360000000.0 0.9999073863744834 -0.779791370799498 0.027219013483211933 89.2202086292005 0.027219013483211933 89.2202086292005 0.9999073863744834 -0.779791370799498
1400000000.0 0.9999019322043333 -0.8024248805166717 0.028008996700436686 89.19757511948333 0.028008996700436686 89.19757511948333 0.9999019322043333 -0.8024248805166717
1440000000.0 0.9998963241773625 -0.8250497318708545 0.028798673344360814 89.17495026812915 0.028798673344360814 89.17495026812915 0.9998963241773625 -0.8250497318708545
1480000000.0 0.9998905624148459 -0.8476661518149812 0.029588051218220748 89.15233384818502 0.029588051218220748 89.15233384818502 0.9998905624148459 -0.8476661518149812
1520000000.0 0.9998846470351086 -0.8702743546718387 0.03037713768452235 89.12972564532816 0.03037713768452235 89.12972564532816 0.9998846470351086 -0.8702743546718387
1560000000.0 0.9998785781536955 -0.8928745431320958 0.03116593969987545 89.1071254568679 0.03116593969987545 89.1071254568679 0.9998785781536955 -0.8928745431320958
1600000000.0 0.9998723558835272 -0.9154669091498995 0.031954463846253 89.0845330908501 0.031954463846253 89.0845330908501 0.9998723558835272 -0.9154669091498995
1640000000.0 0.999865980335043 -0.9380516347488587 0.03274271635912232 89.06194836525114 0.03274271635912232 89.06194836525114 0.999865980335043 -0.9380516347488587
1680000000.0 0.9998594516163356 -0.9606288927493415 0.033530703152829855 89.03937110725066 0.033530703152829855 89.03937110725066 0.9998594516163356 -0.9606288927493415
1720000000.0 0.9998527698332731 -0.9831988474264696 0.034318429843566915 89.01680115257354 0.034318429843566915 89.01680115257354 0.9998527698332731 -0.9831988474264696
1760000000.0 0.9998459350896144 -1.0057616551068647 0.03510590177019764 88.99423834489315 0.03510590177019764 88.99423834489315 0.9998459350896144 -1.0057616551068647
1800000000.0 0.9998389474871155 -1.0283174647111166 0.035893124013192376 88.97168253528889 0.035893124013192376 88.97168253528889 0.9998389474871155 -1.0283174647111166
1840000000.0 0.9998318071256304 -1.0508664182480056 0.03668010141187717 88.949133581752 0.03668010141187717 88.949133581752 0.9998318071256304 -1.0508664182480056
1880000000.0 0.9998245141032007 -1.0734086512657268 0.03746683858018232 88.92659134873428 0.03746683858018232 88.92659134873428 0.9998245141032007 -1.0734086512657268
1920000000.0 0.9998170685161468 -1.0959442932646877 0.038253339921049886 88.90405570673532 0.038253339921049886 88.90405570673532 0.9998170685161468 -1.0959442932646877
1960000000.0 0.9998094704591451 -1.1184734680758972 0.03903960963963995 88.88152653192411 0.03903960963963995 88.88152653192411 0.9998094704591451 -1.1184734680758972
2000000000.0 0.9998017200253074 -1.1409962942084428 0.039825651755458207 88.85900370579155 0.039825651755458207 88.85900370579155 0.9998017200253074 -1.1409962942084428
2040000000.0 0.9997938173062507 -1.1635128851691594 0.04061147011351281 88.83648711483085 0.04061147011351281 88.83648711483085 0.9997938173062507 -1.1635128851691594
2080000000.0 0.9997857623921654 -1.1860233497572132 0.041397068394595664 88.8139766502428 0.041397068394595664 88.8139766502428 0.9997857623921654 -1.1860233497572132
2120000000.0 0.9997775553718774 -1.2085277923360176 0.04218245012477253 88.79147220766399 0.04218245012477253 88.79147220766399 0.9997775553718774 -1.2085277923360176
2160000000.0 0.9997691963329101 -1.2310263130846124 0.042967618684156494 88.7689736869154 0.042967618684156494 88.7689736869154 0.9997691963329101 -1.2310263130846124
2200000000.0 0.9997606853615383 -1.2535190082304188 0.04375257731503109 88.74648099176959 0.04375257731503109 88.74648099176959 0.9997606853615383 -1.2535190082304188
2240000000.0 0.9997520225428429 -1.2760059702650555 0.04453732912938253 88.72399402973495 0.04453732912938253 88.72399402973495 0.9997520225428429 -1.2760059702650555
2280000000.0 0.9997432079607608 -1.2984872881447374 0.04532187711589362 88.70151271185526 0.04532187711589362 88.70151271185526 0.9997432079607608 -1.2984872881447374
2320000000.0 0.9997342416981323 -1.3209630474766 0.04610622414644651 88.6790369525234 0.04610622414644651 88.6790369525234 0.9997342416981323 -1.3209630474766
2360000000.0 0.9997251238367465 -1.3434333306921697 0.046890372982176826 88.65656666930784 0.046890372982176826 88.65656666930784 0.9997251238367465 -1.3434333306921697
2400000000.0 0.9997158544573841 -1.3658982172090715 0.04767432627911727 88.63410178279094 0.04767432627911727 88.63410178279094 0.9997158544573841 -1.3658982172090715
2440000000.0 0.9997064336398586 -1.3883577835819492 0.04845808659346462 88.61164221641806 0.04845808659346462 88.61164221641806 0.9997064336398586 -1.3883577835819492
2480000000.0 0.9996968614630528 -1.4108121036434835 0.04924165638650125 88.58918789635652 0.04924165638650125 88.58918789635652 0.9996968614630528 -1.4108121036434835
2520000000.0 0.9996871380049583 -1.4332612486363114 0.05002503802919899 88.56673875136369 0.05002503802919899 88.56673875136369 0.9996871380049583 -1.4332612486363114
2560000000.0 0.9996772633427075 -1.455705287336566 0.05080823380653058 88.54429471266343 0.05080823380653058 88.54429471266343 0.9996772633427075 -1.455705287336566
2600000000.0 0.99966723755261 -1.478144286169689 0.05159124592151151 88.52185571383032 0.05159124592151151 88.52185571383032 0.99966723755261 -1.478144286169689
2640000000.0 0.9996570607101815 -1.500578309319119 0.05237407649899296 88.49942169068089 0.05237407649899296 88.49942169068089 0.9996570607101815 -1.500578309319119
2680000000.0 0.999646732890175 -1.5230074188283815 0.05315672758922477 88.47699258117161 0.05315672758922477 88.47699258117161 0.999646732890175 -1.5230074188283815
2720000000.0 0.9996362541666106 -1.5454316746970926 0.05393920117120574 88.45456832530292 0.05393920117120574 88.45456832530292 0.9996362541666106 -1.5454316746970926
2760000000.0 0.999625624612802 -1.567851134971303 0.05472149915583657 88.43214886502871 0.05472149915583657 88.43214886502871 0.999625624612802 -1.567851134971303
2800000000.0 0.999614844301382 -1.5902658558286078 0.055503623388890005 88.4097341441714 0.055503623388890005 88.4097341441714 0.999614844301382 -1.5902658558286078
2840000000.0 0.9996039133043295 -1.6126758916583919 0.05628557565381128 88.38732410834162 0.05628557565381128 88.38732410834162 0.9996039133043295 -1.6126758916583919
2880000000.0 0.9995928316929931 -1.6350812951375475 0.057067357674360566 88.36491870486246 0.057067357674360566 88.36491870486246 0.9995928316929931 -1.6350812951375475
2920000000.0 0.9995815995381132 -1.6574821173019916 0.05784897111710873 88.342517882698 0.05784897111710873 88.342517882698 0.9995815995381132 -1.6574821173019916
2960000000.0 0.9995702169098448 -1.6798784076142546 0.05863041759379605 88.32012159238575 0.05863041759379605 88.32012159238575 0.9995702169098448 -1.6798784076142546
3000000000.0 0.9995586838777788 -1.7022702140274193 0.059411698663563585 88.29772978597258 0.059411698663563585 88.29772978597258 0.9995586838777788 -1.7022702140274193
3040000000.0 0.9995470005109621 -1.7246575830456483 0.060192815835065416 88.27534241695436 0.060192815835065416 88.27534241695436 0.9995470005109621 -1.7246575830456483
3080000000.0 0.9995351668779172 -1.747040559781523 0.06097377056846964 88.25295944021848 0.06097377056846964 88.25295944021848 0.9995351668779172 -1.747040559781523
3120000000.0 0.9995231830466607 -1.769419188010403 0.061754564277355435 88.2305808119896 0.061754564277355435 88.2305808119896 0.9995231830466607 -1.769419188010403
3160000000.0 0.9995110490847215 -1.7917935102219982 0.06253519833051267 88.20820648977801 0.06253519833051267 88.20820648977801 0.9995110490847215 -1.7917935102219982
3200000000.0 0.9994987650591586 -1.8141635676693255 0.06331567405365061 88.18583643233069 0.06331567405365061 88.18583643233069 0.9994987650591586 -1.8141635676693255
3240000000.0 0.9994863310365761 -1.8365294004152233 0.06409599273102086 88.16347059958478 0.06409599273102086 88.16347059958478 0.9994863310365761 -1.8365294004152233
3280000000.0 0.9994737470831413 -1.8588910473765596 0.06487615560696028 88.14110895262344 0.06487615560696028 88.14110895262344 0.9994737470831413 -1.8588910473765596
3320000000.0 0.999461013264599 -1.8812485463662882 0.06565616388735868 88.1187514536337 0.06565616388735868 88.1187514536337 0.999461013264599 -1.8812485463662882
3360000000.0 0.9994481296462862 -1.9036019341334802 0.06643601874105563 88.09639806586652 0.06643601874105563 88.09639806586652 0.9994481296462862 -1.9036019341334802
3400000000.0 0.9994350962931464 -1.925951246401436 0.06721572130117072 88.07404875359857 0.06721572130117072 88.07404875359857 0.9994350962931464 -1.925951246401436
3440000000.0 0.9994219132697443 -1.9482965179040248 0.06799527266637138 88.05170348209599 0.06799527266637138 88.05170348209599 0.9994219132697443 -1.9482965179040248
3480000000.0 0.999408580640278 -1.970637782420307 0.06877467390208143 88.0293622175797 0.06877467390208143 88.0293622175797 0.999408580640278 -1.970637782420307
3520000000.0 0.9993950984685931 -1.9929750728075861 0.06955392604163434 88.00702492719242 0.06955392604163434 88.00702492719242 0.9993950984685931 -1.9929750728075861
3560000000.0 0.9993814668181927 -2.015308421032947 0.07033303008737377 87.98469157896706 0.07033303008737377 87.98469157896706 0.9993814668181927 -2.015308421032947
3600000000.0 0.999367685752252 -2.037637858203377 0.07111198701170487 87.96236214179662 0.07111198701170487 87.96236214179662 0.999367685752252 -2.037637858203377
3640000000.0 0.9993537553336287 -2.059963414594554 0.07189079775809883 87.94003658540545 0.07189079775809883 87.94003658540545 0.9993537553336287 -2.059963414594554
3680000000.0 0.9993396756248737 -2.082285119678358 0.07266946324205291 87.91771488032164 0.07266946324205291 87.91771488032164 0.9993396756248737 -2.082285119678358
3720000000.0 0.9993254466882433 -2.104603002149197 0.07344798435200928 87.89539699785081 0.07344798435200928 87.89539699785081 0.9993254466882433 -2.104603002149197
3760000000.0 0.9993110685857073 -2.1269170899491923 0.0742263619502338 87.87308291005081 0.0742263619502338 87.87308291005081 0.9993110685857073 -2.1269170899491923
3800000000.0 0.9992965413789618 -2.1492274102922995 0.07500459687365789 87.8507725897077 0.07500459687365789 87.8507725897077 0.9992965413789618 -2.1492274102922995
3840000000.0 0.9992818651294367 -2.171533989687403 0.07578268993468432 87.8284660103126 0.07578268993468432 87.8284660103126 0.9992818651294367 -2.171533989687403
3880000000.0 0.9992670398983069 -2.19383685396046 0.07656064192196016 87.80616314603955 0.07656064192196016 87.80616314603955 0.9992670398983069 -2.19383685396046
3920000000.0 0.9992520657464997 -2.21613602827572 0.07733845360111724 87.78386397172429 0.07733845360111724 87.78386397172429 0.9992520657464997 -2.21613602827572
3960000000.0 0.9992369427347053 -2.238431537156088 0.07811612571548274 87.76156846284391 0.07811612571548274 87.76156846284391 0.9992369427347053 -2.238431537156088
4000000000.0 0.9992216709233843 -2.260723404502656 0.07889365898676083 87.73927659549736 0.07889365898676083 87.73927659549736 0.9992216709233843 -2.260723404502656
4040000000.0 0.9992062503727765 -2.2830116536134573 0.07967105411568721 87.71698834638656 0.07967105411568721 87.71698834638656 0.9992062503727765 -2.2830116536134573
4080000000.0 0.9991906811429088 -2.305296307201481 0.08044831178265777 87.69470369279853 0.08044831178265777 87.69470369279853 0.9991906811429088 -2.305296307201481
4120000000.0 0.999174963293603 -2.3275773874119703 0.08122543264833222 87.67242261258804 0.08122543264833222 87.67242261258804 0.999174963293603 -2.3275773874119703
4160000000.0 0.9991590968844831 -2.349854915839062 0.0820024173542148 87.65014508416094 0.0820024173542148 87.65014508416094 0.9991590968844831 -2.349854915839062
4200000000.0 0.999143081974984 -2.3721289135417725 0.0827792665232124 87.62787108645823 0.0827792665232124 87.62787108645823 0.999143081974984 -2.3721289135417725
4240000000.0 0.9991269186243564 -2.3943994010593848 0.08355598076017118 87.60560059894063 0.08355598076017118 87.60560059894063 0.9991269186243564 -2.3943994010593848
4280000000.0 0.9991106068916756 -2.416666398426249 0.08433256065239338 87.58333360157376 0.08433256065239338 87.58333360157376 0.9991106068916756 -2.416666398426249
4320000000.0 0.9990941468358477 -2.438929925186033 0.08510900677013465 87.56107007481397 0.08510900677013465 87.56107007481397 0.9990941468358477 -2.438929925186033
4360000000.0 0.9990775385156152 -2.4611900004054403 0.08588531966708265 87.53880999959456 0.08588531966708265 87.53880999959456 0.9990775385156152 -2.4611900004054403
4400000000.0 0.9990607819895653 -2.4834466426874324 0.08666149988081873 87.51655335731257 0.08666149988081873 87.51655335731257 0.9990607819895653 -2.4834466426874324
4440000000.0 0.9990438773161341 -2.505699870183965 0.0874375479332622 87.49430012981604 0.0874375479332622 87.49430012981604 0.9990438773161341 -2.505699870183965
4480000000.0 0.9990268245536135 -2.527949700608259 0.08821346433109883 87.47205029939174 0.08821346433109883 87.47205029939174 0.9990268245536135 -2.527949700608259
4520000000.0 0.9990096237601576 -2.5501961512466473 0.08898924956619425 87.44980384875336 0.08898924956619425 87.44980384875336 0.9990096237601576 -2.5501961512466473
4560000000.0 0.9989922749937867 -2.5724392389699937 0.08976490411599235 87.42756076103001 0.08976490411599235 87.42756076103001 0.9989922749937867 -2.5724392389699937
4600000000.0 0.998974778312395 -2.5946789802447086 0.09054042844389999 87.40532101975529 0.09054042844389999 87.40532101975529 0.998974778312395 -2.5946789802447086
4640000000.0 0.9989571337737538 -2.61691539114339 0.09131582299965821 87.38308460885662 0.09131582299965821 87.38308460885662 0.9989571337737538 -2.61691539114339
4680000000.0 0.9989393414355188 -2.639148487355087 0.09209108821970063 87.36085151264491 0.09209108821970063 87.36085151264491 0.9989393414355188 -2.639148487355087
4720000000.0 0.9989214013552326 -2.6613782841952243 0.09286622452749968 87.33862171580478 0.09286622452749968 87.33862171580478 0.9989214013552326 -2.6613782841952243
4760000000.0 0.9989033135903327 -2.683604796615181 0.09364123233390108 87.31639520338483 0.09364123233390108 87.31639520338483 0.9989033135903327 -2.683604796615181
