! Created with skrf (http://scikit-rf.org).
# Hz S MA R 50.0 
!freq magS11 angS11 magS21 angS21 magS12 angS12 magS22 angS22
40000000.0 0.0013434149503502952 73.38081244742646 0.9996176775844797 -0.12175224952034681 0.9996176775844797 -0.12175224952034681 0.0013434149503502952 73.38081244742646
80000000.0 0.0024302213173004743 72.35385452605503 0.9992698394251813 -0.2279384349972493 0.9992698394251813 -0.2279384349972493 0.0024302213173004743 72.35385452605503
120000000.0 0.0034215358854581012 71.49280779673033 0.9989272407920636 -0.32816131926552955 0.9989272407920636 -0.32816131926552955 0.0034215358854581012 71.49280779673033
160000000.0 0.0043511466996430555 70.7489503830442 0.9985873854369475 -0.42449639004161177 0.9985873854369475 -0.42449639004161177 0.0043511466996430555 70.7489503830442
200000000.0 0.005235046015896484 70.08663322837363 0.9982493228608547 -0.5179318954516907 0.9982493228608547 -0.5179318954516907 0.005235046015896484 70.08663322837363
240000000.0 0.006082629541692785 69.48425047195735 0.9979125739720902 -0.6090508765807987 0.9979125739720902 -0.6090508765807987 0.006082629541692785 69.48425047195735
280000000.0 0.006900093095013824 68.92797997084399 0.9975768596525937 -0.6982390855482863 0.9975768596525937 -0.6982390855482863 0.006900093095013824 68.92797997084399
320000000.0 0.00769183273164699 68.40845608043772 0.9972420020005417 -0.7857709883447761 0.9972420020005417 -0.7857709883447761 0.00769183273164699 68.40845608043772
360000000.0 0.008461130439852756 67.9190257247876 0.9969078804596657 -0.8718519973316996 0.9969078804596657 -0.8718519973316996 0.008461130439852756 67.9190257247876
400000000.0 0.009210530278539806 67.45477992533925 0.9965744096307871 -0.9566416897919318 0.9965744096307871 -0.9566416897919318 0.009210530278539806 67.45477992533925
440000000.0 0.009942062150779035 67.01198346035478 0.996241526966695 -1.0402676478685582 0.996241526966695 -1.0402676478685582 0.009942062150779035 67.01198346035478
480000000.0 0.010657383343593948 66.58772142428195 0.9959091854595358 -1.122834227460493 0.9959091854595358 -1.122834227460493 0.010657383343593948 66.58772142428195
520000000.0 0.01135787245929202 66.17967055264533 0.995577349054201 -1.204428386549809 0.995577349054201 -1.204428386549809 0.01135787245929202 66.17967055264533
560000000.0 0.012044694214500686 65.78594577616116 0.9952459896441098 -1.285123711545782 0.9952459896441098 -1.285123711545782 0.012044694214500686 65.78594577616116
600000000.0 0.01271884559327696 65.40499400691772 0.9949150850321392 -1.364983288759232 0.9949150850321392 -1.364983288759232 0.01271884559327696 65.40499400691772
640000000.0 0.01338118961308625 65.03551862871936 0.9945846175048144 -1.444061807724634 0.9945846175048144 -1.444061807724634 0.01338118961308625 65.03551862871936
680000000.0 0.014032480599027302 64.67642455787565 0.9942545728098059 -1.5224071373359802 0.9942545728098059 -1.5224071373359802 0.014032480599027302 64.67642455787565
720000000.0 0.014673383478229681 64.32677745249391 0.9939249394065529 -1.600061530350345 0.9939249394065529 -1.600061530350345 0.014673383478229681 64.32677745249391
760000000.0 0.015304488764285543 63.985772880739106 0.993595707906615 -1.6770625597710038 0.993595707906615 -1.6770625597710038 0.015304488764285543 63.985772880739106
800000000.0 0.01592632437150358 63.65271264404365 0.9932668706487469 -1.753443857830566 0.9932668706487469 -1.753443857830566 0.01592632437150358 63.65271264404365
840000000.0 0.016539365055190706 63.32698633531339 0.9929384213715323 -1.8292357070202625 0.9929384213715323 -1.8292357070202625 0.016539365055190706 63.32698633531339
880000000.0 0.01714404004565889 63.00805679049098 0.9926103549578894 -1.9044655184505472 0.9926103549578894 -1.9044655184505472 0.01714404004565889 63.00805679049098
920000000.0 0.017740739288174656 62.69544847866096 0.992282667233338 -1.9791582231850753 0.992282667233338 -1.9791582231850753 0.017740739288174656 62.69544847866096
960000000.0 0.01832981859310943 62.38873813980708 0.9919553548050581 -2.053336595488874 0.9919553548050581 -2.053336595488874 0.01832981859310943 62.38873813980708
1000000000.0 0.018911603924194872 62.08754716279285 0.9916284149322716 -2.127021522188924 0.9916284149322716 -2.127021522188924 0.018911603924194872 62.08754716279285
1040000000.0 0.01948639499789427 61.79153532571207 0.9913018454209584 -2.2002322289331695 0.9913018454209584 -2.2002322289331695 0.01948639499789427 61.79153532571207
1080000000.0 0.020054468326840127 61.500395613700086 0.990975644537678 -2.272986471642004 0.990975644537678 -2.272986471642004 0.020054468326840127 61.500395613700086
1120000000.0 0.020616079810642333 61.213849896914425 0.9906498109385208 -2.3453006996012524 0.9906498109385208 -2.3453006996012524 0.020616079810642333 61.213849896914425
1160000000.0 0.02117146695516633 60.93164530116434 0.9903243436101575 -2.417190195262531 0.9903243436101575 -2.417190195262531 0.02117146695516633 60.93164530116434
1200000000.0 0.021720850784548763 60.65355114078773 0.9899992418206348 -2.4886691947680197 0.9899992418206348 -2.4886691947680197 0.021720850784548763 60.65355114078773
1240000000.0 0.02226443749732628 60.379356311332295 0.9896745050780772 -2.5597509924127437 0.9896745050780772 -2.5597509924127437 0.02226443749732628 60.379356311332295
1280000000.0 0.02280241990807956 60.10886706087504 0.9893501330958543 -2.630448031635219 0.9893501330958543 -2.630448031635219 0.02280241990807956 60.10886706087504
1320000000.0 0.023334978708210868 59.84190507517233 0.989026125763064 -2.7007719846414098 0.989026125763064 -2.7007719846414098 0.023334978708210868 59.84190507517233
1360000000.0 0.02386228357334291 59.57830582449625 0.9887024831194084 -2.7707338223840123 0.9887024831194084 -2.7707338223840123 0.02386228357334291 59.57830582449625
1400000000.0 0.02438449413996243 59.317917129929874 0.9883792053337305 -2.8403438763151727 0.9883792053337305 -2.8403438763151727 0.02438449413996243 59.317917129929874
1440000000.0 0.024901760870045534 59.06059791467879 0.9880562926856066 -2.909611893087555 0.9880562926856066 -2.909611893087555 0.024901760870045534 59.06059791467879
1480000000.0 0.025414225819266823 58.80621711216242 0.9877337455495102 -2.978547083182906 0.9877337455495102 -2.978547083182906 0.025414225819266823 58.80621711216242
1520000000.0 0.025922023321861623 58.55465270757629 0.9874115643811353 -3.047158164288395 0.9874115643811353 -3.047158164288395 0.025922023321861623 58.55465270757629
1560000000.0 0.02642528060313876 58.305790893596324 0.9870897497055691 -3.115453400111512 0.9870897497055691 -3.115453400111512 0.02642528060313876 58.305790893596324
1600000000.0 0.026924118328947137 58.059525324110474 0.9867683021070159 -3.1834406352180995 0.9867683021070159 -3.1834406352180995 0.026924118328947137 58.059525324110474
1640000000.0 0.02741865109999969 57.81575645247056 0.9864472222198631 -3.2511273263903324 0.9864472222198631 -3.2511273263903324 0.02741865109999969 57.81575645247056
1680000000.0 0.02790898789779754 57.57439094290559 0.9861265107208868 -3.3185205709288246 0.9861265107208868 -3.3185205709288246 0.02790898789779754 57.57439094290559
1720000000.0 0.02839523248793378 57.33534114548335 0.9858061683224447 -3.385627132262424 0.9858061683224447 -3.385627132262424 0.02839523248793378 57.33534114548335
1760000000.0 0.028877483785746963 57.09852462646698 0.9854861957665118 -3.45245346317859 0.9854861957665118 -3.45245346317859 0.028877483785746963 57.09852462646698
1800000000.0 0.029355836188613565 56.86386374711511 0.9851665938194575 -3.519005726944488 0.9851665938194575 -3.519005726944488 0.029355836188613565 56.86386374711511
1840000000.0 0.029830379878598295 56.63128528498053 0.9848473632674525 -3.5852898165531055 0.9848473632674525 -3.5852898165531055 0.029830379878598295 56.63128528498053
1880000000.0 0.030301201098691777 56.40072009260085 0.9845285049124329 -3.651311372297918 0.9845285049124329 -3.651311372297918 0.030301201098691777 56.40072009260085
1920000000.0 0.030768382405455038 56.17210278918485 0.9842100195685471 -3.7170757978538873 0.9842100195685471 -3.7170757978538873 0.030768382405455038 56.17210278918485
1960000000.0 0.031232002900533372 55.945371481493 0.9838919080590234 -3.78258827502019 0.9838919080590234 -3.78258827502019 0.031232002900533372 55.945371481493
2000000000.0 0.03169213844320402 55.72046751061377 0.9835741712134101 -3.84785377726114 0.9835741712134101 -3.84785377726114 0.03169213844320402 55.72046751061377
2040000000.0 0.032148861845857184 55.49733522177618 0.9832568098651334 -3.9128770821653966 0.9832568098651334 -3.9128770821653966 0.032148861845857184 55.49733522177618
2080000000.0 0.032602243054091 55.275921754688525 0.9829398248493513 -3.977662782929366 0.9829398248493513 -3.977662782929366 0.032602243054091 55.275921754688525
2120000000.0 0.03305234931290133 55.05617685222973 0.9826232170010489 -4.042215298958628 0.9826232170010489 -4.042215298958628 0.03305234931290133 55.05617685222973
2160000000.0 0.03349924532028421 54.83805268556234 0.982306987153363 -4.1065388856703855 0.982306987153363 -4.1065388856703855 0.03349924532028421 54.83805268556234
2200000000.0 0.03394299336941752 54.62150369399559 0.9819911361360978 -4.170637643570984 0.9819911361360978 -4.170637643570984 0.03394299336941752 54.62150369399559
2240000000.0 0.034383653480465334 54.40648643810136 0.9816756647744173 -4.234515526674229 0.9816756647744173 -4.234515526674229 0.034383653480465334 54.40648643810136
2280000000.0 0.034821283522932754 54.192959464776166 0.9813605738876942 -4.29817635031935 0.9813605738876942 -4.29817635031935 0.034821283522932754 54.192959464776166
2320000000.0 0.035255939329401804 53.98088318309006 0.9810458642884876 -4.361623798441231 0.9810458642884876 -4.361623798441231 0.035255939329401804 53.98088318309006
2360000000.0 0.03568767480139535 53.770219749884895 0.9807315367816539 -4.424861430340022 0.9807315367816539 -4.424861430340022 0.03568767480139535 53.770219749884895
2400000000.0 0.036116542008037246 53.56093296420828 0.9804175921635562 -4.48789268699258 0.9804175921635562 -4.48789268699258 0.036116542008037246 53.56093296420828
2440000000.0 0.036542591278109195 53.352988169769596 0.9801040312213766 -4.550720896943812 0.9801040312213766 -4.550720896943812 0.036542591278109195 53.352988169769596
2480000000.0 0.036965871286050535 53.14635216468071 0.9797908547325122 -4.61334928181238 0.9797908547325122 -4.61334928181238 0.036965871286050535 53.14635216468071
2520000000.0 0.0373864291323865 52.94099311783912 0.9794780634640476 -4.675780961441779 0.9794780634640476 -4.675780961441779 0.0373864291323865 52.94099311783912
2560000000.0 0.037804310419032934 52.7368804913568 0.9791656581722996 -4.738018958724939 0.9791656581722996 -4.738018958724939 0.037804310419032934 52.7368804913568
2600000000.0 0.038219559319874696 52.53398496852169 0.9788536396024199 -4.800066204127783 0.9788536396024199 -4.800066204127783 0.038219559319874696 52.53398496852169
2640000000.0 0.0386322186469855 52.332278386811964 0.9785420084880542 -4.861925539934945 0.9785420084880542 -4.861925539934945 0.0386322186469855 52.332278386811964
2680000000.0 0.03904232991281898 52.13173367553859 0.9782307655510531 -4.923599724238589 0.9782307655510531 -4.923599724238589 0.03904232991281898 52.13173367553859
2720000000.0 0.039449933388671796 51.93232479773628 0.9779199115012221 -4.985091434689534 0.9779199115012221 -4.985091434689534 0.039449933388671796 51.93232479773628
2760000000.0 0.039855068159695695 51.73402669595148 0.9776094470361181 -5.046403272028099 0.9776094470361181 -5.046403272028099 0.039855068159695695 51.73402669595148
2800000000.0 0.04025777217670738 51.536815241616836 0.9772993728408752 -5.107537763410682 0.9772993728408752 -5.107537763410682 0.04025777217670738 51.536815241616836
2840000000.0 0.040658082305026905 51.34066718772428 0.9769896895880673 -5.16849736554655 0.9769896895880673 -5.16849736554655 0.040658082305026905 51.34066718772428
2880000000.0 0.04105603437055323 51.14556012454213 0.9766803979375966 -5.229284467658233 0.9766803979375966 -5.229284467658233 0.04105603437055323 51.14556012454213
2920000000.0 0.04145166320327093 50.951472438138175 0.9763714985366092 -5.289901394277824 0.9763714985366092 -5.289901394277824 0.04145166320327093 50.951472438138175
2960000000.0 0.04184500267836273 50.7583832714975 0.9760629920194335 -5.350350407890258 0.9760629920194335 -5.350350407890258 0.04184500267836273 50.7583832714975
3000000000.0 0.04223608575509221 50.566272488037015 0.9757548790075378 -5.410633711434061 0.9757548790075378 -5.410633711434061 0.04223608575509221 50.566272488037015
3040000000.0 0.04262494451360357 50.37512063734262 0.9754471601095123 -5.470753450668915 0.9754471601095123 -5.470753450668915 0.04262494451360357 50.37512063734262
3080000000.0 0.043011610189776804 50.184908922965136 0.9751398359210594 -5.530711716418904 0.9751398359210594 -5.530711716418904 0.043011610189776804 50.184908922965136
3120000000.0 0.043396113208266536 49.99561917212339 0.9748329070250046 -5.590510546699445 0.9748329070250046 -5.590510546699445 0.043396113208266536 49.99561917212339
3160000000.0 0.043778483213838086 49.80723380718339 0.9745263739913208 -5.650151928735323 0.9745263739913208 -5.650151928735323 0.043778483213838086 49.80723380718339
3200000000.0 0.04415874910111165 49.61973581878519 0.9742202373771622 -5.709637800876814 0.9742202373771622 -5.709637800876814 0.04415874910111165 49.61973581878519
3240000000.0 0.04453693904281272 49.433108740504494 0.9739144977269104 -5.768970054420133 0.9739144977269104 -5.768970054420133 0.04453693904281272 49.433108740504494
3280000000.0 0.04491308051662281 49.24733662494085 0.9736091555722293 -5.828150535338203 0.9736091555722293 -5.828150535338203 0.04491308051662281 49.24733662494085
3320000000.0 0.04528720033071362 49.06240402114103 0.9733042114321309 -5.887181045927151 0.9733042114321309 -5.887181045927151 0.04528720033071362 49.06240402114103
3360000000.0 0.04565932464804702 48.87829595326176 0.9729996658130449 -5.946063346373613 0.9729996658130449 -5.946063346373613 0.04565932464804702 48.87829595326176
3400000000.0 0.04602947900951253 48.694997900394995 0.9726955192088984 -6.00479915624758 0.9726955192088984 -6.00479915624758 0.04602947900951253 48.694997900394995
3440000000.0 0.04639768835597203 48.51249577747517 0.9723917721012009 -6.063390155925116 0.9723917721012009 -6.063390155925116 0.04639768835597203 48.51249577747517
3480000000.0 0.04676397704927421 48.33077591720301 0.9720884249591323 -6.121837987945058 0.9720884249591323 -6.121837987945058 0.04676397704927421 48.33077591720301
3520000000.0 0.04712836889229971 48.14982505291716 0.9717854782396388 -6.180144258303459 0.9717854782396388 -6.180144258303459 0.04712836889229971 48.14982505291716
3560000000.0 0.04749088714809144 47.96963030235408 0.971482932387532 -6.238310537689334 0.971482932387532 -6.238310537689334 0.04749088714809144 47.96963030235408
3600000000.0 0.04785155455812048 47.79017915224446 0.9711807878355899 -6.2963383626649625 0.9711807878355899 -6.2963383626649625 0.04785155455812048 47.79017915224446
3640000000.0 0.048210393359738125 47.61145944368826 0.9708790450046628 -6.354229236793868 0.9708790450046628 -6.354229236793868 0.048210393359738125 47.61145944368826
3680000000.0 0.04856742530285676 47.43345935826721 0.9705777043037822 -6.411984631719319 0.9705777043037822 -6.411984631719319 0.04856742530285676 47.43345935826721
3720000000.0 0.048922671665903354 47.2561674048436 0.97027676613027 -6.469605988196037 0.97027676613027 -6.469605988196037 0.048922671665903354 47.2561674048436
3760000000.0 0.04927615327108329 47.0795724070103 0.9699762308698522 -6.5270947170776275 0.9699762308698522 -6.5270947170776275 0.04927615327108329 47.0795724070103
3800000000.0 0.049627890498991994 46.90366349115053 0.9696760988967708 -6.584452200262108 0.9696760988967708 -6.584452200262108 0.049627890498991994 46.90366349115053
3840000000.0 0.04997790330260879 46.7284300750706 0.9693763705739021 -6.641679791597691 0.9693763705739021 -6.641679791597691 0.04997790330260879 46.7284300750706
3880000000.0 0.05032621122070601 46.553861857174496 0.9690770462528714 -6.698778817750889 0.9690770462528714 -6.698778817750889 0.05032621122070601 46.553861857174496
3920000000.0 0.05067283339070207 46.37994880614853 0.968778126274171 -6.755750579039003 0.968778126274171 -6.755750579039003 0.05067283339070207 46.37994880614853
3960000000.0 0.05101778856098735 46.206681151127164 0.9684796109672782 -6.812596350228565 0.9684796109672782 -6.812596350228565 0.05101778856098735 46.206681151127164
4000000000.0 0.05136109510275171 46.03404937231159 0.9681815006507734 -6.869317381301735 0.9681815006507734 -6.869317381301735 0.05136109510275171 46.03404937231159
4040000000.0 0.05170277102133506 45.86204419201859 0.9678837956324604 -6.9259148981920235 0.9678837956324604 -6.9259148981920235 0.05170277102133506 45.86204419201859
4080000000.0 0.0520428339671275 45.69065656613294 0.9675864962094831 -6.9823901034909825 0.9675864962094831 -6.9823901034909825 0.0520428339671275 45.69065656613294
4120000000.0 0.052381301246039694 45.51987767594451 0.9672896026684462 -7.0387441771272465 0.9672896026684462 -7.0387441771272465 0.052381301246039694 45.51987767594451
4160000000.0 0.05271818982956597 45.34969892034503 0.9669931152855338 -7.094978277019265 0.9669931152855338 -7.094978277019265 0.05271818982956597 45.34969892034503
4200000000.0 0.05305351636445732 45.18011190837026 0.9666970343266273 -7.151093539702995 0.9666970343266273 -7.151093539702995 0.05305351636445732 45.18011190837026
4240000000.0 0.05338729718202562 45.0111084520649 0.9664013600474242 -7.207091080935736 0.9664013600474242 -7.207091080935736 0.05338729718202562 45.0111084520649
4280000000.0 0.05371954830709408 44.842680559656614 0.9661060926935553 -7.262971996277241 0.9661060926935553 -7.262971996277241 0.05371954830709408 44.842680559656614
4320000000.0 0.05405028546661333 44.674820429019604 0.965811232500702 -7.318737361649155 0.965811232500702 -7.318737361649155 0.05405028546661333 44.674820429019604
4360000000.0 0.05437952409795495 44.50752044141737 0.9655167796947131 -7.374388233873798 0.9655167796947131 -7.374388233873798 0.05437952409795495 44.50752044141737
4400000000.0 0.054707279356901665 44.3407731555049 0.965222734491721 -7.429925651193208 0.965222734491721 -7.429925651193208 0.054707279356901665 44.3407731555049
4440000000.0 0.05503356612534334 44.17457130158289 0.9649290970982559 -7.4853506337693725 0.9649290970982559 -7.4853506337693725 0.05503356612534334 44.17457130158289
4480000000.0 0.05535839901869723 44.00890777608597 0.9646358677113605 -7.540664184166503 0.9646358677113605 -7.540664184166503 0.05535839901869723 44.00890777608597
4520000000.0 0.05568179239305919 43.8437756362979 0.9643430465187034 -7.595867287816069 0.9643430465187034 -7.595867287816069 0.05568179239305919 43.8437756362979
4560000000.0 0.056003760352103076 43.67916809527893 0.9640506336986928 -7.650960913465504 0.9640506336986928 -7.650960913465504 0.056003760352103076 43.67916809527893
4600000000.0 0.05632431675373566 43.51507851699744 0.9637586294205854 -7.705946013611093 0.9637586294205854 -7.705946013611093 0.05632431675373566 43.51507851699744
4640000000.0 0.05664347521652003 43.35150041165453 0.9634670338446011 -7.76082352491602 0.9634670338446011 -7.76082352491602 0.05664347521652003 43.35150041165453
4680000000.0 0.056961249125875454 43.18842743119311 0.9631758471220284 -7.8155943686138185 0.9631758471220284 -7.8155943686138185 0.056961249125875454 43.18842743119311
4720000000.0 0.057277651640065534 43.02585336498239 0.9628850693953357 -7.870259450898286 0.9628850693953357 -7.870259450898286 0.057277651640065534 43.02585336498239
4760000000.0 0.057592695695981876 42.863772135668704 0.9625947007982794 -7.924819663300054 0.9625947007982794 -7.924819663300054 0.057592695695981876 42.863772135668704
